#  HZ   S   MA   R     50.00 
! Rohde & Schwarz ZVA67 4Ports - Version 4.11 - 1305.7002k04 SN: 101051
! Date: 2023-04-26 10:48:23
! Measurements: S11 S21 S12 S22 
! 
 8.200000000000000E9     6.569446344505197E-1  -1.790550176366552E2   7.326644482738851E-1   9.132217255172661E1   7.331619873482024E-1   9.114195458435442E1   6.593501295019059E-1   1.797520986806599E2  
 8.210000000000000E9     6.555747686683723E-1  -1.790951664711193E2   7.326173130689210E-1   9.078985360879513E1   7.331976454308943E-1   9.058413138878731E1   6.583987410516723E-1   1.797386756500052E2  
 8.220000000000000E9     6.544097349037565E-1  -1.793972752743705E2   7.336161605109171E-1   9.045423410386097E1   7.339517209539076E-1   9.026181258282406E1   6.573726175932185E-1   1.794001601493781E2  
 8.230000000000000E9     6.536979492681292E-1  -1.797128912042284E2   7.346841108769541E-1   9.013262202815471E1   7.349319685437454E-1   8.994170682863184E1   6.565344759405543E-1   1.790426035930672E2  
 8.240000000000000E9     6.528280186867412E-1   1.799798048298464E2   7.354724945835812E-1   8.980304390437111E1   7.360270721469535E-1   8.962593180271421E1   6.558363706555165E-1   1.787022159449721E2  
 8.250000000000000E9     6.518576524856693E-1   1.796734357743043E2   7.362651501416341E-1   8.947353267564382E1   7.370079862280801E-1   8.928077670453723E1   6.548977153934011E-1   1.783642382418834E2  
 8.260000000000000E9     6.507895178143289E-1   1.793594532586492E2   7.371027199222605E-1   8.914634734052123E1   7.376377880182399E-1   8.895140117723766E1   6.537898479794086E-1   1.779902027436196E2  
 8.270000000000000E9     6.498404055883401E-1   1.790230469766813E2   7.379264592844133E-1   8.881570790543974E1   7.386401420633338E-1   8.863216631439207E1   6.528063186230751E-1   1.776404917381524E2  
 8.280000000000000E9     6.486475104047880E-1   1.787113427009693E2   7.389735199313250E-1   8.849455373542378E1   7.393342643670510E-1   8.830246699766886E1   6.518550300530782E-1   1.772951147145124E2  
 8.290000000000000E9     6.475818834502292E-1   1.783984550267613E2   7.396929186017596E-1   8.816415596741882E1   7.404137685794432E-1   8.797262756352340E1   6.508156302737851E-1   1.769346897321412E2  
 8.300000000000000E9     6.464539821772741E-1   1.780818741483894E2   7.406616187092793E-1   8.782393865852656E1   7.412729538559921E-1   8.764704888489079E1   6.498094719113111E-1   1.766023505779176E2  
 8.310000000000000E9     6.455746226501367E-1   1.777736201860160E2   7.417305824534205E-1   8.751640427191261E1   7.422439682842681E-1   8.732657774793758E1   6.488080027348093E-1   1.762471864454432E2  
 8.320000000000000E9     6.446315162254329E-1   1.774304520194081E2   7.426588299661998E-1   8.718307133176106E1   7.433821395149063E-1   8.697670225838775E1   6.477319925857485E-1   1.758741842516038E2  
 8.330000000000000E9     6.435025678403832E-1   1.771135080758183E2   7.436945783703173E-1   8.684400052404490E1   7.443556693741859E-1   8.664787980671727E1   6.467319476154571E-1   1.755127696225938E2  
 8.340000000000000E9     6.424983546625059E-1   1.768076121260238E2   7.449419489950406E-1   8.650995662554269E1   7.453494681836305E-1   8.631572027895584E1   6.456123940287167E-1   1.751715289794383E2  
 8.350000000000000E9     6.413923916145269E-1   1.764896648364967E2   7.458298466494171E-1   8.617628435963185E1   7.463041812734386E-1   8.598329689643079E1   6.443341158288918E-1   1.748125039440170E2  
 8.360000000000000E9     6.401904225454644E-1   1.761624808754397E2   7.467626234342928E-1   8.583990289713297E1   7.473430631960270E-1   8.563784136345355E1   6.430977548378635E-1   1.744403333890062E2  
 8.370000000000000E9     6.391990206213027E-1   1.758435918021564E2   7.480091234302918E-1   8.550304551995126E1   7.485027448603415E-1   8.529681438034913E1   6.418985661906868E-1   1.740782449329062E2  
 8.380000000000000E9     6.380918099463442E-1   1.754920984733280E2   7.489697484100397E-1   8.516196152880991E1   7.495170030454121E-1   8.495473686876123E1   6.408596815863645E-1   1.737237206752321E2  
 8.390000000000000E9     6.368494844733177E-1   1.751811255818820E2   7.501028929438321E-1   8.481484505183663E1   7.505146861940245E-1   8.461286387915922E1   6.395559535894054E-1   1.733779058291495E2  
 8.400000000000000E9     6.354828354034999E-1   1.748493433815395E2   7.511634018913970E-1   8.447626005021894E1   7.517811711600201E-1   8.427030130374969E1   6.383772423210370E-1   1.730105109801474E2  
 8.410000000000000E9     6.345325564368473E-1   1.745184990509108E2   7.521620431486642E-1   8.413477870602105E1   7.525550465639164E-1   8.394600786076536E1   6.369274249950320E-1   1.726623272181349E2  
 8.420000000000000E9     6.331215802865111E-1   1.742075146266049E2   7.533056458482563E-1   8.379252236216344E1   7.537329325366659E-1   8.359938273577015E1   6.355358887381264E-1   1.723028062101935E2  
 8.430000000000000E9     6.316828499514133E-1   1.738532282365601E2   7.544693324387491E-1   8.344555963218085E1   7.552934491870325E-1   8.323598259188043E1   6.341672482520447E-1   1.719287150237672E2  
 8.440000000000000E9     6.304490734791605E-1   1.735193298638581E2   7.556013090331466E-1   8.309657662395756E1   7.562697034499520E-1   8.289028739687846E1   6.329231957622092E-1   1.715712973804273E2  
 8.450000000000000E9     6.290977290761326E-1   1.731741960132775E2   7.567219973501643E-1   8.276518803680429E1   7.574262593461626E-1   8.253068514073398E1   6.314207640540088E-1   1.712135114557294E2  
 8.460000000000000E9     6.278873279615610E-1   1.728218614136223E2   7.579353017677407E-1   8.239051122561463E1   7.586296244229692E-1   8.220712060668815E1   6.300333162716040E-1   1.708354383415066E2  
 8.470000000000000E9     6.266650538168753E-1   1.724803253419693E2   7.592955396842582E-1   8.204971169190442E1   7.597055975483281E-1   8.184549921858906E1   6.287187098569045E-1   1.704873353791682E2  
 8.480000000000000E9     6.253850471077731E-1   1.721593322000471E2   7.603525778030486E-1   8.171485069236725E1   7.609532984613486E-1   8.151610989101411E1   6.271556178580169E-1   1.701425722417068E2  
 8.490000000000000E9     6.241015252199662E-1   1.718096653897712E2   7.615766730734416E-1   8.135757830436558E1   7.620686410800633E-1   8.116362112140214E1   6.257664122364340E-1   1.697806031563848E2  
 8.500000000000000E9     6.225406661784216E-1   1.714728233286327E2   7.627757688201950E-1   8.101379392257181E1   7.635068688956804E-1   8.079738760513754E1   6.243113298083527E-1   1.694294992583868E2  
 8.510000000000000E9     6.213842190142326E-1   1.711343575151385E2   7.639517391863366E-1   8.065627740736238E1   7.644892452220611E-1   8.044345543555022E1   6.227329438507463E-1   1.690703799969447E2  
 8.520000000000000E9     6.199469844758083E-1   1.707791451527165E2   7.650912641111034E-1   8.029288474943790E1   7.657298379997808E-1   8.008685269423719E1   6.213653042179332E-1   1.686909435702253E2  
 8.530000000000000E9     6.186036868796860E-1   1.704335497865939E2   7.663075057029166E-1   7.993812490532275E1   7.668652272312198E-1   7.973061369153115E1   6.199438177443876E-1   1.683419566865898E2  
 8.540000000000000E9     6.169577635032840E-1   1.700795517449195E2   7.674085004337473E-1   7.958573079214196E1   7.682046685475575E-1   7.936458835658402E1   6.182628296880338E-1   1.679842815983618E2  
 8.550000000000000E9     6.153250954650896E-1   1.697228968730963E2   7.686216724544586E-1   7.921385546180456E1   7.692444207236848E-1   7.899362020229532E1   6.163501180339739E-1   1.676009673434866E2  
 8.560000000000000E9     6.138958180439558E-1   1.693787006531752E2   7.698240982385268E-1   7.886044826696224E1   7.704417759337290E-1   7.864104738729752E1   6.148012162395360E-1   1.672376377350244E2  
 8.570000000000000E9     6.122504983669856E-1   1.690357252162773E2   7.710701418720067E-1   7.849426844437033E1   7.717362769957057E-1   7.828131847815668E1   6.132531693438030E-1   1.668777601956822E2  
 8.580000000000000E9     6.104958955890036E-1   1.686571242354360E2   7.724272328392683E-1   7.814610862773269E1   7.732706669073087E-1   7.791923775982859E1   6.116936932182316E-1   1.664974639874493E2  
 8.590000000000000E9     6.090717406554084E-1   1.683167162437206E2   7.738460143771218E-1   7.777590951347017E1   7.745603434208350E-1   7.758333378127421E1   6.100360056126570E-1   1.661274400772342E2  
 8.600000000000000E9     6.072245932927597E-1   1.679580625658321E2   7.751630131054865E-1   7.740381898278196E1   7.758867398569910E-1   7.720142816431127E1   6.083342691510495E-1   1.657595061325568E2  
 8.610000000000000E9     6.058096605321892E-1   1.676146244920016E2   7.765549777222125E-1   7.703935826575894E1   7.770328752436615E-1   7.682617975941510E1   6.065842806445940E-1   1.653967990245325E2  
 8.620000000000000E9     6.041011728745649E-1   1.672528197216250E2   7.777528936048637E-1   7.666562859908080E1   7.783309090869357E-1   7.645828161524653E1   6.049534789709473E-1   1.650138441011994E2  
 8.630000000000000E9     6.023846356648855E-1   1.669048910177838E2   7.792194839257352E-1   7.630435977511792E1   7.797338671672931E-1   7.608905687536570E1   6.033255356625025E-1   1.646253836463389E2  
 8.640000000000000E9     6.008334441708216E-1   1.665392895927221E2   7.804914094360207E-1   7.592455781965390E1   7.811894267472562E-1   7.571162883299007E1   6.015134925223553E-1   1.642685322879986E2  
 8.650000000000000E9     5.988658524472149E-1   1.661738184989286E2   7.818792357345451E-1   7.555217621888146E1   7.823463670347417E-1   7.534591745863219E1   5.995682882882653E-1   1.638809340179101E2  
 8.660000000000000E9     5.970648386325339E-1   1.658246853150515E2   7.831873438844322E-1   7.518422838292001E1   7.838981757545586E-1   7.497194703047225E1   5.979705882349612E-1   1.634983170097283E2  
 8.670000000000000E9     5.951729173796583E-1   1.654634280420756E2   7.846240452861667E-1   7.480381915069800E1   7.851750259927265E-1   7.459978810324266E1   5.960357774205517E-1   1.631225319735083E2  
 8.680000000000000E9     5.932852592495025E-1   1.650960075452616E2   7.858231070094052E-1   7.441602172977323E1   7.864910727735434E-1   7.422400122334280E1   5.943359637885096E-1   1.627694440387794E2  
 8.690000000000000E9     5.913046259240834E-1   1.647331676497854E2   7.871654887892156E-1   7.405448491211460E1   7.878278652229631E-1   7.384618336048914E1   5.924272251253693E-1   1.623757947792156E2  
 8.700000000000000E9     5.892934313196102E-1   1.643662361723320E2   7.885850071732932E-1   7.366608048669416E1   7.891428841974404E-1   7.346455663568477E1   5.903098976778888E-1   1.619743073706403E2  
 8.710000000000000E9     5.872404812907790E-1   1.640018875772165E2   7.899579202054882E-1   7.328789730190523E1   7.905026572497305E-1   7.308151004017800E1   5.885952047101047E-1   1.616027193883451E2  
 8.720000000000000E9     5.852301641483286E-1   1.636346796977626E2   7.913296518531556E-1   7.290143953690567E1   7.919828016972529E-1   7.271297950395099E1   5.865517428121613E-1   1.612144881900750E2  
 8.730000000000000E9     5.832535754156795E-1   1.632715039369619E2   7.929092406088677E-1   7.252493934405545E1   7.934395204119921E-1   7.232858016037898E1   5.845194503382241E-1   1.608174557121283E2  
 8.740000000000000E9     5.810114520633485E-1   1.628813435800023E2   7.946425560847104E-1   7.214819465367366E1   7.951029762184062E-1   7.194155878005979E1   5.823808113178202E-1   1.604235822126280E2  
 8.750000000000000E9     5.789930115648913E-1   1.625100391728656E2   7.963551623601596E-1   7.175195034889532E1   7.969620825966600E-1   7.154760045087272E1   5.804222329328556E-1   1.600414179867175E2  
 8.760000000000000E9     5.770138280381149E-1   1.621463258089840E2   7.977723959496157E-1   7.136096632143803E1   7.983824923933767E-1   7.115303190376500E1   5.783601415134101E-1   1.596517119378494E2  
 8.770000000000000E9     5.747887105981074E-1   1.617840634184102E2   7.990506702808008E-1   7.095998656130416E1   7.995009992920744E-1   7.074074404123923E1   5.762384140359831E-1   1.592672442196798E2  
 8.780000000000000E9     5.725072027804138E-1   1.614060686330550E2   8.004257121037055E-1   7.055429850523852E1   8.009903441658776E-1   7.036349666146562E1   5.741046676850852E-1   1.588639635651469E2  
 8.790000000000000E9     5.703015976399566E-1   1.610454312058010E2   8.016602728382595E-1   7.016165419668347E1   8.023775567135736E-1   6.994526623926134E1   5.717769837339692E-1   1.584521253336863E2  
 8.800000000000000E9     5.678661804646258E-1   1.607317722536703E2   8.026882194657338E-1   6.959271301409308E1   8.045763720864597E-1   6.970442736062637E1   5.697284500085671E-1   1.580420219135618E2  
 8.810000000000000E9     5.654560231212213E-1   1.603683233951353E2   8.041860778314853E-1   6.918689320076628E1   8.057758466083007E-1   6.928626069480603E1   5.672517884324118E-1   1.576303927082299E2  
 8.820000000000000E9     5.628961273643844E-1   1.599923332623998E2   8.057968148359062E-1   6.876716386647129E1   8.072362716488187E-1   6.886362143047495E1   5.646140800826983E-1   1.572150485837613E2  
 8.830000000000000E9     5.602442449458762E-1   1.596469732786938E2   8.071602278251531E-1   6.835079752106125E1   8.087382277819164E-1   6.843568101760512E1   5.619726872053467E-1   1.568133954341063E2  
 8.840000000000000E9     5.575519460765218E-1   1.592879781583375E2   8.085435150647859E-1   6.791901400199055E1   8.100739746504282E-1   6.801475410313941E1   5.591941310005655E-1   1.564116845834828E2  
 8.850000000000000E9     5.545217987993978E-1   1.589335308880171E2   8.097423862704890E-1   6.746720909641961E1   8.114546409826456E-1   6.756191420598985E1   5.561311233864110E-1   1.560152623539975E2  
 8.860000000000000E9     5.509325101381096E-1   1.586084825011831E2   8.110363737223836E-1   6.699508268935547E1   8.125903923071624E-1   6.706584265070158E1   5.525580635012948E-1   1.556267486677821E2  
 8.870000000000000E9     5.473738949250683E-1   1.583455642396415E2   8.116524328862073E-1   6.650848549986296E1   8.131939293268847E-1   6.655983017762759E1   5.484990416593896E-1   1.552901990793948E2  
 8.880000000000000E9     5.434275651545268E-1   1.581692982377454E2   8.111117666009833E-1   6.596885193630220E1   8.129910604893761E-1   6.601899657232028E1   5.441850744377607E-1   1.550530944634390E2  
 8.890000000000000E9     5.400670739787539E-1   1.581972286914217E2   8.089026532758482E-1   6.547789850276001E1   8.108414212462177E-1   6.551349872464270E1   5.398965475754203E-1   1.550528781945707E2  
 8.900000000000000E9     5.394498490191958E-1   1.584237778020602E2   8.045012442189011E-1   6.516499752514588E1   8.062333604248135E-1   6.520501928856095E1   5.386002456717666E-1   1.552957198606951E2  
 8.910000000000000E9     5.431364041683896E-1   1.583605636877142E2   8.022467160773129E-1   6.518074966805253E1   8.041001415544239E-1   6.519793310162879E1   5.421093310764650E-1   1.553087241052549E2  
 8.920000000000000E9     5.461763873591777E-1   1.578114920217677E2   8.052869755875923E-1   6.518556021385155E1   8.069235793745244E-1   6.521429081713023E1   5.456889805538282E-1   1.547672927994970E2  
 8.930000000000000E9     5.460233102730552E-1   1.571271124080767E2   8.095410765189244E-1   6.496606951766502E1   8.114269998263828E-1   6.498128996150589E1   5.460717433396389E-1   1.540404555458987E2  
 8.940000000000000E9     5.442774797457846E-1   1.565118806972949E2   8.134841157610472E-1   6.462050304379825E1   8.152454494968916E-1   6.464902397189374E1   5.445484604021524E-1   1.533632082442910E2  
 8.950000000000000E9     5.418445434653437E-1   1.559691731188517E2   8.166532695835654E-1   6.422502151443965E1   8.185040321475809E-1   6.423051650723076E1   5.424146206688233E-1   1.527416305931653E2  
 8.960000000000000E9     5.395666542429001E-1   1.554882985202605E2   8.192683695007380E-1   6.381033717840118E1   8.211654298205871E-1   6.383217970457071E1   5.398466373648102E-1   1.522283516039553E2  
 8.970000000000000E9     5.368671514575384E-1   1.550487950920719E2   8.215488507189899E-1   6.338677042388801E1   8.234311386915891E-1   6.339264333260834E1   5.371873505244773E-1   1.517115763298779E2  
 8.980000000000000E9     5.341542899424590E-1   1.546231379441621E2   8.234346778431733E-1   6.297411298134237E1   8.253864386984440E-1   6.297355398639574E1   5.343480348379015E-1   1.512114368008644E2  
 8.990000000000000E9     5.315335064240020E-1   1.542324975190899E2   8.251316964226398E-1   6.255931588665173E1   8.270849977765419E-1   6.256288359773200E1   5.313483366989412E-1   1.507343556728440E2  
 9.000000000000000E9     5.289410701102647E-1   1.538233116636726E2   8.271247095375123E-1   6.213869894404578E1   8.290535467654395E-1   6.212679885460014E1   5.287166801232476E-1   1.502604997411448E2  
 9.010000000000000E9     5.261525443354721E-1   1.534248545928220E2   8.288680118009919E-1   6.173100622466033E1   8.305922155370195E-1   6.171197988284353E1   5.256696023040202E-1   1.498153668011583E2  
 9.020000000000000E9     5.236148157169105E-1   1.530390506358887E2   8.309269792563581E-1   6.130769387204101E1   8.323451421262741E-1   6.129415721717800E1   5.225636024985874E-1   1.493678914674644E2  
 9.030000000000000E9     5.209408827114279E-1   1.526473578763891E2   8.323376427073493E-1   6.088177533661759E1   8.339241093166374E-1   6.085501916959042E1   5.195853048417564E-1   1.489066295151730E2  
 9.040000000000000E9     5.184480572349788E-1   1.522474779324711E2   8.337814259506169E-1   6.047823361322713E1   8.354557503682790E-1   6.044490670445364E1   5.167501375483918E-1   1.484931753246427E2  
 9.050000000000000E9     5.157367603510328E-1   1.518921807125838E2   8.354542599365810E-1   6.006268548895743E1   8.371924043225009E-1   6.001352889144359E1   5.138969185011536E-1   1.480473303140534E2  
 9.060000000000000E9     5.132256308459553E-1   1.515084891003972E2   8.369672510051026E-1   5.964822109870354E1   8.387502738999619E-1   5.960209713666671E1   5.112471076297475E-1   1.475967827853731E2  
 9.070000000000000E9     5.108827295527919E-1   1.511428217829701E2   8.385487299703258E-1   5.923204751381709E1   8.400329127046267E-1   5.916983389570820E1   5.082044894412502E-1   1.471633307454065E2  
 9.080000000000000E9     5.083554488216696E-1   1.507681122625052E2   8.395838811600702E-1   5.881589291916463E1   8.416577592266941E-1   5.875210525318542E1   5.052308453586808E-1   1.467029308826129E2  
 9.090000000000000E9     5.058292539463221E-1   1.503696896579224E2   8.411938564818555E-1   5.839103360228371E1   8.429258180580788E-1   5.833918234732841E1   5.020318329332286E-1   1.462620417547719E2  
 9.100000000000000E9     5.032613149320949E-1   1.500172558172445E2   8.426383632708359E-1   5.798647583003389E1   8.444535190956831E-1   5.791677856163607E1   4.990589735554559E-1   1.458357066160903E2  
 9.110000000000000E9     5.006057055227995E-1   1.496281945428742E2   8.440088322578948E-1   5.756278679692880E1   8.459324611207730E-1   5.749248195255051E1   4.959200977521185E-1   1.453910312870281E2  
 9.120000000000000E9     4.980225558745957E-1   1.492466495807419E2   8.453932132433998E-1   5.715975466276007E1   8.472911266279487E-1   5.708155917854910E1   4.930550103022731E-1   1.449718096638682E2  
 9.130000000000000E9     4.952743112875418E-1   1.488746893521562E2   8.470091287110920E-1   5.671231776580648E1   8.488083895182496E-1   5.665195591501639E1   4.899606505107715E-1   1.445268345018957E2  
 9.140000000000000E9     4.926484181975426E-1   1.484946636066895E2   8.483725779496427E-1   5.630644631747347E1   8.501060873458433E-1   5.624403946347598E1   4.868566437601024E-1   1.441057021269398E2  
 9.150000000000000E9     4.899324485353332E-1   1.481126098225281E2   8.498133102005353E-1   5.589955247844303E1   8.516361392128943E-1   5.581777350041736E1   4.836839144103556E-1   1.436829863236605E2  
