#  HZ   S   MA   R     50.00 
! Rohde & Schwarz ZVA67 4Ports - Version 4.11 - 1305.7002k04 SN: 101051
! Date: 2023-04-26 10:44:08
! Measurements: S11 S21 S12 S22 
! 
 8.200000000000000E9     6.344764851072516E-1  -1.615343591831378E2   7.649862001571617E-1  -7.102309578403917E1   7.657436585436225E-1  -7.111272832681547E1   6.333339435175998E-1  -1.635037376899498E2  
 8.210000000000000E9     6.341910158297147E-1  -1.613350990654132E2   7.655023777276570E-1  -7.130101019080297E1   7.662649888396951E-1  -7.141767397669015E1   6.329171246975822E-1  -1.632811807996529E2  
 8.220000000000000E9     6.332613205555558E-1  -1.613821259983241E2   7.661001871004282E-1  -7.138073381011066E1   7.666926836318695E-1  -7.148962100938763E1   6.319451856736840E-1  -1.633553953605719E2  
 8.230000000000000E9     6.328495966772093E-1  -1.614405314989724E2   7.668117889793111E-1  -7.144980985724982E1   7.672908703861245E-1  -7.154674124948923E1   6.311191309999871E-1  -1.634410597621879E2  
 8.240000000000000E9     6.323360269325645E-1  -1.614874745742910E2   7.673469362411731E-1  -7.152178272230165E1   7.679936557583352E-1  -7.163198741186091E1   6.303908158472377E-1  -1.635320936024850E2  
 8.250000000000000E9     6.317763064268748E-1  -1.615389860755617E2   7.677072839128852E-1  -7.159501990083498E1   7.686531250594952E-1  -7.169533714888289E1   6.294563131375960E-1  -1.636048093256924E2  
 8.260000000000000E9     6.310798347009845E-1  -1.616019880781486E2   7.681251301244265E-1  -7.166260888792648E1   7.689232967492110E-1  -7.177007535449776E1   6.285501429129051E-1  -1.637210482709464E2  
 8.270000000000000E9     6.305579896275979E-1  -1.616838217424625E2   7.687600273921529E-1  -7.174133736503154E1   7.694130094984061E-1  -7.184138414949186E1   6.275509511610765E-1  -1.638093530966889E2  
 8.280000000000000E9     6.295933379118549E-1  -1.617424119385584E2   7.691202208968663E-1  -7.181291808095531E1   7.696993573536344E-1  -7.191820903350801E1   6.265952966408444E-1  -1.638987711404665E2  
 8.290000000000000E9     6.289677472582474E-1  -1.617970545935844E2   7.694517063454629E-1  -7.189332505668529E1   7.702209054698124E-1  -7.199932780015429E1   6.256517599290610E-1  -1.639938114163321E2  
 8.300000000000000E9     6.281569207133548E-1  -1.618506589829755E2   7.698996779624830E-1  -7.196858572941341E1   7.705500062119230E-1  -7.208033249870758E1   6.248446219631235E-1  -1.640667078065785E2  
 8.310000000000000E9     6.275094072511855E-1  -1.619121019925120E2   7.702822720631108E-1  -7.203489639247439E1   7.709031430386339E-1  -7.214744400545891E1   6.239340283363531E-1  -1.641527557020191E2  
 8.320000000000000E9     6.270326216974230E-1  -1.619828049812383E2   7.706161380849154E-1  -7.211547109995999E1   7.715224997921764E-1  -7.221543472470930E1   6.230716502290371E-1  -1.642440455089422E2  
 8.330000000000000E9     6.264037961822097E-1  -1.620439565347010E2   7.710564210984024E-1  -7.219396897723081E1   7.720070586782664E-1  -7.229030407126950E1   6.223482672320105E-1  -1.643509862253418E2  
 8.340000000000000E9     6.257293724359350E-1  -1.620839891845916E2   7.717390475855201E-1  -7.227296310734096E1   7.722399197313252E-1  -7.237551071760294E1   6.212800017737639E-1  -1.644188701609399E2  
 8.350000000000000E9     6.250691950874321E-1  -1.621518495713892E2   7.721443908107266E-1  -7.234364247878017E1   7.727173971508955E-1  -7.246417289066774E1   6.204586327199376E-1  -1.645196361345822E2  
 8.360000000000000E9     6.242743179561984E-1  -1.622112381277906E2   7.723533575191451E-1  -7.242384254215247E1   7.730529839791472E-1  -7.253435531692797E1   6.194221475627373E-1  -1.646157415152553E2  
 8.370000000000000E9     6.237147210950597E-1  -1.622543129790641E2   7.728154109932536E-1  -7.250137614742862E1   7.735394412664384E-1  -7.261220362703867E1   6.185921701343780E-1  -1.647075688038434E2  
 8.380000000000000E9     6.229993802376489E-1  -1.623411594051277E2   7.729252003809579E-1  -7.258117162250508E1   7.738570055989702E-1  -7.271279559155926E1   6.176981342174434E-1  -1.648026143294702E2  
 8.390000000000000E9     6.222690522236004E-1  -1.623813224625807E2   7.734244538776097E-1  -7.266316389713586E1   7.740207703474968E-1  -7.278069837036146E1   6.167122604954118E-1  -1.648758078288811E2  
 8.400000000000000E9     6.214659331868727E-1  -1.624358526703800E2   7.738462177123991E-1  -7.274342703716768E1   7.744190994626048E-1  -7.285036827818803E1   6.158079607143059E-1  -1.649711141326976E2  
 8.410000000000000E9     6.209598631959924E-1  -1.624966903990147E2   7.738504639987370E-1  -7.282025076817104E1   7.745572862583288E-1  -7.293049765052037E1   6.147437746429720E-1  -1.650614963337273E2  
 8.420000000000000E9     6.201107980345220E-1  -1.625300179054694E2   7.742546239223753E-1  -7.290737395021169E1   7.748205217097420E-1  -7.299678469358211E1   6.137102903287809E-1  -1.651432476436426E2  
 8.430000000000000E9     6.192602041928857E-1  -1.625902501912025E2   7.744084403774936E-1  -7.297263282818264E1   7.752217598743671E-1  -7.308809798435316E1   6.125422858793658E-1  -1.652234948713111E2  
 8.440000000000000E9     6.186434561225229E-1  -1.626406395017789E2   7.747091100777814E-1  -7.304606498356972E1   7.754625798235727E-1  -7.316872469724828E1   6.118481330376828E-1  -1.653121856563408E2  
 8.450000000000000E9     6.179571073781738E-1  -1.627022499246025E2   7.749030159976665E-1  -7.311480301231605E1   7.758113472165547E-1  -7.325100341798493E1   6.107583775077948E-1  -1.653996065545121E2  
 8.460000000000000E9     6.173353620720304E-1  -1.627467974076820E2   7.752291113649110E-1  -7.319170016492573E1   7.757432867243089E-1  -7.332108779233207E1   6.096511930764628E-1  -1.655012336570094E2  
 8.470000000000000E9     6.167636682835265E-1  -1.628092023411693E2   7.754661507191902E-1  -7.327731968541289E1   7.759580851490283E-1  -7.339984099681051E1   6.087045654134722E-1  -1.655741767492380E2  
 8.480000000000000E9     6.160771888818669E-1  -1.628508076881505E2   7.755633073818931E-1  -7.334500035701622E1   7.762119890935862E-1  -7.346218289393907E1   6.074842273535899E-1  -1.656359183118568E2  
 8.490000000000000E9     6.154934362734816E-1  -1.629107927256983E2   7.757487222069053E-1  -7.342297275053733E1   7.763813656191745E-1  -7.353523088410957E1   6.064063792527751E-1  -1.657123466152748E2  
 8.500000000000000E9     6.148391578708000E-1  -1.629506886764324E2   7.762211425035792E-1  -7.349466905766228E1   7.767375838661964E-1  -7.361954660284704E1   6.053518329273685E-1  -1.657881653622018E2  
 8.510000000000000E9     6.144134780543954E-1  -1.630026311750760E2   7.763140053999657E-1  -7.357737341366440E1   7.768414436890587E-1  -7.368302104502115E1   6.043009973619813E-1  -1.658526122354377E2  
 8.520000000000000E9     6.137603078293373E-1  -1.630594393420218E2   7.762009740600194E-1  -7.365136245682099E1   7.769871907915203E-1  -7.376059720913889E1   6.032826778034636E-1  -1.659381288872596E2  
 8.530000000000000E9     6.131765688043958E-1  -1.631179421076258E2   7.763852459621617E-1  -7.373267008309398E1   7.771040755012356E-1  -7.383984992584044E1   6.023086702375863E-1  -1.660023413010786E2  
 8.540000000000000E9     6.125551639443712E-1  -1.631682591790130E2   7.763825677458577E-1  -7.379156813384294E1   7.772596156760069E-1  -7.392131231648840E1   6.009241524356405E-1  -1.660640933649727E2  
 8.550000000000000E9     6.119633535026979E-1  -1.632365518662257E2   7.765504071041971E-1  -7.387729276348973E1   7.772301000318820E-1  -7.400729959535546E1   5.994357298588539E-1  -1.661489056970308E2  
 8.560000000000000E9     6.114790194754910E-1  -1.632748471133351E2   7.765040377652915E-1  -7.394309187725875E1   7.772189084648667E-1  -7.406611854141056E1   5.982599613400927E-1  -1.662009472247569E2  
 8.570000000000000E9     6.109564222307721E-1  -1.633221273719159E2   7.765496072392042E-1  -7.400718640755210E1   7.772937239734440E-1  -7.413956668097733E1   5.972327132232225E-1  -1.662441654346746E2  
 8.580000000000000E9     6.103503232970747E-1  -1.633992902689039E2   7.767476051762301E-1  -7.406887913594056E1   7.775710292942031E-1  -7.419727719733888E1   5.960363796765060E-1  -1.663008445464290E2  
 8.590000000000000E9     6.099700821862538E-1  -1.634400705237878E2   7.768661858602755E-1  -7.413999823359953E1   7.776796234095681E-1  -7.424818388267595E1   5.948219042479036E-1  -1.663513347268494E2  
 8.600000000000000E9     6.093439336079465E-1  -1.635093158890315E2   7.770629658927944E-1  -7.421056008287357E1   7.779042858562444E-1  -7.432266952807535E1   5.935537612332748E-1  -1.663866399750069E2  
 8.610000000000000E9     6.091205588753802E-1  -1.635561804370560E2   7.772750760704121E-1  -7.426812435106501E1   7.778454911385569E-1  -7.439531011921767E1   5.924338396464226E-1  -1.664171974424717E2  
 8.620000000000000E9     6.086288339288126E-1  -1.636247320670244E2   7.773189040499935E-1  -7.433382234466039E1   7.779482784676699E-1  -7.446501615080676E1   5.912044503530717E-1  -1.664636116658212E2  
 8.630000000000000E9     6.082212795592359E-1  -1.636856113863088E2   7.774895554057106E-1  -7.438629092661216E1   7.780714461498443E-1  -7.451879579659222E1   5.901227123800572E-1  -1.665011305151336E2  
 8.640000000000000E9     6.079630830373457E-1  -1.637537872446895E2   7.774973962940031E-1  -7.444905348796998E1   7.783429035782922E-1  -7.458826559579129E1   5.889398568338036E-1  -1.664935756005937E2  
 8.650000000000000E9     6.072742053295807E-1  -1.638235829090873E2   7.776132953098868E-1  -7.450421848554812E1   7.783336889143540E-1  -7.463110277359115E1   5.876553933460152E-1  -1.665088304035673E2  
 8.660000000000000E9     6.069043279483705E-1  -1.638925166930113E2   7.777736612881578E-1  -7.456575978273119E1   7.784033365010102E-1  -7.468985089125481E1   5.867200156264641E-1  -1.665265560927270E2  
 8.670000000000000E9     6.064128681859129E-1  -1.639732102210436E2   7.779467037473070E-1  -7.462489857725937E1   7.785925589036423E-1  -7.474173292210705E1   5.855720634511786E-1  -1.665172073209524E2  
 8.680000000000000E9     6.060405492324845E-1  -1.640589065975908E2   7.779572952709128E-1  -7.468741964917429E1   7.786079269064113E-1  -7.479086420909438E1   5.847162191432139E-1  -1.664919785864576E2  
 8.690000000000000E9     6.055232995943162E-1  -1.641501574695780E2   7.780425195384965E-1  -7.472845950335815E1   7.787227335248365E-1  -7.484408627012607E1   5.836335963730350E-1  -1.664818103127633E2  
 8.700000000000000E9     6.051056134254877E-1  -1.642403012211931E2   7.782946178206538E-1  -7.478670579207964E1   7.790065399886545E-1  -7.489974033170508E1   5.827280245960955E-1  -1.664771243602139E2  
 8.710000000000000E9     6.046372625610369E-1  -1.643299555402877E2   7.784004132266540E-1  -7.484275305610535E1   7.791328177011162E-1  -7.495520530072140E1   5.820699141166096E-1  -1.664528114181101E2  
 8.720000000000000E9     6.040701798496274E-1  -1.644264549971800E2   7.786944404429856E-1  -7.489885423724842E1   7.792888883099253E-1  -7.499243150164239E1   5.813952795781222E-1  -1.664217165154035E2  
 8.730000000000000E9     6.035962106025878E-1  -1.645077545372134E2   7.790503838226909E-1  -7.493418754344812E1   7.795774316009532E-1  -7.502450929575095E1   5.808750831564511E-1  -1.663977098559847E2  
 8.740000000000000E9     6.028202198327121E-1  -1.646136869875668E2   7.796141737348487E-1  -7.495576219270490E1   7.801117152427096E-1  -7.507564941061520E1   5.803887656928422E-1  -1.663885357953602E2  
 8.750000000000000E9     6.021706509904367E-1  -1.647049517364416E2   7.800776900141133E-1  -7.500615711947697E1   7.808054915072435E-1  -7.511120198529729E1   5.800618451508457E-1  -1.663543485999488E2  
 8.760000000000000E9     6.015533892106885E-1  -1.647940698928648E2   7.804614768562740E-1  -7.504528264743857E1   7.811268906463541E-1  -7.515937828260148E1   5.797624620555636E-1  -1.663226505486326E2  
 8.770000000000000E9     6.008232231485771E-1  -1.648794327641417E2   7.808075675878333E-1  -7.509754489221328E1   7.813349358876558E-1  -7.522448410108238E1   5.796505076082826E-1  -1.663001694499475E2  
 8.780000000000000E9     6.000724133258050E-1  -1.649756724517537E2   7.811658417446897E-1  -7.515329128357143E1   7.817643192903028E-1  -7.525322568010104E1   5.794635081907628E-1  -1.662821415585140E2  
 8.790000000000000E9     5.993267713725546E-1  -1.650834105386161E2   7.812874310626763E-1  -7.520709149096975E1   7.821406218622735E-1  -7.531683839754001E1   5.794632858463662E-1  -1.662728404659873E2  
 8.800000000000000E9     5.985111789612377E-1  -1.651112387401576E2   7.814767272985419E-1  -7.542141471051093E1   7.831181474029205E-1  -7.520582257107128E1   5.797930830316034E-1  -1.662811076986592E2  
 8.810000000000000E9     5.974937959515783E-1  -1.651824511009006E2   7.817169327157112E-1  -7.545919123554060E1   7.835410579919347E-1  -7.526929811513492E1   5.799040981697762E-1  -1.662890713100193E2  
 8.820000000000000E9     5.967384686153890E-1  -1.652732383136536E2   7.823107727995058E-1  -7.549855826250074E1   7.838531237674296E-1  -7.532437352770394E1   5.800085595471218E-1  -1.663285347620598E2  
 8.830000000000000E9     5.958991890540519E-1  -1.653462155765031E2   7.828729096609088E-1  -7.555182893160816E1   7.846057668561270E-1  -7.537724009654143E1   5.801645589310008E-1  -1.663254199541047E2  
 8.840000000000000E9     5.951401752991066E-1  -1.654279597254338E2   7.833377035719710E-1  -7.560195195110060E1   7.848324997949062E-1  -7.542605139122561E1   5.803733575935688E-1  -1.663468731423743E2  
 8.850000000000000E9     5.944472864643480E-1  -1.655156680437296E2   7.838135803521363E-1  -7.566148812482099E1   7.856171763813887E-1  -7.546665062392806E1   5.807175565973533E-1  -1.663705986200174E2  
 8.860000000000000E9     5.933836813013955E-1  -1.655693147449830E2   7.845683382288523E-1  -7.569725988363436E1   7.859570725736742E-1  -7.554153656137986E1   5.808788818411672E-1  -1.664014615526785E2  
 8.870000000000000E9     5.925197191113488E-1  -1.656429428681702E2   7.849972084274118E-1  -7.573919258183716E1   7.866576982177279E-1  -7.559497332100135E1   5.811642038033539E-1  -1.664383574995585E2  
 8.880000000000000E9     5.914814061053179E-1  -1.657178777930318E2   7.851785447244724E-1  -7.581436403007736E1   7.871883913832036E-1  -7.565586252305113E1   5.815674680270164E-1  -1.664875277445270E2  
 8.890000000000000E9     5.907378944111118E-1  -1.657827586871419E2   7.858663222552521E-1  -7.585799657791972E1   7.877903039731157E-1  -7.573408406894002E1   5.818549921849264E-1  -1.665370687675867E2  
 8.900000000000000E9     5.897688412952534E-1  -1.658539730935111E2   7.865059507140108E-1  -7.592745666990501E1   7.883210569672386E-1  -7.581901524189888E1   5.820950268830449E-1  -1.666227013508633E2  
 8.910000000000000E9     5.888574911028411E-1  -1.659077812037468E2   7.867847195470838E-1  -7.599237535150166E1   7.888030526591280E-1  -7.587725448725406E1   5.822547303169943E-1  -1.666806840259601E2  
 8.920000000000000E9     5.880870727874911E-1  -1.659433018379533E2   7.875062590099676E-1  -7.605053354493217E1   7.892845618444268E-1  -7.593138437023590E1   5.825596936183707E-1  -1.667605449136150E2  
 8.930000000000000E9     5.873334363060224E-1  -1.659879308958969E2   7.879337786947444E-1  -7.610646864465500E1   7.896606274082446E-1  -7.600292174641619E1   5.825785541780593E-1  -1.668377327162555E2  
 8.940000000000000E9     5.865572983149300E-1  -1.660306043154486E2   7.885573750112758E-1  -7.616096825193979E1   7.902652847947445E-1  -7.604898019079155E1   5.828000772715081E-1  -1.669134776237236E2  
 8.950000000000000E9     5.856437192670241E-1  -1.660824894033312E2   7.889964918140522E-1  -7.623407789075105E1   7.908112632383074E-1  -7.612967371760114E1   5.829570254100271E-1  -1.670113848365857E2  
 8.960000000000000E9     5.852357716523043E-1  -1.661300555116691E2   7.895805254261800E-1  -7.630903783189028E1   7.914070921827086E-1  -7.618728764910449E1   5.831528468465766E-1  -1.670820476492764E2  
 8.970000000000000E9     5.843017206300571E-1  -1.661600732296049E2   7.899523647740036E-1  -7.636694681339328E1   7.917593724315036E-1  -7.626823368531824E1   5.833219574928386E-1  -1.671626566461229E2  
 8.980000000000000E9     5.835079848882496E-1  -1.662169768341673E2   7.902372925781432E-1  -7.642867827137093E1   7.922454099741980E-1  -7.633904819433775E1   5.833217989585509E-1  -1.672717430218888E2  
 8.990000000000000E9     5.828177440993088E-1  -1.662413927932029E2   7.906768856869733E-1  -7.650281202836663E1   7.925467154322770E-1  -7.640499446470692E1   5.833586986726881E-1  -1.673610392129391E2  
 9.000000000000000E9     5.820130548164185E-1  -1.662793663773796E2   7.912281557483161E-1  -7.656211083928193E1   7.928944728456244E-1  -7.648561644680167E1   5.835029395783283E-1  -1.674537274552448E2  
 9.010000000000000E9     5.812203858132695E-1  -1.663233392817323E2   7.916810048824401E-1  -7.662584369508821E1   7.934121746790744E-1  -7.654808597429465E1   5.833866159439557E-1  -1.675425343690357E2  
 9.020000000000000E9     5.804992528819112E-1  -1.663511734180703E2   7.923521527666532E-1  -7.668328809505415E1   7.938244682462439E-1  -7.661466876102188E1   5.832886286266028E-1  -1.676311710840903E2  
 9.030000000000000E9     5.796519543170412E-1  -1.663870952023824E2   7.926560752307390E-1  -7.675910861725028E1   7.943981062105859E-1  -7.667969662186884E1   5.833947777867565E-1  -1.677130800142235E2  
 9.040000000000000E9     5.791316877054749E-1  -1.664496331386443E2   7.931153292941431E-1  -7.683816313361565E1   7.948031186030915E-1  -7.676449731152503E1   5.831429269169817E-1  -1.678188059039541E2  
 9.050000000000000E9     5.785124388435182E-1  -1.664520288944962E2   7.938128675963038E-1  -7.689068992110543E1   7.954220914024511E-1  -7.684270052931306E1   5.831541746736333E-1  -1.679059989927542E2  
 9.060000000000000E9     5.778240685761524E-1  -1.664816190151676E2   7.940221393785640E-1  -7.695731239064905E1   7.957896078719604E-1  -7.690583697679394E1   5.831782279750003E-1  -1.680242500662942E2  
 9.070000000000000E9     5.775453416836830E-1  -1.664987222613063E2   7.946472984370833E-1  -7.702633609823096E1   7.962220526194551E-1  -7.697547014213620E1   5.830679070872882E-1  -1.681074838847615E2  
 9.080000000000000E9     5.771354071623547E-1  -1.665217931790485E2   7.947942886142340E-1  -7.709072196984647E1   7.967328425138711E-1  -7.706324702323283E1   5.828313446011586E-1  -1.682290434372674E2  
 9.090000000000000E9     5.765089321321583E-1  -1.665777205411665E2   7.951430980685058E-1  -7.716326204302257E1   7.970970113002883E-1  -7.712761729010592E1   5.826267991336409E-1  -1.683332111200205E2  
 9.100000000000000E9     5.760993788456655E-1  -1.665846042377802E2   7.957161681276730E-1  -7.722859857490698E1   7.973067832113659E-1  -7.720272110952719E1   5.822883465111615E-1  -1.684182627406836E2  
 9.110000000000000E9     5.756990408763681E-1  -1.666289678525509E2   7.960688128663905E-1  -7.730706118766783E1   7.977849612439343E-1  -7.726583363001549E1   5.821591951170231E-1  -1.685018556172080E2  
 9.120000000000000E9     5.752476010895821E-1  -1.666635812742802E2   7.964865074456666E-1  -7.736641256736164E1   7.982095071563762E-1  -7.733828899420551E1   5.821260218037029E-1  -1.686084222308116E2  
 9.130000000000000E9     5.747973916191476E-1  -1.667018995413625E2   7.969234428524437E-1  -7.746246383194877E1   7.988286625818838E-1  -7.741834594027283E1   5.819253494796693E-1  -1.687327673084665E2  
 9.140000000000000E9     5.745943553664572E-1  -1.667199227082227E2   7.974013483981597E-1  -7.752482771086422E1   7.992109121188967E-1  -7.747937968148480E1   5.816612775265805E-1  -1.688124671306784E2  
 9.150000000000000E9     5.743620905729696E-1  -1.667622462432778E2   7.979271857033379E-1  -7.758315708415667E1   7.996874064525886E-1  -7.755053141769517E1   5.814287616875409E-1  -1.688926977365319E2  
