#  HZ   S   MA   R     50.00 
! Rohde & Schwarz ZVA67 4Ports - Version 4.11 - 1305.7002k04 SN: 101051
! Date: 2023-04-26 10:45:08
! Measurements: S11 S21 S12 S22 
! 
 8.200000000000000E9     5.509682312072517E-1   1.450446619528557E2   8.255734618788371E-1  -1.253285337531256E2   8.263208371672633E-1  -1.254644925130468E2   5.489025501592550E-1   1.428620951572860E2  
 8.210000000000000E9     5.476093934909729E-1   1.452026741861899E2   8.249420704921862E-1  -1.256769928847662E2   8.255450051997161E-1  -1.258266965625826E2   5.456437802092657E-1   1.430344397665488E2  
 8.220000000000000E9     5.449262231860321E-1   1.449807573008281E2   8.264473605307813E-1  -1.259342134329962E2   8.268729457525978E-1  -1.260630736091820E2   5.430488130886639E-1   1.428017225052345E2  
 8.230000000000000E9     5.426993123893613E-1   1.447421127002964E2   8.281776382078128E-1  -1.261697727024445E2   8.285974505335371E-1  -1.262977100688644E2   5.406199595657751E-1   1.425223011021311E2  
 8.240000000000000E9     5.402815590919234E-1   1.445144651702132E2   8.296829562802740E-1  -1.264153866036804E2   8.303581444470426E-1  -1.265429967736595E2   5.383626112702855E-1   1.422600696100471E2  
 8.250000000000000E9     5.379868472245265E-1   1.442856954099556E2   8.311873366106430E-1  -1.266513104757226E2   8.319824266231795E-1  -1.267920630169309E2   5.358628942932746E-1   1.420015502097382E2  
 8.260000000000000E9     5.355198738284008E-1   1.440461569232851E2   8.327661099042146E-1  -1.269013368244188E2   8.333443142911465E-1  -1.270362987662035E2   5.332671801431914E-1   1.417165966097112E2  
 8.270000000000000E9     5.332399578630817E-1   1.437733275007052E2   8.343743784824401E-1  -1.271484003994569E2   8.349587111538336E-1  -1.272786349356637E2   5.307337576892576E-1   1.414476354853208E2  
 8.280000000000000E9     5.306011826642541E-1   1.435405818130225E2   8.357206146713503E-1  -1.273832929060458E2   8.362825475432386E-1  -1.275211486372151E2   5.282121993763592E-1   1.411994003301035E2  
 8.290000000000000E9     5.282343368757658E-1   1.433021793487669E2   8.371414518834781E-1  -1.276216719619618E2   8.379440290305773E-1  -1.277645431382733E2   5.257275681007115E-1   1.409307100417774E2  
 8.300000000000000E9     5.257499246304178E-1   1.430581901440218E2   8.388421915129445E-1  -1.278751986059665E2   8.394215463283986E-1  -1.280039240437085E2   5.232959824383171E-1   1.406604278691228E2  
 8.310000000000000E9     5.234238062576595E-1   1.428362955863298E2   8.401877964979132E-1  -1.280998130803516E2   8.408067461930041E-1  -1.282432939633233E2   5.207976404056423E-1   1.403993668604388E2  
 8.320000000000000E9     5.211293096029340E-1   1.425797133111532E2   8.416765164526668E-1  -1.283454260070310E2   8.425090483771438E-1  -1.284977149831824E2   5.184295687300937E-1   1.401157480077838E2  
 8.330000000000000E9     5.186696228562927E-1   1.423508012014437E2   8.431825969716059E-1  -1.285982802768049E2   8.439505568249244E-1  -1.287352264820319E2   5.160473269716175E-1   1.398300002018021E2  
 8.340000000000000E9     5.162196616415690E-1   1.421058349767902E2   8.447771815909073E-1  -1.288507666778869E2   8.454183573973472E-1  -1.289793443890694E2   5.135141550295559E-1   1.395858638436461E2  
 8.350000000000000E9     5.138423903221376E-1   1.418617606698093E2   8.460532763041050E-1  -1.291008354018687E2   8.466853249294477E-1  -1.292282498403946E2   5.108167452718702E-1   1.393235133908150E2  
 8.360000000000000E9     5.115509005427523E-1   1.416227298194525E2   8.475333677765531E-1  -1.293280707076462E2   8.482496850814496E-1  -1.294705801603836E2   5.084318021873828E-1   1.390382682587720E2  
 8.370000000000000E9     5.091087366261222E-1   1.413823350652352E2   8.489586673505692E-1  -1.295828166219858E2   8.496949012558210E-1  -1.297219532557098E2   5.058742477026182E-1   1.387604457860552E2  
 8.380000000000000E9     5.067975926644763E-1   1.411245888463147E2   8.503343013724904E-1  -1.298206932448350E2   8.510373561953211E-1  -1.299776847003144E2   5.035564979581537E-1   1.385024642330916E2  
 8.390000000000000E9     5.043461702429954E-1   1.408861111014437E2   8.517553345287725E-1  -1.300709186394425E2   8.522699890870890E-1  -1.302108119865972E2   5.009106430518747E-1   1.382552100237368E2  
 8.400000000000000E9     5.016316078698264E-1   1.406399251683716E2   8.530675557038209E-1  -1.303255829703390E2   8.538957703574764E-1  -1.304677890193371E2   4.985485310631294E-1   1.379593550148415E2  
 8.410000000000000E9     4.995718668332130E-1   1.403866279596917E2   8.544248041381859E-1  -1.305700930364105E2   8.550756121556478E-1  -1.306975050123369E2   4.959712824357254E-1   1.376988064209654E2  
 8.420000000000000E9     4.970502015053398E-1   1.401480996249076E2   8.558372127824198E-1  -1.308096802842557E2   8.564444830631376E-1  -1.309458299297623E2   4.933241304307572E-1   1.374220578049087E2  
 8.430000000000000E9     4.944198694873820E-1   1.398893788255941E2   8.571536190533409E-1  -1.310596275498500E2   8.579099550684066E-1  -1.312163511892854E2   4.905964842029403E-1   1.371358879955506E2  
 8.440000000000000E9     4.920337627723997E-1   1.396325636387972E2   8.586058656545652E-1  -1.313180636312421E2   8.592605335413351E-1  -1.314592346504178E2   4.881626459948232E-1   1.368663718080410E2  
 8.450000000000000E9     4.895166002519875E-1   1.393714655346704E2   8.597444351418868E-1  -1.315584314029555E2   8.605677468576647E-1  -1.317081275422398E2   4.855198702827662E-1   1.366103123430144E2  
 8.460000000000000E9     4.872041354698923E-1   1.391092817507725E2   8.612146218553198E-1  -1.318074926537141E2   8.619273727376434E-1  -1.319502921596445E2   4.831556695475552E-1   1.363108481553088E2  
 8.470000000000000E9     4.847690297694159E-1   1.388635301577104E2   8.623730005161804E-1  -1.320478415484440E2   8.630223472301474E-1  -1.322041940510675E2   4.806291811640782E-1   1.360569213866951E2  
 8.480000000000000E9     4.823591974616825E-1   1.386105070597803E2   8.635953216492823E-1  -1.322968488136662E2   8.643870321043524E-1  -1.324442372610401E2   4.780130853425978E-1   1.358033138483098E2  
 8.490000000000000E9     4.800175387489198E-1   1.383542352345765E2   8.649595772912366E-1  -1.325482149778946E2   8.655099137369854E-1  -1.326909879535830E2   4.754328908560955E-1   1.355354330683446E2  
 8.500000000000000E9     4.774902960961534E-1   1.381180764461555E2   8.661860761153893E-1  -1.327910713472400E2   8.669284866913770E-1  -1.329422424711955E2   4.728300077091763E-1   1.352822019282316E2  
 8.510000000000000E9     4.752386246872508E-1   1.378551648876280E2   8.674655054818898E-1  -1.330507414077131E2   8.679315701526786E-1  -1.331956989398947E2   4.701777259828430E-1   1.350047405353450E2  
 8.520000000000000E9     4.727530981850598E-1   1.375962089180201E2   8.685394457063338E-1  -1.332986256381850E2   8.691493535048993E-1  -1.334351463642524E2   4.677329056615810E-1   1.347249788928015E2  
 8.530000000000000E9     4.702950831641426E-1   1.373295816457478E2   8.695388011367957E-1  -1.335596062815470E2   8.702745904518483E-1  -1.336990099969377E2   4.651052791056913E-1   1.344648817320226E2  
 8.540000000000000E9     4.678671069326973E-1   1.370822567397229E2   8.707141831118846E-1  -1.337889252157489E2   8.715230302603465E-1  -1.339634143821274E2   4.625042140402774E-1   1.341795876753144E2  
 8.550000000000000E9     4.654744950459321E-1   1.368129869714094E2   8.719727749361416E-1  -1.340469742012956E2   8.726445732089384E-1  -1.342169897927764E2   4.596208221877982E-1   1.338922931355803E2  
 8.560000000000000E9     4.631256252385730E-1   1.365587002331026E2   8.730871015755642E-1  -1.342956892479200E2   8.737543038473560E-1  -1.344498951852953E2   4.571011948189112E-1   1.336285349738220E2  
 8.570000000000000E9     4.606151716345370E-1   1.363003424084002E2   8.741991629133837E-1  -1.345469270911709E2   8.750283885984166E-1  -1.346939589904408E2   4.546368505074502E-1   1.333636512628293E2  
 8.580000000000000E9     4.581148491534216E-1   1.360288551175570E2   8.754491368103097E-1  -1.347843838489600E2   8.763334249447762E-1  -1.349405283308050E2   4.521204304806906E-1   1.330842397122629E2  
 8.590000000000000E9     4.556974370030312E-1   1.357933595233565E2   8.766445426828946E-1  -1.350305489137130E2   8.774325880992164E-1  -1.351892527572416E2   4.494459399767787E-1   1.327816957000453E2  
 8.600000000000000E9     4.532594642017264E-1   1.355213905525689E2   8.778029216123786E-1  -1.352886554819991E2   8.785190601773280E-1  -1.354328510834597E2   4.468032328166429E-1   1.325278267370832E2  
 8.610000000000000E9     4.510113092595102E-1   1.352933751472474E2   8.791289350216168E-1  -1.355375639573229E2   8.794129632828382E-1  -1.357010951148534E2   4.440824559423541E-1   1.322542710930392E2  
 8.620000000000000E9     4.485147236468336E-1   1.350152046256408E2   8.799414438365421E-1  -1.357968485371750E2   8.805801492257015E-1  -1.359499189164894E2   4.416154504254752E-1   1.319549867265838E2  
 8.630000000000000E9     4.460864374697213E-1   1.347697249128643E2   8.811041017866940E-1  -1.360457451086100E2   8.817278774847061E-1  -1.361956573627479E2   4.390202038238860E-1   1.316631637225550E2  
 8.640000000000000E9     4.438049280085382E-1   1.345144585504711E2   8.821071272160104E-1  -1.362853538628085E2   8.826494274184590E-1  -1.364532719650673E2   4.362221253677471E-1   1.314118545238635E2  
 8.650000000000000E9     4.411184891693782E-1   1.342542111197970E2   8.831040350750721E-1  -1.365394334367628E2   8.839130856583792E-1  -1.366922293666940E2   4.336061211349210E-1   1.311061193838611E2  
 8.660000000000000E9     4.387641960828740E-1   1.340067126438442E2   8.842300876868794E-1  -1.367888938906562E2   8.848142309948441E-1  -1.369448805859837E2   4.310297700934489E-1   1.308320589708733E2  
 8.670000000000000E9     4.361856811914266E-1   1.337623175225155E2   8.850832873048807E-1  -1.370385431173013E2   8.858281343718891E-1  -1.371935482977646E2   4.283158852076522E-1   1.305466038606714E2  
 8.680000000000000E9     4.337783638112502E-1   1.335006767013843E2   8.859625932142460E-1  -1.372931165215514E2   8.866772521611460E-1  -1.374220744286535E2   4.256427061476133E-1   1.303085402843338E2  
 8.690000000000000E9     4.311909014479648E-1   1.332455357626764E2   8.870109915358184E-1  -1.375231312943942E2   8.876431652678969E-1  -1.376701777942101E2   4.229857638178129E-1   1.300034529210537E2  
 8.700000000000000E9     4.286599521670337E-1   1.329799794915899E2   8.879899449475200E-1  -1.377869407509734E2   8.885452222927581E-1  -1.379290527378123E2   4.199953782326672E-1   1.297087126361161E2  
 8.710000000000000E9     4.261365139368605E-1   1.327136638511366E2   8.889405839256398E-1  -1.380208258949699E2   8.895701392453872E-1  -1.381737810400234E2   4.174811526931626E-1   1.294391811237937E2  
 8.720000000000000E9     4.236802345199289E-1   1.324362633574191E2   8.899409397720759E-1  -1.382736320584507E2   8.904786056670951E-1  -1.384035124712857E2   4.145829541101630E-1   1.291688193220023E2  
 8.730000000000000E9     4.210811599154338E-1   1.321856615797745E2   8.908996294371191E-1  -1.385163281881463E2   8.915274285044421E-1  -1.386485206153290E2   4.117625363139846E-1   1.288764237842386E2  
 8.740000000000000E9     4.183211559210634E-1   1.319154458213335E2   8.919167813776908E-1  -1.387553369021460E2   8.924144722003418E-1  -1.389016433811167E2   4.087686546604682E-1   1.285833436206323E2  
 8.750000000000000E9     4.158041309594876E-1   1.316709359582292E2   8.929514724998701E-1  -1.389909467264899E2   8.936834745814301E-1  -1.391348697708424E2   4.061321800196480E-1   1.283252905179802E2  
 8.760000000000000E9     4.136188770347031E-1   1.314240181550856E2   8.939754133888639E-1  -1.392230064478328E2   8.946622344947874E-1  -1.393786599833126E2   4.033470797533458E-1   1.280631089752569E2  
 8.770000000000000E9     4.110352288385317E-1   1.311625471226633E2   8.946032240325869E-1  -1.394664877486399E2   8.950836331940361E-1  -1.396299586935954E2   4.006068902652234E-1   1.277744815493668E2  
 8.780000000000000E9     4.084829577623568E-1   1.308964583176791E2   8.954980397539686E-1  -1.397165561518798E2   8.961661962880584E-1  -1.398563979118498E2   3.976417476411195E-1   1.274909726555855E2  
 8.790000000000000E9     4.059250143725470E-1   1.306390013265819E2   8.961900861821978E-1  -1.399512081339731E2   8.967059542925692E-1  -1.400971228884432E2   3.946920390107886E-1   1.272259967056356E2  
 8.800000000000000E9     4.032584307183855E-1   1.304316226111504E2   8.965504602091146E-1  -1.403505997187980E2   8.984867643589866E-1  -1.401753123946466E2   3.919921713287556E-1   1.269333168833101E2  
 8.810000000000000E9     4.006179103394475E-1   1.301723764303329E2   8.973496408266416E-1  -1.405875292604703E2   8.991122263937731E-1  -1.404254266472220E2   3.890541888103635E-1   1.266488843520840E2  
 8.820000000000000E9     3.980251732092602E-1   1.299080302688943E2   8.983966423701945E-1  -1.408126859045152E2   9.001217582366859E-1  -1.406672891834621E2   3.861278224479891E-1   1.263663500376206E2  
 8.830000000000000E9     3.953432678912036E-1   1.296605444540043E2   8.991729839058061E-1  -1.410367071685268E2   9.010624137694444E-1  -1.408950730530461E2   3.831592570398154E-1   1.261298466700690E2  
 8.840000000000000E9     3.927444736415749E-1   1.293837534468893E2   9.002012334051143E-1  -1.412772316145730E2   9.019632912443347E-1  -1.411250214357814E2   3.802732263833373E-1   1.258447853324956E2  
 8.850000000000000E9     3.900737326245770E-1   1.291013366475006E2   9.010239452998839E-1  -1.415157790678634E2   9.030070769735389E-1  -1.413558359124686E2   3.774672188455814E-1   1.255995476164603E2  
 8.860000000000000E9     3.872195940551668E-1   1.288456538628687E2   9.021017660602811E-1  -1.417250441136924E2   9.038043480959080E-1  -1.415986356850136E2   3.744676653965608E-1   1.253481267019174E2  
 8.870000000000000E9     3.845306632979387E-1   1.285804323767774E2   9.029089194074110E-1  -1.419437073626044E2   9.046685606915723E-1  -1.418347326406460E2   3.713199203204994E-1   1.250729540995958E2  
 8.880000000000000E9     3.818217566991244E-1   1.283155214800164E2   9.036054612883814E-1  -1.421869702374588E2   9.057741574090095E-1  -1.420671829563153E2   3.686393670926688E-1   1.248385128576235E2  
 8.890000000000000E9     3.792275733514387E-1   1.280458715377817E2   9.046992655146013E-1  -1.423960677405989E2   9.065481259978062E-1  -1.423074940002362E2   3.654939224522527E-1   1.245862564328977E2  
 8.900000000000000E9     3.763458786491220E-1   1.277849369252785E2   9.055624857171966E-1  -1.426298740366793E2   9.074303151963726E-1  -1.425364421207494E2   3.627547412132865E-1   1.243462122445864E2  
 8.910000000000000E9     3.735209852779076E-1   1.275029896058167E2   9.062500923687045E-1  -1.428536763001297E2   9.083873884519240E-1  -1.427617043430447E2   3.598001289879824E-1   1.241148318926226E2  
 8.920000000000000E9     3.708469823996177E-1   1.272465353589531E2   9.073616075809036E-1  -1.430861430965733E2   9.093321789222393E-1  -1.429986011507344E2   3.568339125888282E-1   1.238647924377668E2  
 8.930000000000000E9     3.681449855150336E-1   1.269806609031662E2   9.084532861947658E-1  -1.433000014874499E2   9.103566846526265E-1  -1.432340501719525E2   3.539582145446796E-1   1.236264627006328E2  
 8.940000000000000E9     3.652702910546255E-1   1.266981835369027E2   9.094057793655883E-1  -1.435306305011131E2   9.113431019120866E-1  -1.434435987462180E2   3.510092592103549E-1   1.234097573625479E2  
 8.950000000000000E9     3.623182247489260E-1   1.264258947982225E2   9.102774281774896E-1  -1.437654820358978E2   9.124250050965644E-1  -1.436832557704591E2   3.482942116396097E-1   1.231855307166490E2  
 8.960000000000000E9     3.597646296414481E-1   1.261629444813392E2   9.114964153539854E-1  -1.439824870574846E2   9.136791661090368E-1  -1.439155448550164E2   3.454569163061848E-1   1.229800072344817E2  
 8.970000000000000E9     3.568498573650391E-1   1.259202163206331E2   9.124102877497744E-1  -1.442157868511742E2   9.144316707113354E-1  -1.441419417670882E2   3.426313899673636E-1   1.227796492777723E2  
 8.980000000000000E9     3.539383599873667E-1   1.256540641452453E2   9.134701229394969E-1  -1.444403652043594E2   9.155446262787803E-1  -1.443767498208294E2   3.398421290337222E-1   1.225386425554004E2  
 8.990000000000000E9     3.511449061997226E-1   1.254222652096226E2   9.144740786021629E-1  -1.446577399206812E2   9.164698586923920E-1  -1.445970643617932E2   3.369044118912118E-1   1.223287898351288E2  
 9.000000000000000E9     3.482463181373482E-1   1.251767084111590E2   9.157538108671509E-1  -1.448790360551656E2   9.176400753268261E-1  -1.448426018792791E2   3.340455120076935E-1   1.220983816368150E2  
 9.010000000000000E9     3.451408082409800E-1   1.249135042483171E2   9.169767206407971E-1  -1.451049731665883E2   9.190228034685641E-1  -1.450700707655028E2   3.313030573412273E-1   1.218957140990173E2  
 9.020000000000000E9     3.422709835419803E-1   1.246640762906316E2   9.182942616190569E-1  -1.453428493911270E2   9.199441704827155E-1  -1.452895609938009E2   3.281987277147611E-1   1.217409767117865E2  
 9.030000000000000E9     3.392877684470566E-1   1.244240623393749E2   9.194057064035213E-1  -1.455772653799524E2   9.211797336373746E-1  -1.455271837540942E2   3.254760935433563E-1   1.215421190416783E2  
 9.040000000000000E9     3.364902577599828E-1   1.241811201202714E2   9.204367486213432E-1  -1.457946135803953E2   9.224459080779300E-1  -1.457686250236617E2   3.230028112700989E-1   1.213446028640552E2  
 9.050000000000000E9     3.334585442364291E-1   1.239409210195012E2   9.219102303597249E-1  -1.460389960780108E2   9.237600270266970E-1  -1.460131252974148E2   3.202771603856326E-1   1.211832578956482E2  
 9.060000000000000E9     3.305610495281479E-1   1.237166423197374E2   9.229655774216963E-1  -1.462714066952892E2   9.248006558073765E-1  -1.462551676995355E2   3.177853452777683E-1   1.209612458817540E2  
 9.070000000000000E9     3.277907842360791E-1   1.235181865400197E2   9.243178660669490E-1  -1.465079928023399E2   9.261978184263101E-1  -1.464912282870680E2   3.153712324329692E-1   1.207980515119615E2  
 9.080000000000000E9     3.249321317823111E-1   1.233053219412448E2   9.253898843136786E-1  -1.467449774501546E2   9.274774367261788E-1  -1.467439982386416E2   3.127024108664972E-1   1.205629201612769E2  
 9.090000000000000E9     3.220384430874475E-1   1.230658188405568E2   9.266959873854485E-1  -1.469774479536561E2   9.287158365041739E-1  -1.469797750241692E2   3.099906074176286E-1   1.203879978834126E2  
 9.100000000000000E9     3.191794529715305E-1   1.228644019183554E2   9.278446781520332E-1  -1.472206367639423E2   9.298366380260466E-1  -1.472150210887178E2   3.073345927880162E-1   1.201923673625014E2  
 9.110000000000000E9     3.163007878480618E-1   1.226371690554894E2   9.292170292048985E-1  -1.474655117190995E2   9.313025749444422E-1  -1.474754703852741E2   3.048740117707832E-1   1.199958665349124E2  
 9.120000000000000E9     3.134824932167677E-1   1.224209448416228E2   9.304554839447490E-1  -1.477124702847878E2   9.322729703272378E-1  -1.477226789656925E2   3.024714865839321E-1   1.198078628787181E2  
 9.130000000000000E9     3.105295946275759E-1   1.222226092396897E2   9.317254679603291E-1  -1.479751508762557E2   9.337499798916495E-1  -1.479812227204108E2   3.000052917321205E-1   1.196188455216462E2  
 9.140000000000000E9     3.077661210313880E-1   1.220241314964203E2   9.329190935085318E-1  -1.482237463585505E2   9.348654151221170E-1  -1.482219399855551E2   2.975459549220504E-1   1.194078556546403E2  
 9.150000000000000E9     3.049418586230320E-1   1.218452205932941E2   9.342525323167886E-1  -1.484580738528647E2   9.362574614199349E-1  -1.484814856966726E2   2.950969281147836E-1   1.192305196780383E2  
