#  HZ   S   MA   R     50.00 
! Rohde & Schwarz ZVA67 4Ports - Version 4.11 - 1305.7002k04 SN: 101051
! Date: 2023-09-13 17:04:01
! Measurements: S11 S21 S12 S22 
! 
 6.705000000000000E10    1.143371187607790E-1  -6.618658305322626E1   3.415661731533567E-1   1.299623936233458E2   3.418335468971814E-1   1.355153681846381E2   4.568753281387126E-1   1.530487503326949E2  
 6.710000000000000E10    1.025834793760497E-1  -9.939467469964710E1   3.469459848617498E-1   8.531544154203706E1   3.465057095221945E-1   9.083283283466398E1   4.245918463881169E-1   1.448552384664069E2  
 6.715000000000000E10    5.601559676562540E-2  -8.683316224648095E1   3.467879290773489E-1   3.990932079011166E1   3.470274611590968E-1   4.561760972323499E1   4.133663801647957E-1   1.400203928672641E2  
 6.720000000000000E10    1.296105028602558E-1  -6.045672451538142E1   3.368520686386118E-1  -4.991615426662815   3.372205305217713E-1   5.312345816139567E-1   4.450238422781950E-1   1.345051905068434E2  
 6.725000000000000E10    2.287866619521307E-1  -8.825883077420546E1   3.213765517420456E-1  -4.834913031318827E1   3.228992527873792E-1  -4.282921144194552E1   4.971842751572050E-1   1.231463975414919E2  
 6.730000000000000E10    2.921416046714781E-1  -1.217974973004272E2   3.122469824338596E-1  -8.966965895685617E1   3.121628029822241E-1  -8.414446849379957E1   5.292393299008101E-1   1.076852464736277E2  
 6.735000000000000E10    2.989081030020085E-1  -1.563702297451959E2   3.112914650817877E-1  -1.303411960696532E2   3.120892298712332E-1  -1.245440080537121E2   5.301958811142118E-1   9.064338872255676E1  
 6.740000000000000E10    2.530224074839542E-1   1.687180728239769E2   3.209653511104568E-1  -1.714067477704806E2   3.215823081945227E-1  -1.656901665392147E2   5.038630570561149E-1   7.416644936181537E1  
 6.745000000000000E10    1.568220899317316E-1   1.338728440805514E2   3.357520938192743E-1   1.458171443344313E2   3.356020042437526E-1   1.515594605972955E2   4.606234743208548E-1   5.968886099499600E1  
 6.750000000000000E10    4.046052197425729E-2   1.191736960546049E2   3.465494438254980E-1   1.018066734371694E2   3.468272455890727E-1   1.075484637198743E2   4.275795990867651E-1   4.798408257742138E1  
 6.755000000000000E10    6.951882160446868E-2  -1.425257302512263E2   3.509565316083460E-1   5.758199997919606E1   3.524808928156412E-1   6.332167933395469E1   4.083644963719361E-1   3.628698713909470E1  
 6.760000000000000E10    1.188991726719752E-1  -1.700821022386108E2   3.557590954046761E-1   1.375884656726133E1   3.557386901839095E-1   1.928181765439756E1   3.905427176585224E-1   2.305599425027216E1  
 6.765000000000000E10    1.051098358246640E-1   1.648897305582878E2   3.597866423387502E-1  -3.041581307101508E1   3.604580795944654E-1  -2.486681776025370E1   3.569554191864804E-1   1.104868294518237E1  
 6.770000000000000E10    6.587409595375525E-2   1.760740647640201E2   3.619093638726110E-1  -7.525780150527922E1   3.620513814553658E-1  -6.991598966416444E1   3.340539813111547E-1   4.256957154668122  
 6.775000000000000E10    1.196307665676303E-1  -1.618499304095932E2   3.547915815337399E-1  -1.200590506816281E2   3.555867563393043E-1  -1.149517550926131E2   3.568677969644712E-1  -1.612894792247259  
 6.780000000000000E10    2.031276551269319E-1   1.751969364133925E2   3.421858583806121E-1  -1.638122729604592E2   3.426254083869006E-1  -1.585807196622788E2   4.116642532176080E-1  -1.365410223194496E1  
 6.785000000000000E10    2.511274189920429E-1   1.428104896797790E2   3.302118783586758E-1   1.540943420799322E2   3.319353107690473E-1   1.594223483551704E2   4.563369525006280E-1  -3.111299036057745E1  
 6.790000000000000E10    2.551318669519367E-1   1.069410451664533E2   3.263128246824880E-1   1.129217549113197E2   3.282298533437488E-1   1.182212398887451E2   4.745425694618830E-1  -5.020303875550696E1  
 6.795000000000000E10    2.131243892791271E-1   6.780506791187607E1   3.316965941781109E-1   7.141616393725096E1   3.327021920776464E-1   7.698258302405681E1   4.651520760978435E-1  -6.832926746744010E1  
 6.800000000000000E10    1.379130227870197E-1   2.254607883979704E1   3.416960399329669E-1   2.916511521601012E1   3.420026398299976E-1   3.443129403748117E1   4.418230221177963E-1  -8.375887953797954E1  
 6.805000000000000E10    5.827142647493568E-2  -4.235816538285270E1   3.486958946385347E-1  -1.436426617322710E1   3.485028409200165E-1  -8.962607623340967   4.221066104384597E-1  -9.640232884468928E1  
 6.810000000000000E10    4.069220276776427E-2  -1.759015343994456E2   3.512848980824568E-1  -5.790605553416646E1   3.523845214645870E-1  -5.255421302879357E1   4.138954368481595E-1  -1.078999879099935E2  
 6.815000000000000E10    6.393182727037203E-2   1.073240491449635E2   3.535547731314865E-1  -1.014447027824286E2   3.537573944782290E-1  -9.609536991813526E1   4.101811680007655E-1  -1.198273434992140E2  
 6.820000000000000E10    5.247371365341276E-2   4.433571621557838E1   3.559795647273661E-1  -1.450506362217317E2   3.566195534863139E-1  -1.397281374004188E2   4.008760744960986E-1  -1.307934508273432E2  
 6.825000000000000E10    2.927905465623445E-2  -6.022114212806203E1   3.567163127538863E-1   1.711365250647863E2   3.573444678544121E-1   1.763238542554531E2   3.914680227527591E-1  -1.394050574009211E2  
 6.830000000000000E10    5.704634869266458E-2  -1.776136834600877E2   3.539994557757079E-1   1.268602938834093E2   3.546954727999142E-1   1.321156620784170E2   4.032009315009966E-1  -1.459703306769775E2  
 6.835000000000000E10    9.605053756154521E-2   1.121991749599924E2   3.457556609113637E-1   8.312226953757897E1   3.462361381106687E-1   8.849176370243590E1   4.377294255516725E-1  -1.544998363425154E2  
 6.840000000000000E10    1.245701382101855E-1   4.940668011937947E1   3.342584105787125E-1   4.015273167888932E1   3.355582779682179E-1   4.574995701069425E1   4.792062552033610E-1  -1.658719008266336E2  
 6.845000000000000E10    1.497801213222313E-1  -1.228588245897319E1   3.265753739031360E-1  -1.855901839070682   3.272330670099192E-1   3.964435067602438   5.091944882263252E-1  -1.793882633969473E2  
 6.850000000000000E10    1.735206611370150E-1  -7.012933389707746E1   3.228159692391071E-1  -4.306882382199345E1   3.240641392963574E-1  -3.729424421220300E1   5.217533250127117E-1   1.666602064548613E2  
 6.855000000000000E10    1.833208753159987E-1  -1.214152631174358E2   3.243740936860829E-1  -8.420885496483152E1   3.253599268632024E-1  -7.875219786135065E1   5.187080725349631E-1   1.532011698235888E2  
 6.860000000000000E10    1.605747670723021E-1  -1.680153289449134E2   3.303950977500438E-1  -1.258576957914068E2   3.306611254260202E-1  -1.204122977638917E2   5.007997437550498E-1   1.409018470444457E2  
 6.865000000000000E10    9.998561264971316E-2   1.512127645715292E2   3.365871727656935E-1  -1.682668487492528E2   3.371201618185869E-1  -1.629719333520389E2   4.803305354564011E-1   1.304546720933744E2  
 6.870000000000000E10    1.979563534628755E-2   1.707174541107785E2   3.403308923811072E-1   1.487669779703219E2   3.414580395998269E-1   1.540073773103834E2   4.656660219287511E-1   1.215277944726306E2  
 6.875000000000000E10    8.916826356499841E-2  -1.382132446406236E2   3.424591244545263E-1   1.058154769246411E2   3.434705584076280E-1   1.108554396777406E2   4.604797008420581E-1   1.127747608940657E2  
 6.880000000000000E10    1.459101445076567E-1  -1.742211936312444E2   3.447607912379554E-1   6.287178322618497E1   3.445954565118424E-1   6.804251063754262E1   4.534360827954345E-1   1.034891932494458E2  
 6.885000000000000E10    1.448226216668347E-1   1.479100616965671E2   3.471037202968494E-1   1.966897006853150E1   3.476091332794183E-1   2.510444442598686E1   4.419553339326812E-1   9.486215516373491E1  
 6.890000000000000E10    7.973490788357492E-2   1.133188007927204E2   3.478917067759121E-1  -2.398340263417174E1   3.478435169502622E-1  -1.844624525265121E1   4.356506875279237E-1   8.822345423237293E1  
 6.895000000000000E10    3.589751616884272E-2  -1.467545405712078E2   3.416960231301282E-1  -6.781129243077628E1   3.428395389491853E-1  -6.215333370389504E1   4.537870795506523E-1   8.152232995017062E1  
 6.900000000000000E10    1.462365555867911E-1  -1.646977918514476E2   3.311679784087226E-1  -1.105386583533482E2   3.319748640038153E-1  -1.048145946667453E2   4.919903428901386E-1   7.185764555530730E1  
 6.905000000000000E10    2.250802034792592E-1   1.605496445181069E2   3.224336575022557E-1  -1.516648287678920E2   3.234806563288824E-1  -1.461800340075705E2   5.198208195580272E-1   5.858447128101022E1  
 6.910000000000000E10    2.495153941507181E-1   1.260764318827280E2   3.212703607097206E-1   1.678717920233077E2   3.219057778923138E-1   1.733227154350532E2   5.211499606390642E-1   4.389448388639105E1  
 6.915000000000000E10    2.144197331565163E-1   9.343232695914914E1   3.269067554528899E-1   1.268590612909047E2   3.276338541247524E-1   1.325076362723595E2   4.985810633493716E-1   2.995239092099960E1  
 6.920000000000000E10    1.306517803902378E-1   6.775065235191478E1   3.358018054955207E-1   8.487312801864236E1   3.366925072600312E-1   9.031784916884033E1   4.656691309942122E-1   1.829893687832127E1  
 6.925000000000000E10    6.160022038805308E-2   9.903337471092371E1   3.413600139851297E-1   4.190028222115996E1   3.424169802825855E-1   4.742367312858961E1   4.474039443610162E-1   8.712884533312572  
 6.930000000000000E10    1.329749778719269E-1   1.182977998384373E2   3.424908791553291E-1  -9.123467100814445E-1   3.436718713214173E-1   4.719892041066548   4.444682980699954E-1  -1.579586893570916  
 6.935000000000000E10    1.925346180133328E-1   9.312532733474258E1   3.434423217057157E-1  -4.314132101045495E1   3.450749523788734E-1  -3.742932993302517E1   4.352392148161553E-1  -1.392534219340964E1  
 6.940000000000000E10    1.937555789420944E-1   6.319444344404386E1   3.494667867230064E-1  -8.562550899382670E1   3.505120138031424E-1  -7.978377043447132E1   4.062710053089805E-1  -2.637634370149048E1  
 6.945000000000000E10    1.415800163423660E-1   3.978757064258272E1   3.563197476687469E-1  -1.287874167741464E2   3.574103184119847E-1  -1.230211757185998E2   3.679277958843709E-1  -3.449186309300423E1  
 6.950000000000000E10    8.750365296611516E-2   5.236318270328365E1   3.567512758785583E-1  -1.728997975867843E2   3.576133775155173E-1  -1.671468511745595E2   3.625418973843109E-1  -3.757808958761360E1  
 6.955000000000000E10    1.410794926757180E-1   6.882152152402577E1   3.483217529639477E-1   1.435427879068245E2   3.494550420215727E-1   1.490509016949861E2   4.039787124855375E-1  -4.369299671650474E1  
 6.960000000000000E10    2.132403138002439E-1   4.564914180834357E1   3.370719685568073E-1   1.015280859835572E2   3.380850149527022E-1   1.068790712280713E2   4.546347765092743E-1  -5.640757323124060E1  
 6.965000000000000E10    2.443392514017511E-1   1.423404537812663E1   3.313594100900089E-1   6.071439578262723E1   3.321434902605280E-1   6.588834422475364E1   4.794892865925300E-1  -7.232737445305729E1  
 6.970000000000000E10    2.236208901334250E-1  -1.901578091024066E1   3.329836858020016E-1   1.978316863449241E1   3.333545292778142E-1   2.517723837067491E1   4.756056251805921E-1  -8.810783628689407E1  
 6.975000000000000E10    1.560899520484455E-1  -5.156686110728079E1   3.385038838671028E-1  -2.169711635870427E1   3.391119619168071E-1  -1.626214492923237E1   4.548854121248925E-1  -1.019150493261321E2  
 6.980000000000000E10    6.203898616150372E-2  -6.628493454236823E1   3.442211542669583E-1  -6.403979457610760E1   3.442646760884995E-1  -5.863679277671585E1   4.355528151484023E-1  -1.132206646049423E2  
 6.985000000000000E10    7.111565284539391E-2   4.687475887371293   3.458259582215845E-1  -1.066038540480503E2   3.458935243039715E-1  -1.009973876749888E2   4.305472895301684E-1  -1.238452677558335E2  
 6.990000000000000E10    1.478557357094828E-1  -1.473330009500384E1   3.460215391507152E-1  -1.488911055764453E2   3.467086198324352E-1  -1.428865465187458E2   4.275212924464694E-1  -1.361310418305865E2  
 6.995000000000000E10    1.855787224634904E-1  -4.628212753508541E1   3.495224130784640E-1   1.692071862612517E2   3.494261524051511E-1   1.751692889472798E2   4.072450436778125E-1  -1.494287163262129E2  
 7.000000000000000E10    1.724759200088689E-1  -7.586380008923463E1   3.559739627744557E-1   1.268924792127082E2   3.564588196539878E-1   1.327733042610601E2   3.670082591837938E-1  -1.602297042845273E2  
 7.005000000000000E10    1.211962653391360E-1  -9.102410583695146E1   3.607941569146201E-1   8.356397266579039E1   3.614095620011757E-1   8.934287153279750E1   3.301633197954932E-1  -1.647854906723671E2  
 7.010000000000000E10    1.135046539844408E-1  -7.427968924333101E1   3.580923833618996E-1   3.996322992293057E1   3.588772174853389E-1   4.547298405927483E1   3.419461706232788E-1  -1.654651064756096E2  
 7.015000000000000E10    1.857071097277108E-1  -7.978953074829248E1   3.484190975004279E-1  -3.064830688943506   3.489848806403335E-1   2.470678012583703   3.957741742681443E-1  -1.726598733974952E2  
 7.020000000000000E10    2.465921167412754E-1  -1.049696408975426E2   3.374029325410083E-1  -4.458220064216850E1   3.387860129652655E-1  -3.891481294215361E1   4.420678621126124E-1   1.738198348186819E2  
 7.025000000000000E10    2.651775512868859E-1  -1.348081259113331E2   3.340566693856135E-1  -8.510581274924407E1   3.349755240772057E-1  -7.945494690611918E1   4.578323418853007E-1   1.577548687323143E2  
 7.030000000000000E10    2.355081798088807E-1  -1.635450123726779E2   3.388134525786342E-1  -1.256902332399142E2   3.382427214593227E-1  -1.201608217426294E2   4.426080421401206E-1   1.427705339499625E2  
 7.035000000000000E10    1.607542385845887E-1   1.756491257042455E2   3.458992402446178E-1  -1.677305309634160E2   3.457871548574967E-1  -1.615791619930077E2   4.126832876821272E-1   1.310756072959451E2  
 7.040000000000000E10    9.971194742790433E-2  -1.711496269056429E2   3.496160090296294E-1   1.496768615358838E2   3.504353040552003E-1   1.560888269378875E2   3.947655810431953E-1   1.224618761287438E2  
 7.045000000000000E10    1.471692092515460E-1  -1.547157197567440E2   3.492881364322744E-1   1.071820875493811E2   3.498845746947965E-1   1.135930715343637E2   4.001735649063629E-1   1.132227750115495E2  
 7.050000000000000E10    2.085085770280375E-1  -1.716139164097276E2   3.487158837666395E-1   6.553118527089471E1   3.489586497158053E-1   7.175811352659984E1   4.031040005435238E-1   1.007395518684052E2  
 7.055000000000000E10    2.221463548396877E-1   1.646005473957395E2   3.515247106933964E-1   2.401760163906164E1   3.527669871915602E-1   3.017838841645435E1   3.773354704815415E-1   8.707171126003264E1  
 7.060000000000000E10    1.874261835537410E-1   1.461693791042689E2   3.585889569826652E-1  -1.828474553638856E1   3.590757340585848E-1  -1.226280012541157E1   3.290352974628355E-1   7.733312821501754E1  
 7.065000000000000E10    1.493230448482729E-1   1.480608502734470E2   3.612804267166677E-1  -6.138589520478121E1   3.616383460825235E-1  -5.553083664733079E1   2.985046265861042E-1   7.617221585533660E1  
 7.070000000000000E10    1.861639094206033E-1   1.554650846915116E2   3.563914483845163E-1  -1.047919456750357E2   3.560024412162816E-1  -9.881576589960825E1   3.290738696346172E-1   7.510790745073612E1  
 7.075000000000000E10    2.547082204038755E-1   1.412175302438814E2   3.460867362936921E-1  -1.465996917031367E2   3.464432923488142E-1  -1.407368500691007E2   3.821048393964956E-1   6.452671613585314E1  
 7.080000000000000E10    2.906542687099782E-1   1.180695761254748E2   3.411773609561044E-1   1.726979507078486E2   3.409676901951966E-1   1.784820026830490E2   4.104307655835423E-1   4.806237204700745E1  
 7.085000000000000E10    2.779520938121791E-1   9.389557173864823E1   3.422567212896224E-1   1.319737107408311E2   3.427707323305154E-1   1.382128325454642E2   3.964855245653370E-1   3.124202413286174E1  
 7.090000000000000E10    2.236500230322346E-1   7.441544271859779E1   3.493951256382463E-1   9.047151138934946E1   3.499601428380135E-1   9.706442088880029E1   3.568776793813595E-1   1.773632064941608E1  
 7.095000000000000E10    1.653086922884269E-1   6.999518541934457E1   3.558145943951483E-1   4.823138174675777E1   3.559752569022405E-1   5.477766200408362E1   3.255098165629602E-1   1.025559274576428E1  
 7.100000000000000E10    1.710148063863872E-1   7.729916205224362E1   3.561151691799074E-1   5.464782624560866   3.563350777168696E-1   1.203064482692252E1   3.325682906713657E-1   3.812558645083452  
 7.105000000000000E10    2.142635592283388E-1   6.831575647484571E1   3.537767809385109E-1  -3.641884406399732E1   3.539650115712659E-1  -2.993160052066295E1   3.566445687162092E-1  -7.915229669639985  
 7.110000000000000E10    2.314697233621405E-1   4.757797821136221E1   3.534827212891912E-1  -7.767249017596254E1   3.538405493102564E-1  -7.143171927296416E1   3.608457644418032E-1  -2.394183529871266E1  
 7.115000000000000E10    2.061121858853813E-1   2.576319469829048E1   3.577463630000319E-1  -1.191062590188896E2   3.583037543816767E-1  -1.129338933440423E2   3.323900580919634E-1  -3.991998058210410E1  
 7.120000000000000E10    1.482377839503277E-1   1.329583968020120E1   3.648299534756574E-1  -1.613581746847214E2   3.651341551256970E-1  -1.553380966861678E2   2.901860689833221E-1  -4.967814371309382E1  
 7.125000000000000E10    1.226661833527439E-1   2.700967545345667E1   3.651984822727648E-1   1.556966490437042E2   3.656053858714896E-1   1.615359464076755E2   2.773008273264316E-1  -5.256052635507718E1  
 7.130000000000000E10    1.735004680222991E-1   3.112441513878984E1   3.603443455124508E-1   1.129033823451027E2   3.606742651152313E-1   1.187923664327938E2   3.089042697471360E-1  -5.863054156411687E1  
 7.135000000000000E10    2.312104401263516E-1   1.298743616702245E1   3.537982974553642E-1   7.123248722223175E1   3.545731386101832E-1   7.718675363451411E1   3.448586811863719E-1  -7.230766022115574E1  
 7.140000000000000E10    2.509988657040573E-1  -1.121256066178065E1   3.506293145211218E-1   3.001597860900785E1   3.516424996445010E-1   3.622666626645422E1   3.529280634483121E-1  -8.905060805431496E1  
 7.145000000000000E10    2.322981607292275E-1  -3.340601606062445E1   3.530227081817370E-1  -1.126119976905595E1   3.537570745841873E-1  -4.873080653777205   3.296886773722127E-1  -1.040069410703787E2  
 7.150000000000000E10    1.924909581898153E-1  -4.680613597371702E1   3.564304877460282E-1  -5.326904106816751E1   3.574519946624969E-1  -4.689233542049845E1   2.964875292021912E-1  -1.124420543090131E2  
 7.155000000000000E10    1.807014122195753E-1  -4.767963362408898E1   3.560250034019257E-1  -9.554494098034778E1   3.568881930209663E-1  -8.940828244784854E1   2.961380509769280E-1  -1.150576034452664E2  
 7.160000000000000E10    2.174418107261495E-1  -5.452974254013453E1   3.506325545027465E-1  -1.375957748655018E2   3.519155755919493E-1  -1.315281789524417E2   3.373308879929703E-1  -1.218792551248240E2  
 7.165000000000000E10    2.563349809498817E-1  -7.395485078085964E1   3.452900183758096E-1  -1.788148651113590E2   3.463758551557583E-1  -1.727011763311052E2   3.773533086989851E-1  -1.355468790320146E2  
 7.170000000000000E10    2.602340055965932E-1  -9.825064522258789E1   3.455613903093485E-1   1.407706252714676E2   3.459726996399931E-1   1.467079688643309E2   3.885477204007971E-1  -1.519289534888537E2  
 7.175000000000000E10    2.206906781311326E-1  -1.222636007912216E2   3.509728625422254E-1   9.983724055946850E1   3.510419196167845E-1   1.057345095144426E2   3.650649222687925E-1  -1.668961719701381E2  
 7.180000000000000E10    1.481292893455931E-1  -1.353821391402897E2   3.577019396922279E-1   5.793948935526355E1   3.586022322837025E-1   6.377422900250424E1   3.275738691424762E-1  -1.763211820106432E2  
