#  HZ   S   MA   R     50.00 
! Rohde & Schwarz ZVA67 4Ports - Version 4.11 - 1305.7002k04 SN: 101051
! Date: 2023-09-13 17:00:31
! Measurements: S11 S21 S12 S22 
! 
 6.705000000000000E10    1.313054092445887E-1  -1.345495908071512E2   3.496257059063024E-1   8.045949792225618E1   3.503895026659381E-1   8.528663167644271E1   4.848948416697721E-1   1.577889592773848E2  
 6.710000000000000E10    2.615994287168939E-2   1.795598622369753E2   3.528412667506240E-1   3.655212320650858E1   3.524333753863015E-1   4.133695211607774E1   4.735667664117540E-1   1.488065309968896E2  
 6.715000000000000E10    9.781047696271406E-2  -3.533698164169269E1   3.466701713383936E-1  -7.325433654690836   3.483674245347379E-1  -2.348720513962644   4.864773785498039E-1   1.393279078520226E2  
 6.720000000000000E10    1.981637981800163E-1  -7.510502618811330E1   3.408555382436501E-1  -4.984673305340897E1   3.411407659549977E-1  -4.499450338170371E1   5.043574613598248E-1   1.272301599143561E2  
 6.725000000000000E10    2.467149735375618E-1  -1.127309284484423E2   3.392304521668109E-1  -9.141909011436218E1   3.396506387692111E-1  -8.669334268356762E1   5.054857212459309E-1   1.126341849484749E2  
 6.730000000000000E10    2.350768519943209E-1  -1.475007328708973E2   3.460777281466934E-1  -1.331384732523724E2   3.460464784806417E-1  -1.283699912589064E2   4.774214791591385E-1   9.825096819902770E1  
 6.735000000000000E10    1.631329845206219E-1  -1.773145948085890E2   3.559244934224807E-1  -1.762631777998297E2   3.569971752783450E-1  -1.712955557047805E2   4.339388337190051E-1   8.661376382784536E1  
 6.740000000000000E10    7.954331107877641E-2  -1.721376770472740E2   3.625201838410003E-1   1.394745936215850E2   3.631354542955006E-1   1.446560292419932E2   4.096472805006454E-1   7.908485256807975E1  
 6.745000000000000E10    1.186964345600779E-1  -1.409717022884631E2   3.605576106772523E-1   9.544845205987014E1   3.617339050052462E-1   1.004936140523345E2   4.202793527501875E-1   7.049365005700393E1  
 6.750000000000000E10    1.837261557872433E-1  -1.629677427234072E2   3.577072558508361E-1   5.261412868605751E1   3.586138514624181E-1   5.750059206340088E1   4.414494075452866E-1   5.746052919135105E1  
 6.755000000000000E10    1.916683469445734E-1   1.649526916247299E2   3.578494534469658E-1   1.010334871469008E1   3.592793752971018E-1   1.508915166946846E1   4.390116782717570E-1   4.198802719704101E1  
 6.760000000000000E10    1.400450013771523E-1   1.296446390299007E2   3.641884821050534E-1  -3.268870364433357E1   3.648345092178150E-1  -2.785232307814703E1   4.195641767222162E-1   2.743233194099928E1  
 6.765000000000000E10    3.803839929078794E-2   9.586645838053541E1   3.678309203320684E-1  -7.646412775086482E1   3.683905024024937E-1  -7.168772773072452E1   3.984410185102057E-1   1.578477205719874E1  
 6.770000000000000E10    7.983495248688403E-2  -1.303134486075105E2   3.654603412585422E-1  -1.203377367098093E2   3.662466162505656E-1  -1.157584043782006E2   4.044317603820173E-1   5.140371859555884  
 6.775000000000000E10    1.719175137590711E-1  -1.671043345596305E2   3.593359747033944E-1  -1.632209537380292E2   3.594742006554347E-1  -1.589152937644764E2   4.269345673433381E-1  -8.994415841082011  
 6.780000000000000E10    2.157117763352218E-1   1.568659214835221E2   3.547679230269221E-1   1.544995209113866E2   3.553891615293475E-1   1.590947531653936E2   4.359111048960465E-1  -2.605024002443871E1  
 6.785000000000000E10    2.043674936128665E-1   1.218016496165816E2   3.579366522745009E-1   1.126255466484636E2   3.594260974052146E-1   1.172733847965671E2   4.195850624993073E-1  -4.334380359360277E1  
 6.790000000000000E10    1.467546639310434E-1   8.888261623948712E1   3.655913538696637E-1   6.988124465727373E1   3.668577280153295E-1   7.461720750281954E1   3.874143197144682E-1  -5.734502969818597E1  
 6.795000000000000E10    6.161868506566737E-2   7.666584452688642E1   3.708653183999267E-1   2.616259196491205E1   3.714125732345963E-1   3.078664885136687E1   3.671105108812224E-1  -6.644480099894170E1  
 6.800000000000000E10    6.803262345496146E-2   1.296278580189246E2   3.705261425435600E-1  -1.784303243352931E1   3.706653383618850E-1  -1.316429378443640E1   3.826291788948347E-1  -7.429255323484966E1  
 6.805000000000000E10    1.241306529775475E-1   1.056610229545978E2   3.633384706534185E-1  -6.122077033960871E1   3.642130277151494E-1  -5.640872522676602E1   4.177969979010657E-1  -8.624080481666726E1  
 6.810000000000000E10    1.440964090042496E-1   6.358586804868376E1   3.596524186955089E-1  -1.033908753940728E2   3.604738317017764E-1  -9.875648650501232E1   4.384590586644011E-1  -1.007570678679765E2  
 6.815000000000000E10    1.305411328894816E-1   1.157387792666291E1   3.606628447636227E-1  -1.458278548542880E2   3.599954914630376E-1  -1.410486676173269E2   4.436891690130026E-1  -1.154170259432755E2  
 6.820000000000000E10    1.024900168722527E-1  -5.646564637416314E1   3.615394201787583E-1   1.715987430645627E2   3.622660359044158E-1   1.762857775148079E2   4.394891338607192E-1  -1.279335138616946E2  
 6.825000000000000E10    9.515027166574760E-2  -1.375360406445591E2   3.617516507010946E-1   1.286344616145989E2   3.625476961421151E-1   1.330231559508642E2   4.390116850843615E-1  -1.389914716526667E2  
 6.830000000000000E10    1.020709117368429E-1   1.462698654953817E2   3.597181754027686E-1   8.562094049964090E1   3.598249393176404E-1   9.023947359027267E1   4.503389925620799E-1  -1.494633724083302E2  
 6.835000000000000E10    1.051136054812961E-1   7.714414290445195E1   3.568828361846715E-1   4.292131281915443E1   3.571562984606695E-1   4.781617907886098E1   4.613306483806243E-1  -1.611182107961263E2  
 6.840000000000000E10    1.029296444162485E-1   6.121304375568952   3.550242535290513E-1   6.731593453751658E-1   3.557164540343634E-1   5.686573405479209   4.672662490245166E-1  -1.728916923384285E2  
 6.845000000000000E10    1.042617672830651E-1  -6.382276671024579E1   3.559628351609012E-1  -4.163506010514019E1   3.560813777706799E-1  -3.666583823809496E1   4.643146720271150E-1   1.756851155799448E2  
 6.850000000000000E10    9.897036970741455E-2  -1.279918894680904E2   3.563046793407410E-1  -8.433608569995256E1   3.571858077120171E-1  -7.933305018506709E1   4.586943528519726E-1   1.657326583819809E2  
 6.855000000000000E10    6.641184701431011E-2   1.689441711147170E2   3.556200354321457E-1  -1.271734777240745E2   3.562126652770931E-1  -1.222648583467619E2   4.618768596288027E-1   1.568012022049129E2  
 6.860000000000000E10    2.520251262682806E-2   3.381223055891132E1   3.520642710165031E-1  -1.700002285507144E2   3.526275543705518E-1  -1.651247700631670E2   4.739671210752434E-1   1.478006816998019E2  
 6.865000000000000E10    9.604287147036843E-2  -7.130667147975453E1   3.471060136529051E-1   1.479456538652295E2   3.476917888378979E-1   1.525785214150816E2   4.937774224921899E-1   1.374582927999857E2  
 6.870000000000000E10    1.724892859828043E-1  -1.206966026074089E2   3.432438512763172E-1   1.063833619363096E2   3.433878358937174E-1   1.110930384450069E2   5.064540757851048E-1   1.255779764163926E2  
 6.875000000000000E10    2.132443281534646E-1  -1.635695988556300E2   3.442634435418606E-1   6.535892070987048E1   3.443994568536551E-1   6.978423076217288E1   5.030031824033170E-1   1.130954001266028E2  
 6.880000000000000E10    2.015120706617523E-1   1.558171232013272E2   3.496813678477709E-1   2.363272212761263E1   3.507328866491000E-1   2.826114211950762E1   4.810860506151077E-1   1.015983975676153E2  
 6.885000000000000E10    1.307331213669087E-1   1.186219985894010E2   3.577081830248653E-1  -1.908338405988588E1   3.580919678953612E-1  -1.426092840931576E1   4.543836732508745E-1   9.295428245755403E1  
 6.890000000000000E10    2.728392302965809E-2   1.243734384809517E2   3.596384658965388E-1  -6.257089307549295E1   3.602241035600491E-1  -5.759115545093165E1   4.463357840709036E-1   8.635621931083571E1  
 6.895000000000000E10    1.016105118298867E-1  -1.663310796449938E2   3.556549245719153E-1  -1.056144272448450E2   3.566651641687962E-1  -1.006418574656648E2   4.617744339802972E-1   7.836591891790982E1  
 6.900000000000000E10    1.756781560668421E-1   1.611412953168237E2   3.515050477901366E-1  -1.477461042285498E2   3.519243550124871E-1  -1.426631640836943E2   4.796261379845372E-1   6.750698212473961E1  
 6.905000000000000E10    1.884948660386008E-1   1.259155740108901E2   3.509263294093241E-1   1.707711793239674E2   3.516203583299253E-1   1.756138505121624E2   4.783185457158425E-1   5.549948977055194E1  
 6.910000000000000E10    1.347075726202574E-1   9.398114875672376E1   3.541100474893729E-1   1.284931828652059E2   3.541013839028501E-1   1.334863902265697E2   4.631667508592063E-1   4.475536219567751E1  
 6.915000000000000E10    4.432307521805930E-2   1.035642603452053E2   3.531926472684728E-1   8.576292883264833E1   3.546685647628811E-1   9.080556887333050E1   4.569995371647950E-1   3.597243894321397E1  
 6.920000000000000E10    1.132010307923834E-1   1.592657327037904E2   3.487102071134207E-1   4.327939558704404E1   3.494542783208605E-1   4.819287030106934E1   4.705766464965921E-1   2.621036786182639E1  
 6.925000000000000E10    2.105223150163685E-1   1.329007723527185E2   3.427016106717948E-1   1.807400828977479   3.430932632036585E-1   6.779894932815836   4.907925405274134E-1   1.335404195318080E1  
 6.930000000000000E10    2.605441380648127E-1   1.005303129431520E2   3.419202146936163E-1  -3.875993854254353E1   3.425788224785044E-1  -3.365626247419569E1   4.878622075661179E-1  -1.834184126341584  
 6.935000000000000E10    2.513082975813229E-1   6.807081928420485E1   3.499212659996458E-1  -7.943879331710113E1   3.503625140641704E-1  -7.427956564851939E1   4.544963094495368E-1  -1.650985762705529E1  
 6.940000000000000E10    1.845840802624655E-1   3.905329356656275E1   3.622436534116648E-1  -1.217380237062095E2   3.627455417140682E-1  -1.164465683286309E2   4.035978908325368E-1  -2.785486047331350E1  
 6.945000000000000E10    9.695180166761484E-2   3.383289259162470E1   3.706751931505848E-1  -1.651483561770387E2   3.710639009743035E-1  -1.599701520668700E2   3.706242831272710E-1  -3.328231725200044E1  
 6.950000000000000E10    1.105552911643882E-1   6.718225090572129E1   3.698688225316113E-1   1.512010365419370E2   3.699744093881531E-1   1.563121756015506E2   3.863832298385344E-1  -3.812665044515672E1  
 6.955000000000000E10    1.768704473172715E-1   5.139827693958522E1   3.628221705956314E-1   1.086985374109819E2   3.637847286874185E-1   1.135652374600913E2   4.191842889326563E-1  -4.843460293736649E1  
 6.960000000000000E10    2.007640018650953E-1   2.088981815215003E1   3.594971245304083E-1   6.708349894951569E1   3.603051059701403E-1   7.177600152668511E1   4.364068179462056E-1  -6.202252207915120E1  
 6.965000000000000E10    1.692303342107392E-1  -1.164091442377053E1   3.607395256776511E-1   2.533527383087805E1   3.618612748951054E-1   2.998053735702514E1   4.297569445757646E-1  -7.508051438341103E1  
 6.970000000000000E10    8.790958417913794E-2  -3.648905036259303E1   3.637029263073327E-1  -1.715695606301244E1   3.633946907937347E-1  -1.240443715117003E1   4.187086693200536E-1  -8.561554266470841E1  
 6.975000000000000E10    5.066348692121427E-2   3.041549954958371E1   3.603545856881442E-1  -5.986216401877699E1   3.606775800262993E-1  -5.504229534432739E1   4.286117969920238E-1  -9.485365771359140E1  
 6.980000000000000E10    1.434465194910871E-1   2.541539758107185E1   3.541699849532372E-1  -1.018072428600272E2   3.544294356957759E-1  -9.703765925619689E1   4.525530200216943E-1  -1.063833906801040E2  
 6.985000000000000E10    2.148377542454342E-1  -6.797775083361287   3.481756429025043E-1  -1.429504439439650E2   3.487848641283349E-1  -1.377392063676648E2   4.679351308369827E-1  -1.209428877118413E2  
 6.990000000000000E10    2.400330329210680E-1  -4.106502055480733E1   3.510425028143908E-1   1.764544398576167E2   3.508477259124486E-1  -1.780067505768903E2   4.570201582978197E-1  -1.365946753598751E2  
 6.995000000000000E10    2.149744266816581E-1  -7.380528364254921E1   3.594339385503594E-1   1.355196216061825E2   3.599118458701908E-1   1.408475276327859E2   4.181619717188868E-1  -1.507617102716947E2  
 7.000000000000000E10    1.467695078036947E-1  -9.935898704380101E1   3.701850943973333E-1   9.318623376761475E1   3.700787192600668E-1   9.845052382181322E1   3.685422115961642E-1  -1.598066230838783E2  
 7.005000000000000E10    8.646052740296213E-2  -8.744684352109289E1   3.744421035385865E-1   5.001723173968858E1   3.745288182081988E-1   5.500998401979474E1   3.482067685506774E-1  -1.632385319994345E2  
 7.010000000000000E10    1.372237985134190E-1  -7.199096284628584E1   3.705337275150024E-1   6.895412365441555   3.715550975640372E-1   1.186307836248238E1   3.725649334197164E-1  -1.684272070076822E2  
 7.015000000000000E10    2.006801824008518E-1  -9.392868552838961E1   3.655601923548696E-1  -3.513748958299545E1   3.660499300728674E-1  -3.016694660446570E1   4.028554552980134E-1  -1.793100788977552E2  
 7.020000000000000E10    2.163923920555105E-1  -1.232731502320442E2   3.631876472802551E-1  -7.659164516152022E1   3.640393908005577E-1  -7.157124425932138E1   4.098542087291923E-1   1.673371812365571E2  
 7.025000000000000E10    1.789861595564266E-1  -1.502801763655309E2   3.665355753166276E-1  -1.182537789334895E2   3.664657063340394E-1  -1.132344114964053E2   3.928893522530894E-1   1.557184721244694E2  
 7.030000000000000E10    1.100201459225046E-1  -1.579519878564680E2   3.680164543177962E-1  -1.608647923159205E2   3.676973350766261E-1  -1.556172571115536E2   3.800397753138444E-1   1.481429644622071E2  
 7.035000000000000E10    1.182367895902837E-1  -1.278506948281233E2   3.634643997308878E-1   1.563243832011250E2   3.639727295076238E-1   1.618967405085174E2   3.970750778143102E-1   1.412807944306324E2  
 7.040000000000000E10    2.028420524710821E-1  -1.365496467293191E2   3.558397801648886E-1   1.144770334273996E2   3.557397361997456E-1   1.203025210620334E2   4.324247405072419E-1   1.301072147456171E2  
 7.045000000000000E10    2.635542132065233E-1  -1.622018985286627E2   3.490620471648929E-1   7.412183818697282E1   3.504684946962086E-1   8.001075399912179E1   4.516062224847268E-1   1.147988499568273E2  
 7.050000000000000E10    2.731358913961829E-1   1.703263743168927E2   3.530404206172931E-1   3.416843316030162E1   3.536966338918984E-1   3.976196354654606E1   4.353840136285208E-1   9.864138094757357E1  
 7.055000000000000E10    2.278657636470700E-1   1.454549691329268E2   3.624786585951919E-1  -6.779145510787378   3.634575554600452E-1  -1.332477010237940   3.846244450865802E-1   8.472498543783041E1  
 7.060000000000000E10    1.530096783731188E-1   1.353768946134344E2   3.731907048168957E-1  -4.915431552418399E1   3.738530301606849E-1  -4.374870754785210E1   3.322228183539231E-1   7.758311126261938E1  
 7.065000000000000E10    1.394203770468960E-1   1.536533486760490E2   3.751724387376845E-1  -9.232375789581971E1   3.757622825192224E-1  -8.685979353805764E1   3.222370251236900E-1   7.596111928877630E1  
 7.070000000000000E10    2.012664451944176E-1   1.509323861591473E2   3.706682397860263E-1  -1.348206109047617E2   3.717217545626573E-1  -1.293732955911405E2   3.512943301776252E-1   6.889260568053305E1  
 7.075000000000000E10    2.426831552557461E-1   1.305497822916475E2   3.677199062389573E-1  -1.762541465870177E2   3.677958063385932E-1  -1.709751053843932E2   3.675897598951862E-1   5.582374676633505E1  
 7.080000000000000E10    2.336893854394244E-1   1.087358566273227E2   3.700550852691703E-1   1.424273841174837E2   3.697554215196972E-1   1.477423803242345E2   3.498707738680757E-1   4.195749258113196E1  
 7.085000000000000E10    1.847410420323554E-1   9.510496446080609E1   3.734479415836443E-1   1.002732593312113E2   3.737425115614738E-1   1.057124793296976E2   3.139644416099782E-1   3.371551598209090E1  
 7.090000000000000E10    1.631812843143061E-1   1.009311965839330E2   3.725495258397466E-1   5.728529582303906E1   3.724419394903769E-1   6.316103669294363E1   3.105973175779480E-1   3.113044900845343E1  
 7.095000000000000E10    2.124788242427952E-1   1.007442900159405E2   3.646492631334118E-1   1.500759667494479E1   3.642480664069744E-1   2.101200327162904E1   3.547139887090713E-1   2.419345975512350E1  
 7.100000000000000E10    2.719222462457867E-1   8.288945994063664E1   3.554951260582442E-1  -2.590375312237113E1   3.561230880226852E-1  -2.003323297029787E1   4.011866314665561E-1   8.912706593471507  
 7.105000000000000E10    2.926232165650247E-1   5.847996223996783E1   3.529420046856261E-1  -6.572527729864707E1   3.534830569939204E-1  -6.006763230750736E1   4.162962532954768E-1  -9.791063268420960  
 7.110000000000000E10    2.651953585557481E-1   3.249044891512784E1   3.591219415643316E-1  -1.057539475105052E2   3.592076824059602E-1  -1.002581747438609E2   3.910706992511634E-1  -2.856704390891773E1  
 7.115000000000000E10    1.969660050935885E-1   1.035159667114215E1   3.690631910608000E-1  -1.469917137718491E2   3.701114790656895E-1  -1.415364397228417E2   3.389968743039650E-1  -4.397856569284141E1  
 7.120000000000000E10    1.183276384495539E-1   7.769745956990442   3.780095460248693E-1   1.705315645093534E2   3.790158889716186E-1   1.759743588089151E2   2.942971526721126E-1  -5.155696922003243E1  
 7.125000000000000E10    1.226516274486031E-1   3.157441901212487E1   3.796033936237356E-1   1.278955980060659E2   3.803655195265440E-1   1.330933891376922E2   2.899048161113079E-1  -5.604667614569517E1  
 7.130000000000000E10    1.762099376912479E-1   2.454443525567901E1   3.771235993110567E-1   8.547217811602225E1   3.779071576856066E-1   9.072101654015982E1   3.085470335499950E-1  -6.609084512761180E1  
 7.135000000000000E10    2.049085327972200E-1   4.445372172073039   3.763370250918461E-1   4.372034546020803E1   3.766311539286276E-1   4.900542278773050E1   3.077060103396153E-1  -8.000690626557277E1  
 7.140000000000000E10    1.905578865411115E-1  -1.442829179746663E1   3.763160123885351E-1   1.713766788035579   3.775420417419696E-1   7.269427335983040   2.822384132567991E-1  -9.134536010448139E1  
 7.145000000000000E10    1.670383020701822E-1  -2.088111157860728E1   3.761786299766122E-1  -4.073279950428267E1   3.771284080353394E-1  -3.518266711068331E1   2.617226124592186E-1  -9.441824685819401E1  
 7.150000000000000E10    1.881821676975280E-1  -2.003527158511724E1   3.700921396024281E-1  -8.340140509662253E1   3.706178536803021E-1  -7.767449958409584E1   2.923960827793508E-1  -9.513956822027868E1  
 7.155000000000000E10    2.496635677890316E-1  -3.282496189236485E1   3.579671697888810E-1  -1.249175876117680E2   3.585306447680843E-1  -1.194292148973726E2   3.578347928348642E-1  -1.048206753133722E2  
 7.160000000000000E10    2.985466905555194E-1  -5.585422682470751E1   3.481102428391153E-1  -1.651347108566148E2   3.487364356096634E-1  -1.597009755424807E2   4.120341540875535E-1  -1.216143918348133E2  
 7.165000000000000E10    3.110889417145026E-1  -8.277618250861174E1   3.457969756191103E-1   1.555712472135245E2   3.461601674617089E-1   1.609015380867152E2   4.292238142781160E-1  -1.405887253205697E2  
 7.170000000000000E10    2.779415550937869E-1  -1.096581182402407E2   3.519111103686180E-1   1.159310626401469E2   3.524272210062533E-1   1.211786028294072E2   4.074356640862098E-1  -1.585331870843637E2  
 7.175000000000000E10    2.051637558310591E-1  -1.323922575317632E2   3.636061101417070E-1   7.491022477992719E1   3.639644788129116E-1   8.029253391670075E1   3.571288751927967E-1  -1.722927619063401E2  
 7.180000000000000E10    1.247031732529650E-1  -1.351920495333114E2   3.733516614128130E-1   3.269946615760591E1   3.741475222565359E-1   3.804550975090391E1   3.131084312467667E-1  -1.786084260959399E2  
