#  HZ   S   MA   R     50.00 
! Rohde & Schwarz ZVA67 4Ports - Version 4.11 - 1305.7002k04 SN: 101051
! Date: 2023-05-31 11:52:33
! Measurements: S11 S21 S12 S22 
! 
 5.000000000000000E7     7.767979044387447E-3   4.551587735122482E1   9.954437989195911E-1  -7.160778671779828   9.975905933319080E-1  -7.027372624912610   9.230581581078310E-3   4.735392119973865E-1  
 1.000000000000000E8     4.356061236669930E-3  -3.282781361206865E1   9.978713681828018E-1  -1.359878432021327E1   9.973645334705691E-1  -1.370091987637976E1   4.055322966261027E-3  -2.375296422616629E1  
 1.500000000000000E8     9.156885970264060E-3  -1.264748581755836E1   9.961244150762608E-1  -2.041704682246936E1   9.962561252676055E-1  -2.056141740358875E1   9.297720906795298E-3  -3.287173587835886E1  
 2.000000000000000E8     7.463936762988775E-3  -1.870197854224867E1   9.951712056682082E-1  -2.716184972622343E1   9.980077769535953E-1  -2.754251441234951E1   9.698345930581706E-3  -2.954216501051404E1  
 2.500000000000000E8     1.060632577740503E-2  -2.343459469635918E1   9.942194806754482E-1  -3.417617361084246E1   9.952180224487127E-1  -3.431843471459385E1   1.307009278171703E-2  -3.132333423592640E1  
 3.000000000000000E8     1.379292771598174E-2  -3.213771655744731E1   9.943282525828824E-1  -4.103140839655137E1   9.950662170562052E-1  -4.113200625986870E1   1.748528204090359E-2  -3.698400357081300E1  
 3.500000000000000E8     1.596677883918909E-2  -3.983052783201657E1   9.941257938301051E-1  -4.780287249110471E1   9.935410699346625E-1  -4.801610711417821E1   1.791154220971181E-2  -4.209436245487148E1  
 4.000000000000000E8     1.925186868399728E-2  -4.608519335576628E1   9.921944127498406E-1  -5.468014317871052E1   9.934304759464872E-1  -5.477148488080439E1   2.225989370697156E-2  -4.569715406147286E1  
 4.500000000000000E8     1.877436575248774E-2  -5.232897815939643E1   9.930414140597653E-1  -6.150149623364733E1   9.927622296566029E-1  -6.162809900703449E1   2.444460297154092E-2  -5.169491953298063E1  
 5.000000000000000E8     1.964289439602665E-2  -5.996162209003489E1   9.920984986968148E-1  -6.840713646141990E1   9.923812977144365E-1  -6.844779799461622E1   2.521158242431834E-2  -6.525000448717708E1  
 5.500000000000000E8     1.636140158479033E-2  -7.351429645171827E1   9.918093497485832E-1  -7.521481423319392E1   9.915158771595791E-1  -7.528759695972215E1   2.656984230034765E-2  -7.280723737307025E1  
 6.000000000000000E8     1.478317309643714E-2  -8.937603910986090E1   9.916233398064586E-1  -8.207158732554692E1   9.919693211182049E-1  -8.218847513066156E1   2.862966193056359E-2  -8.529986846823654E1  
 6.500000000000000E8     1.278006546420346E-2  -9.868539306253237E1   9.907118230092059E-1  -8.882160830771294E1   9.910694078715123E-1  -8.898508661367606E1   3.148413027267407E-2  -9.864370317648806E1  
 7.000000000000000E8     1.082950401685372E-2  -1.284392112922162E2   9.903852352062599E-1  -9.566534383008245E1   9.903499716368605E-1  -9.582042965592893E1   3.174118239447801E-2  -1.138554891120163E2  
 7.500000000000000E8     7.893819298975077E-3  -1.685673372369879E2   9.903274040173428E-1  -1.025041485761045E2   9.901804455062720E-1  -1.026847661970091E2   3.220638383783361E-2  -1.285899024492807E2  
 8.000000000000000E8     1.129120513894581E-2   1.489653190405446E2   9.897720993588557E-1  -1.093024347719364E2   9.895849173856248E-1  -1.094718228784222E2   3.132511697585903E-2  -1.449222843445807E2  
 8.500000000000000E8     1.410494111337899E-2   1.286033684151105E2   9.899222291557112E-1  -1.162085375121439E2   9.889917211374990E-1  -1.163479207408589E2   3.465902537196736E-2  -1.588492968025945E2  
 9.000000000000000E8     1.821263175876565E-2   1.076648138617937E2   9.879223550232330E-1  -1.230457725652729E2   9.881683321256809E-1  -1.231622053302373E2   3.732809127765038E-2  -1.712504733829441E2  
 9.500000000000000E8     2.246746218356996E-2   1.000773388023748E2   9.872371140730171E-1  -1.298443926764569E2   9.875527741267729E-1  -1.300258068579274E2   3.959349473868810E-2   1.775186037579547E2  
 1.000000000000000E9     2.608302014121140E-2   9.415036859845874E1   9.867672347325350E-1  -1.366737719161866E2   9.869310622832024E-1  -1.368468885945180E2   4.085793401242172E-2   1.662172668667034E2  
 1.050000000000000E9     2.820727472021039E-2   8.755757250273008E1   9.861440763862024E-1  -1.434820745755902E2   9.863379002026772E-1  -1.436841217085439E2   4.169814304205426E-2   1.582308504053979E2  
 1.100000000000000E9     3.035907993772199E-2   8.108358920063205E1   9.863238497602999E-1  -1.503605753070598E2   9.861191228251308E-1  -1.504963436647666E2   4.229201165890519E-2   1.477421368955914E2  
 1.150000000000000E9     3.304022275581517E-2   7.467673309347515E1   9.856920198165191E-1  -1.571514405728492E2   9.853236954482990E-1  -1.573229357366913E2   4.241218036857744E-2   1.390814862562943E2  
 1.200000000000000E9     3.446604922991455E-2   6.979693972107752E1   9.848791623283542E-1  -1.639904684358996E2   9.847552057136072E-1  -1.641884743834975E2   4.213368981838222E-2   1.290217033450652E2  
 1.250000000000000E9     3.397634179782111E-2   6.484344633679139E1   9.846916442554794E-1  -1.708302109175085E2   9.844287092074856E-1  -1.710204682563820E2   3.936378906352352E-2   1.240544165783970E2  
 1.300000000000000E9     3.375962989541493E-2   5.837393654320680E1   9.841939012962089E-1  -1.776434985351023E2   9.843985690344489E-1  -1.778675377611500E2   3.733987436509392E-2   1.175866258780431E2  
 1.350000000000000E9     3.395866346073242E-2   5.315963865570097E1   9.842948372831710E-1   1.755367750076335E2   9.841821852659024E-1   1.753445417772320E2   3.473873645838157E-2   1.121201289630060E2  
 1.400000000000000E9     3.190956692292676E-2   4.756395117612555E1   9.844151852606200E-1   1.687341178459041E2   9.843138528033754E-1   1.685182388415369E2   3.190804655994912E-2   1.067566041938680E2  
 1.450000000000000E9     3.046591525862201E-2   4.126418407611316E1   9.845315313168922E-1   1.619524385533032E2   9.836634241126517E-1   1.617004131883252E2   2.874472714957401E-2   1.054249042009791E2  
 1.500000000000000E9     2.824154538602445E-2   3.551863162124701E1   9.841542864754165E-1   1.550962629751415E2   9.844938735675174E-1   1.548831518748590E2   2.574070766557470E-2   1.043061597898948E2  
 1.550000000000000E9     2.631170876186947E-2   2.729726813785317E1   9.845592382893444E-1   1.483181337607163E2   9.844738465151821E-1   1.480622839780744E2   2.278520847688391E-2   1.067036380979158E2  
 1.600000000000000E9     2.443226430762880E-2   1.645558127259363E1   9.847543061010078E-1   1.415020983717668E2   9.846430100281217E-1   1.412854877507841E2   2.056684295640193E-2   1.100088940069359E2  
 1.650000000000000E9     2.231679635115323E-2   4.967057154099855   9.848874890891592E-1   1.346844400631714E2   9.851492452597597E-1   1.344731991924386E2   2.036418941078555E-2   1.151517784837650E2  
 1.700000000000000E9     2.064652719487394E-2  -9.566333036694720   9.849619619770704E-1   1.278773324934371E2   9.850774093991824E-1   1.276792050900162E2   2.090829956692292E-2   1.219540341160550E2  
 1.750000000000000E9     2.053020872554781E-2  -3.045834556181987E1   9.851346358986939E-1   1.211353862772113E2   9.852522101414503E-1   1.208766718453083E2   2.231298766435136E-2   1.257150060560320E2  
 1.800000000000000E9     2.232681247249464E-2  -4.635263697080014E1   9.849970867080858E-1   1.143400138004579E2   9.852305251113983E-1   1.140959451176040E2   2.286217366964595E-2   1.267145271060345E2  
 1.850000000000000E9     2.519123283453030E-2  -6.128532571248888E1   9.860889263803470E-1   1.075257818205818E2   9.849148824844735E-1   1.072687156134731E2   2.368766722957877E-2   1.217278084614555E2  
 1.900000000000000E9     2.871823523419539E-2  -7.647963927864399E1   9.855382931557682E-1   1.007591988678796E2   9.855976022799265E-1   1.005131111252947E2   2.524491140958313E-2   1.231436918684218E2  
 1.950000000000000E9     3.293237735875477E-2  -8.790982378371868E1   9.853198277152792E-1   9.401889009611162E1   9.853468234939895E-1   9.375029391875759E1   2.605896547920963E-2   1.165801318754277E2  
 2.000000000000000E9     3.776325226085624E-2  -9.849367643194724E1   9.849382253082036E-1   8.726075360036418E1   9.853969439337111E-1   8.694218047504859E1   2.799194564287296E-2   1.088975263137126E2  
 2.050000000000000E9     4.294926996723796E-2  -1.058023922651275E2   9.853514238775304E-1   8.037617497513769E1   9.853676769748931E-1   8.016936742103654E1   2.876039317997659E-2   1.010372156446435E2  
 2.100000000000000E9     4.646650747455677E-2  -1.144401254298289E2   9.854848234054977E-1   7.360835383736890E1   9.847327461578622E-1   7.338030748412150E1   2.961792329331328E-2   9.678553015903052E1  
 2.150000000000000E9     5.069733995893248E-2  -1.215946067399906E2   9.852281405296952E-1   6.683179216034185E1   9.847436673412279E-1   6.657471350847835E1   3.105024115157342E-2   8.998940770989333E1  
 2.200000000000000E9     5.420418482047610E-2  -1.284859112873909E2   9.841892201402496E-1   6.007994305044823E1   9.849519344037162E-1   5.981949744503444E1   3.152218624170521E-2   8.360561463427578E1  
 2.250000000000000E9     5.592042955824144E-2  -1.347370470111634E2   9.849076616142040E-1   5.331770778143728E1   9.852516847843232E-1   5.297351657075841E1   3.247003947095573E-2   7.644009459486988E1  
 2.300000000000000E9     5.590343465751184E-2  -1.417411803431950E2   9.842547489330021E-1   4.652667874097687E1   9.826512290510360E-1   4.621182734039607E1   3.472792265518624E-2   7.245044901120031E1  
 2.350000000000000E9     5.624245009851956E-2  -1.484078743143843E2   9.836986924224500E-1   3.974004984711596E1   9.833415788356279E-1   3.940087545039779E1   3.698709096845343E-2   6.725764803676118E1  
 2.400000000000000E9     5.518416962431392E-2  -1.553995630481539E2   9.837014480276618E-1   3.293918154875311E1   9.826541927236320E-1   3.266421780468632E1   3.963260773658842E-2   6.384038320039944E1  
 2.450000000000000E9     5.414222005791716E-2  -1.620535686698717E2   9.826372639389323E-1   2.614207953174326E1   9.832079444747685E-1   2.581125952655225E1   4.082676062773178E-2   5.966036599842622E1  
 2.500000000000000E9     5.149600283873256E-2  -1.706024301342929E2   9.826666844617024E-1   1.935701083271301E1   9.827942167219793E-1   1.902868091054130E1   4.417445669400420E-2   5.656465236684565E1  
 2.550000000000000E9     4.831756209909167E-2  -1.789466486999392E2   9.834716336750935E-1   1.250715565011845E1   9.824189391486318E-1   1.227765802009735E1   4.519326419812225E-2   5.244998171103912E1  
 2.600000000000000E9     4.603294886464358E-2   1.699885536484188E2   9.825225725412398E-1   5.752307063687297   9.823414557492138E-1   5.437613368102021   4.793406901956250E-2   4.928337597250918E1  
 2.650000000000000E9     4.384024058160180E-2   1.594172346911087E2   9.824910546902780E-1  -1.078965734226858   9.816397655358832E-1  -1.344530195664167   4.864893959816885E-2   4.489718411469191E1  
 2.700000000000000E9     4.178802377252355E-2   1.482745839856736E2   9.823483031760072E-1  -7.911688965513434   9.814162005278680E-1  -8.184781858009036   5.028613350944127E-2   3.990733178390879E1  
 2.750000000000000E9     4.088253114200284E-2   1.338056294819365E2   9.813090844008354E-1  -1.465806753262560E1   9.805736952286129E-1  -1.499326158322751E1   5.205451543643844E-2   3.499132686710237E1  
 2.800000000000000E9     4.068150536170818E-2   1.209549456845257E2   9.814794632462086E-1  -2.154682608064625E1   9.803741546450989E-1  -2.185906983697172E1   5.324189063991953E-2   2.867308086932076E1  
 2.850000000000000E9     4.227090343500800E-2   1.063347314961599E2   9.808024787578082E-1  -2.833119651097460E1   9.801912496739098E-1  -2.869750181494235E1   5.482170054916998E-2   2.217837322949572E1  
 2.900000000000000E9     4.578933925883686E-2   9.463473182712204E1   9.804773894266775E-1  -3.521128499664400E1   9.806218441524249E-1  -3.550784702491645E1   5.496625867510358E-2   1.564775849008080E1  
 2.950000000000000E9     4.636555878666365E-2   8.270254187388986E1   9.807282475089970E-1  -4.205809649906630E1   9.799443636624816E-1  -4.234516658591350E1   5.602186598921910E-2   7.829472501051434  
 3.000000000000000E9     4.758100670551058E-2   7.251018790035097E1   9.806609905512759E-1  -4.888012992948901E1   9.791238498234437E-1  -4.923063408592900E1   5.516363115242735E-2   2.365702377279197  
 3.050000000000000E9     4.839360671877124E-2   6.323466410901464E1   9.792829236470213E-1  -5.570199569054729E1   9.793136395559838E-1  -5.606156262584108E1   5.453018398455146E-2  -6.105580345262007  
 3.100000000000000E9     5.118160902855688E-2   5.414253394062288E1   9.791427978883149E-1  -6.249354709241715E1   9.782308941863624E-1  -6.295304494054649E1   5.357605760408256E-2  -1.319816459671416E1  
 3.150000000000000E9     5.121058463658158E-2   4.694820222483030E1   9.783563465069420E-1  -6.938234924380242E1   9.789099074831789E-1  -6.976020688508572E1   5.201113073351053E-2  -2.085595065813378E1  
 3.200000000000000E9     5.224429917364507E-2   4.004488684674835E1   9.781285237562603E-1  -7.619604622052781E1   9.793395762901681E-1  -7.654421118491533E1   5.007249813382400E-2  -2.887125443995699E1  
 3.250000000000000E9     5.148099884359238E-2   3.386427868968505E1   9.792329935274086E-1  -8.298109142269300E1   9.793368083791182E-1  -8.340910520505781E1   4.646574130877520E-2  -3.632985267082704E1  
 3.300000000000000E9     4.879900821434484E-2   2.780529729237425E1   9.786245399751877E-1  -8.978715385303539E1   9.799898327932310E-1  -9.014002937269648E1   4.388036356024666E-2  -4.652061210761195E1  
 3.350000000000000E9     4.691451288277786E-2   2.235271843583702E1   9.794531156875758E-1  -9.659518932111632E1   9.797886580689907E-1  -9.694171792218553E1   3.964710329176649E-2  -5.490015555755554E1  
 3.400000000000000E9     4.258661754768784E-2   1.826770339042611E1   9.790298046705954E-1  -1.033503220926168E2   9.796856142461057E-1  -1.037740908433466E2   3.554938702878138E-2  -6.567722638848980E1  
 3.450000000000000E9     3.869447298862924E-2   1.293185526089823E1   9.794967586875987E-1  -1.102400025905768E2   9.803483306949902E-1  -1.106698555532675E2   3.179488674245493E-2  -7.662724360934396E1  
 3.500000000000000E9     3.514117059462046E-2   8.515572150083008   9.814836634709327E-1  -1.169780752239555E2   9.814468083220728E-1  -1.175138376635719E2   2.686355329608169E-2  -9.223296764571397E1  
 3.550000000000000E9     2.835795172442958E-2   3.969572146769411   9.814463256986941E-1  -1.238109567633266E2   9.815462730016703E-1  -1.243722185523342E2   2.354065397053064E-2  -1.051827443380463E2  
 3.600000000000000E9     2.390545948440741E-2   3.101258560947150   9.825539655853424E-1  -1.306504945274592E2   9.818662539231574E-1  -1.311868786218683E2   1.951133932620479E-2  -1.230671698070404E2  
 3.650000000000000E9     1.976282535370992E-2   3.076848522420917   9.831618781934143E-1  -1.375289670810790E2   9.818416748888612E-1  -1.379806090065285E2   1.942569817386630E-2  -1.491107949011926E2  
 3.700000000000000E9     1.407376962359126E-2   4.689652132711214   9.823704546586746E-1  -1.443715270580377E2   9.821052464207729E-1  -1.448388326836680E2   1.923098338552494E-2  -1.664112293937021E2  
 3.750000000000000E9     8.202541808420991E-3   1.404361491385867E1   9.822747242395242E-1  -1.512242311480059E2   9.819439294686749E-1  -1.516756966343326E2   1.998635821923476E-2   1.750194521071891E2  
 3.800000000000000E9     7.257295756807262E-3   7.060840892127486E1   9.823615761213683E-1  -1.580535047481849E2   9.810453677595142E-1  -1.584750320411722E2   1.977934891669925E-2   1.535917403702768E2  
 3.850000000000000E9     1.190098941427981E-2   1.025612226376907E2   9.819125346887591E-1  -1.648616614548125E2   9.817541286103863E-1  -1.652611063938641E2   2.231316978698112E-2   1.375723865937798E2  
 3.900000000000000E9     1.835925517680499E-2   1.109639316594992E2   9.822017923253784E-1  -1.716937358313375E2   9.802794706235846E-1  -1.721533918429190E2   2.490255985917632E-2   1.250605757083620E2  
 3.950000000000000E9     2.546577756017622E-2   1.119999203644797E2   9.808517853926373E-1  -1.785102473769892E2   9.802195181369851E-1  -1.789448506162545E2   2.732178913505236E-2   1.116790520326639E2  
 4.000000000000000E9     3.217890386343884E-2   1.096952713404092E2   9.802299952987420E-1   1.746974450758066E2   9.803416302044733E-1   1.742779719259794E2   3.030737826339258E-2   9.881363964569144E1  
 4.050000000000000E9     3.666422823849330E-2   1.062643764461668E2   9.802781282893227E-1   1.679289607121851E2   9.804216093191820E-1   1.674419034229579E2   3.306530215359870E-2   9.106818108171179E1  
 4.100000000000000E9     4.180649271938641E-2   1.024844113965746E2   9.789859373053373E-1   1.611054181926270E2   9.792692705428246E-1   1.606204970298011E2   3.509382897330551E-2   8.039268470162590E1  
 4.150000000000000E9     4.666126290381006E-2   9.719546495208077E1   9.787187391778803E-1   1.542959449556206E2   9.786872669967647E-1   1.538143303848885E2   3.843019472505840E-2   7.215520760612573E1  
 4.200000000000000E9     4.983790018448490E-2   9.180355495492002E1   9.785108151414035E-1   1.474642873983424E2   9.782873211190539E-1   1.469923556049124E2   4.139183298657023E-2   6.309460869904473E1  
 4.250000000000000E9     5.274346953196019E-2   8.524687663574646E1   9.780048228714433E-1   1.406571633464606E2   9.781715493330991E-1   1.401864081047193E2   4.578930509600924E-2   5.528531884678190E1  
 4.300000000000000E9     5.472887153264210E-2   7.828382968249356E1   9.777090961297761E-1   1.338322576347835E2   9.774176662399666E-1   1.334199955001557E2   4.953266885774952E-2   5.057638460409184E1  
 4.350000000000000E9     5.767143522065753E-2   7.122016423474955E1   9.774153907504888E-1   1.270677118493935E2   9.774489976764609E-1   1.265683194561038E2   5.341209102240772E-2   4.256853188941874E1  
 4.400000000000000E9     6.039978897595216E-2   6.297553606445013E1   9.776075094452941E-1   1.202561847031294E2   9.770727971276816E-1   1.197998765342673E2   5.614147476925860E-2   3.683769568110146E1  
 4.450000000000000E9     6.040795505467510E-2   5.622220860438586E1   9.774732806273442E-1   1.135043478860098E2   9.773323250392504E-1   1.129672673851969E2   5.814861211449299E-2   2.957135508801364E1  
 4.500000000000000E9     6.279689999506921E-2   4.797830037622907E1   9.773900359363701E-1   1.066906217008509E2   9.773094210547835E-1   1.062044762605391E2   6.093795363806957E-2   2.286965130722207E1  
 4.550000000000000E9     6.450049750402649E-2   4.061096099928740E1   9.768695117815974E-1   9.989294788995832E1   9.774531263362281E-1   9.940709701754591E1   6.275277141178774E-2   1.661164829827591E1  
 4.600000000000000E9     6.529572797220827E-2   3.220571212639516E1   9.770522461695420E-1   9.312782025927828E1   9.777341139834621E-1   9.260138570608106E1   6.280084533637849E-2   8.704286178190175  
 4.650000000000000E9     6.759515448968537E-2   2.319833282557092E1   9.775167627424538E-1   8.631030099281320E1   9.775338055414837E-1   8.578911735126123E1   6.434464013438472E-2   3.598611037965670  
 4.700000000000000E9     6.768478134808163E-2   1.497529073191800E1   9.778028422527381E-1   7.958525585133135E1   9.776093583806029E-1   7.904236350902717E1   6.250938521822101E-2  -2.045617986256862  
 4.750000000000000E9     7.050507602806255E-2   6.457576062853219   9.783293071786132E-1   7.277503710873707E1   9.786209683893181E-1   7.225121200281848E1   6.156570532043084E-2  -8.358920591487060  
 4.800000000000000E9     7.144591565759041E-2  -7.352177821181339E-1   9.791035890761167E-1   6.601149882536679E1   9.786600950237473E-1   6.547760400369189E1   5.838180865242466E-2  -1.452333413620665E1  
