#  HZ   S   MA   R     50.00 
! Rohde & Schwarz ZVA67 4Ports - Version 4.11 - 1305.7002k04 SN: 101051
! Date: 2023-09-13 16:55:57
! Measurements: S11 S21 S12 S22 
! 
 6.705000000000000E10    5.050742023643094E-2  -9.535656280722142E1   2.311217011689656E-3  -1.740212682379682E2   2.285497824971860E-3  -1.753719601989217E2   4.858259338879151E-1   1.560813340976223E2  
 6.710000000000000E10    6.648217240213503E-2  -6.921319434834825E1   2.522717448953668E-3   1.397833674172029E2   2.309633325348786E-3   1.432700670121326E2   4.674327344828945E-1   1.461324553566376E2  
 6.715000000000000E10    1.056659544549847E-1  -7.262643788046124E1   2.271547588915458E-3   9.352475890994603E1   2.397234300255591E-3   9.826298760419030E1   4.586055521509125E-1   1.366815048790694E2  
 6.720000000000000E10    1.446195518878926E-1  -8.722584866496436E1   2.471549562367316E-3   4.449829943545559E1   2.191376250809056E-3   5.418143925496979E1   4.559532338269506E-1   1.274311346182418E2  
 6.725000000000000E10    1.764334043153328E-1  -1.059007604672727E2   2.546162416956600E-3   1.214186471871398E1   2.336267569029158E-3   1.218108576148753E1   4.601535642237400E-1   1.173268590159433E2  
 6.730000000000000E10    1.979854845663323E-1  -1.252916646687713E2   2.405599823791020E-3  -3.799435645791887E1   2.356173358092284E-3  -2.951405504659815E1   4.666054429629576E-1   1.063699613853899E2  
 6.735000000000000E10    2.032687207000265E-1  -1.454873073978417E2   2.230406496894450E-3  -7.300160866615751E1   2.442958954451127E-3  -7.229930355268549E1   4.707999262102088E-1   9.400178706988937E1  
 6.740000000000000E10    1.958743065318376E-1  -1.654760815772054E2   2.387719714773996E-3  -1.200310128513912E2   2.639356470904572E-3  -1.144034768918346E2   4.714825795904715E-1   8.086750839815171E1  
 6.745000000000000E10    1.725578588587164E-1   1.754553772124122E2   2.429310186978513E-3  -1.632244759646697E2   2.623870691878353E-3  -1.569605391749167E2   4.642555110832574E-1   6.685080532078183E1  
 6.750000000000000E10    1.385596568321083E-1   1.586140702619180E2   2.585807419370612E-3   1.576184503764187E2   2.653787126538326E-3   1.603780001139424E2   4.522923870331171E-1   5.291988843761095E1  
 6.755000000000000E10    9.377369683273579E-2   1.479574348620188E2   2.880784656635902E-3   1.168447096046151E2   2.664438310158459E-3   1.157170466541605E2   4.319728725733406E-1   3.910092541992156E1  
 6.760000000000000E10    5.940980758881929E-2   1.591186840999580E2   2.777192189269796E-3   7.100953436045897E1   2.749799260294160E-3   7.417756300082208E1   4.135120759214139E-1   2.574965528888240E1  
 6.765000000000000E10    6.407623303690706E-2  -1.702760726864394E2   2.784138434620486E-3   2.505951682841292E1   2.888546114364292E-3   2.910649135633130E1   3.941765008375120E-1   1.317477253863962E1  
 6.770000000000000E10    9.990250048673582E-2  -1.671568852774130E2   3.002052186762511E-3  -1.446342426794767E1   2.782877911237686E-3  -9.707115712789786   3.806238883005884E-1   1.544558895319653  
 6.775000000000000E10    1.367421097703098E-1   1.792272279117458E2   2.822478433061018E-3  -5.759542031065220E1   2.753243086112180E-3  -5.837167122357411E1   3.778999452052163E-1  -9.910770141568515  
 6.780000000000000E10    1.624643234345674E-1   1.610446603845680E2   3.095104809779440E-3  -1.022688473391417E2   2.896998832217095E-3  -1.016707105121948E2   3.839608382892026E-1  -2.147154517833028E1  
 6.785000000000000E10    1.748031582635864E-1   1.411948320494603E2   3.008701031994813E-3  -1.452190085158189E2   2.908480046281756E-3  -1.445314799801734E2   3.963363443812603E-1  -3.407813600426355E1  
 6.790000000000000E10    1.742009648110131E-1   1.191544330588040E2   2.939831062736849E-3   1.695724654655809E2   2.978186811100164E-3   1.737735667595118E2   4.133031284441799E-1  -4.775815892186739E1  
 6.795000000000000E10    1.596332865546310E-1   9.648117092805676E1   2.878578641848246E-3   1.258014920320152E2   2.841773286223333E-3   1.308672232734619E2   4.286273669341748E-1  -6.211096152289355E1  
 6.800000000000000E10    1.336493077304730E-1   7.179282476112671E1   2.945716239622865E-3   8.459653745968521E1   2.984068994599801E-3   8.880644790979635E1   4.379915462437158E-1  -7.646563216454337E1  
 6.805000000000000E10    1.014828723994661E-1   4.464301449932205E1   2.971339167617021E-3   4.258518775381251E1   2.775532593753201E-3   4.810355364776452E1   4.423213838707678E-1  -9.116610812184254E1  
 6.810000000000000E10    6.750039701179271E-2   1.300939009107234E1   3.055175816063508E-3  -5.305443527157908   2.952748006394815E-3   5.163996982601828   4.384525812330873E-1  -1.050003483010574E2  
 6.815000000000000E10    3.529682170784271E-2  -3.135689799354601E1   3.051589807607271E-3  -4.551251513703120E1   3.010002633453051E-3  -3.904832425902942E1   4.320599286170199E-1  -1.180108932120689E2  
 6.820000000000000E10    2.346431069820589E-2  -1.188474554990499E2   2.960258935941166E-3  -8.642681820261304E1   3.214070311458300E-3  -8.107950199116301E1   4.251740932642225E-1  -1.295999815381111E2  
 6.825000000000000E10    3.338733968379282E-2   1.725587261630569E2   3.263528056855876E-3  -1.280224609678747E2   3.138683770371076E-3  -1.262203186260903E2   4.191023664078981E-1  -1.401935535619056E2  
 6.830000000000000E10    4.321283381230250E-2   1.272147840780850E2   3.097425678071279E-3  -1.705965234431992E2   3.074595499457097E-3  -1.697824330408528E2   4.214829927525954E-1  -1.494133852104214E2  
 6.835000000000000E10    4.776611508927380E-2   8.697173377188409E1   3.103605398712147E-3   1.429020522438605E2   3.097511975293189E-3   1.466484196038315E2   4.315619533033248E-1  -1.586088269316365E2  
 6.840000000000000E10    4.916548110123207E-2   4.204456518163968E1   3.135592293891408E-3   1.003511713576308E2   3.146693059963615E-3   1.049578332237204E2   4.499755512024724E-1  -1.682278185308009E2  
 6.845000000000000E10    5.599039798603622E-2  -4.264728810729027   3.042314826814534E-3   5.749489430967585E1   3.105036149049804E-3   6.404643273561052E1   4.715253382168637E-1  -1.789945852749270E2  
 6.850000000000000E10    6.947940695445909E-2  -5.039505887754162E1   3.120258768278013E-3   1.606309302094670E1   3.075774170581317E-3   1.869627669695708E1   4.902726249307267E-1   1.696172686364791E2  
 6.855000000000000E10    8.875926781160168E-2  -8.620246755990355E1   3.099832798075075E-3  -2.566788349837236E1   2.982145781942292E-3  -2.100913770823925E1   5.042308902509760E-1   1.575654580041555E2  
 6.860000000000000E10    1.083610403817954E-1  -1.160575005136941E2   2.967510594846566E-3  -6.834892811586221E1   3.090061003472822E-3  -6.374972877660021E1   5.082835398415709E-1   1.453615048820514E2  
 6.865000000000000E10    1.226204680122253E-1  -1.423286628033927E2   3.036897882982960E-3  -1.105660455209581E2   3.142475574727999E-3  -1.045497793528174E2   5.049937999587536E-1   1.334617462917713E2  
 6.870000000000000E10    1.286626545747961E-1  -1.647935134549706E2   3.135057401788564E-3  -1.532999899631087E2   3.118261075035022E-3  -1.468100984799799E2   4.917921456644754E-1   1.221481791980422E2  
 6.875000000000000E10    1.250705363855375E-1   1.753555578678123E2   3.266361105905285E-3   1.632361121602685E2   3.241578063307465E-3   1.688776541323218E2   4.747038141745009E-1   1.118351458538996E2  
 6.880000000000000E10    1.127735525684138E-1   1.591711445208736E2   3.230033628297662E-3   1.222202362558976E2   3.268349952528929E-3   1.261863487079326E2   4.565649783594409E-1   1.028247938648018E2  
 6.885000000000000E10    9.514776857115466E-2   1.495994613598273E2   3.385466621527912E-3   7.876444269453016E1   3.286889499134104E-3   8.437507074166359E1   4.452430265030893E-1   9.515590265242415E1  
 6.890000000000000E10    7.941789362449560E-2   1.499929993068898E2   3.326782552325608E-3   3.520188765168013E1   3.368468070246281E-3   4.172589142475713E1   4.438087100272452E-1   8.774528301057774E1  
 6.895000000000000E10    7.921285003926190E-2   1.578333996463878E2   3.299213670637206E-3  -9.912685841787569   3.330487593345248E-3  -4.304991989396302   4.532867019050594E-1   7.965161719807480E1  
 6.900000000000000E10    9.790451705294082E-2   1.614289959089287E2   3.329314918657264E-3  -5.188650190624939E1   3.280470151511136E-3  -4.549479151049447E1   4.712778189394216E-1   7.036245334221540E1  
 6.905000000000000E10    1.250974626085799E-1   1.547662466905083E2   3.123275904477323E-3  -8.880780127361807E1   3.220342191131999E-3  -8.794372630625347E1   4.870664754355608E-1   5.965669787367494E1  
 6.910000000000000E10    1.488129820802470E-1   1.426982458218586E2   3.181632250182430E-3  -1.322667191381371E2   3.113366037221077E-3  -1.288733529965540E2   4.974128551029942E-1   4.768165010729427E1  
 6.915000000000000E10    1.671783048820857E-1   1.281363113884863E2   3.138991991400282E-3  -1.757321851630279E2   3.218951416182904E-3  -1.687572042620802E2   5.005100735539023E-1   3.499434164522626E1  
 6.920000000000000E10    1.771432104847654E-1   1.123319957241978E2   3.118576323430439E-3   1.415292402728843E2   3.258125384288115E-3   1.460602411274917E2   4.926762107220799E-1   2.178738782027870E1  
 6.925000000000000E10    1.770030200647430E-1   9.720628211452630E1   3.121608600704076E-3   1.031230070062745E2   3.314264549752017E-3   1.063465432443106E2   4.782884792071159E-1   8.823843249807249  
 6.930000000000000E10    1.696397567643894E-1   8.292923034430420E1   3.490024516333271E-3   5.765848427714904E1   3.229181813222426E-3   6.385733259518754E1   4.533896296778631E-1  -3.539979749870573  
 6.935000000000000E10    1.559475925309324E-1   7.046964379506736E1   3.407477937851150E-3   1.662426457999339E1   3.311621095331348E-3   2.249368042336762E1   4.242270668274489E-1  -1.449724334332755E1  
 6.940000000000000E10    1.394851727920772E-1   6.087938853157584E1   3.463151084446281E-3  -2.305234435014237E1   3.385394513460580E-3  -2.226263907863594E1   3.989965923976827E-1  -2.409781912771583E1  
 6.945000000000000E10    1.292818682263943E-1   5.495265715044607E1   3.442375269092870E-3  -6.623481307435920E1   3.473352918812830E-3  -6.449992341987569E1   3.834677723010719E-1  -3.198031111477224E1  
 6.950000000000000E10    1.262859133265691E-1   5.050567699592574E1   3.370011040300904E-3  -1.132824504010181E2   3.515001901156895E-3  -1.088368473013762E2   3.841080742576060E-1  -3.946210669446561E1  
 6.955000000000000E10    1.317308055631624E-1   4.447600680159201E1   3.483238746112203E-3  -1.546985176901406E2   3.372612845672213E-3  -1.523741513402596E2   3.983403420950012E-1  -4.765038540961037E1  
 6.960000000000000E10    1.419936703450986E-1   3.556481176864757E1   3.353464037109311E-3   1.607266840002897E2   3.525263374426175E-3   1.678962218954106E2   4.225248335261983E-1  -5.801910578414395E1  
 6.965000000000000E10    1.529854484206474E-1   2.262584321990173E1   3.217963562188313E-3   1.184258093546430E2   3.380136596378966E-3   1.259419051388130E2   4.431612874451565E-1  -6.998641760818998E1  
 6.970000000000000E10    1.597515931727714E-1   8.124015628505335   3.272653806602576E-3   7.821088186962756E1   3.337412206926722E-3   8.328621231258333E1   4.598571097795218E-1  -8.320642589204742E1  
 6.975000000000000E10    1.606493118651268E-1  -7.989221957814654   3.201074614311572E-3   3.658649878883430E1   3.169695558877106E-3   3.942134586307866E1   4.675294844703287E-1  -9.708118634188035E1  
 6.980000000000000E10    1.565518068616164E-1  -2.451610200512854E1   3.084538695848474E-3  -3.158519801946476   3.347507976074462E-3  -1.309566402243982   4.640454825925345E-1  -1.109544849701711E2  
 6.985000000000000E10    1.480814879996642E-1  -3.969036340039970E1   3.331462982101225E-3  -4.613275169628711E1   3.187328520970315E-3  -4.024513074100162E1   4.505542457328436E-1  -1.245428223531269E2  
 6.990000000000000E10    1.363245408597250E-1  -5.334336316376870E1   3.288592953118100E-3  -8.653852986195278E1   3.122764855608910E-3  -8.121542883324084E1   4.279600778185893E-1  -1.372221345846873E2  
 6.995000000000000E10    1.257610817813140E-1  -6.332595999211452E1   3.316032308759292E-3  -1.302232002323567E2   3.425899603220859E-3  -1.264576024435080E2   3.993881692067558E-1  -1.484565675264630E2  
 7.000000000000000E10    1.209406505181064E-1  -7.020241188875896E1   3.275254361084441E-3  -1.728465890331770E2   3.378672921571224E-3  -1.661140911901933E2   3.730967190966625E-1  -1.574037937133815E2  
 7.005000000000000E10    1.250508877823959E-1  -7.518575737802034E1   3.551628394114227E-3   1.462946895855062E2   3.328066659481782E-3   1.493384960513741E2   3.556703939479488E-1  -1.642698055088939E2  
 7.010000000000000E10    1.387128261826501E-1  -8.299266271199258E1   3.461119577126514E-3   1.007468093330365E2   3.469153654025436E-3   1.038515586641212E2   3.562955913784268E-1  -1.700830169792885E2  
 7.015000000000000E10    1.589185142780245E-1  -9.338128819458832E1   3.349348249791563E-3   5.658375026683738E1   3.321164310039313E-3   6.403843882891911E1   3.722644829311744E-1  -1.771170392870657E2  
 7.020000000000000E10    1.789818274086462E-1  -1.067359483335119E2   3.177577983788878E-3   1.594347025003899E1   3.193434241068371E-3   1.855320074138456E1   3.965905729475305E-1   1.737570873327197E2  
 7.025000000000000E10    1.955615855557863E-1  -1.223955726231754E2   3.053177195170079E-3  -2.562194501066677E1   3.189324431776170E-3  -2.255315488614511E1   4.191895753886071E-1   1.625098360274493E2  
 7.030000000000000E10    2.074587768083714E-1  -1.387499031143906E2   3.093378699339994E-3  -6.397095432959397E1   3.282371515436803E-3  -6.238576602511616E1   4.359426004042241E-1   1.500438130599009E2  
 7.035000000000000E10    2.110699825267144E-1  -1.547221570614432E2   3.183190851136034E-3  -1.072614541200090E2   3.172151533541460E-3  -1.016023093710155E2   4.428007662845587E-1   1.368086842403825E2  
 7.040000000000000E10    2.053188997671061E-1  -1.700244207355993E2   3.249451660246836E-3  -1.476879084015872E2   2.935833804228204E-3  -1.451403780159636E2   4.378948596175259E-1   1.233261737084827E2  
 7.045000000000000E10    1.933759724473744E-1   1.762038686507294E2   3.117993985888615E-3   1.733323960509837E2   3.133288149869668E-3   1.754749691435109E2   4.219904901830204E-1   1.103412733594289E2  
 7.050000000000000E10    1.766829520594746E-1   1.656252430403715E2   3.379699387629265E-3   1.297970392330961E2   3.162797334133451E-3   1.349622478637247E2   3.970522756025129E-1   9.836197743441680E1  
 7.055000000000000E10    1.606388698806700E-1   1.591993889400824E2   3.285973124480032E-3   8.685965505768958E1   3.390082547194091E-3   9.164294816294058E1   3.655975632097622E-1   8.791795930793639E1  
 7.060000000000000E10    1.564607379509867E-1   1.564155129933907E2   3.362822222192708E-3   4.577146833823566E1   3.230759120854471E-3   4.998259250145417E1   3.389762367088473E-1   7.978710838295980E1  
 7.065000000000000E10    1.666325075756613E-1   1.543406586452071E2   3.227473131690826E-3   1.316947271558028   3.243986100754175E-3   6.343744150579874   3.212895804321027E-1   7.391975873274984E1  
 7.070000000000000E10    1.883061787315169E-1   1.481425141945226E2   3.165854398481987E-3  -4.173638644481957E1   3.228197759540615E-3  -3.680281799002435E1   3.210849383691307E-1   6.862183931636621E1  
 7.075000000000000E10    2.142849809501292E-1   1.380595492969274E2   3.106659874274879E-3  -8.289845114677213E1   3.148294690848735E-3  -7.749564392809201E1   3.351440484641267E-1   6.203918818042524E1  
 7.080000000000000E10    2.383508767119370E-1   1.248234322442951E2   2.769631859533672E-3  -1.261911166385883E2   2.954462051245157E-3  -1.181768837731526E2   3.569620313422792E-1   5.244870915120788E1  
 7.085000000000000E10    2.528719566561251E-1   1.096195632945043E2   2.764484186237607E-3  -1.657836124620003E2   2.868957444684490E-3  -1.591783755169629E2   3.750828700866131E-1   4.100096329787127E1  
 7.090000000000000E10    2.601276298501772E-1   9.352021844964048E1   3.030731902351479E-3   1.529545168029700E2   2.936101187085386E-3   1.583057294030066E2   3.867297652956224E-1   2.774436632427407E1  
 7.095000000000000E10    2.540016261049942E-1   7.696243092208476E1   2.825324126114024E-3   1.171797508917839E2   2.862061894560211E-3   1.187156042720384E2   3.886434136717338E-1   1.373008253197539E1  
 7.100000000000000E10    2.396344602824026E-1   6.095465190930644E1   2.998518511530438E-3   7.535570796018577E1   2.930664184093712E-3   7.982119604565216E1   3.813008797120625E-1  -7.726877681605798E-1  
 7.105000000000000E10    2.132243735495008E-1   4.622035984275707E1   2.949803817603583E-3   3.196015760553081E1   2.914797398907624E-3   3.710299615972441E1   3.653087277972245E-1  -1.455510712921605E1  
 7.110000000000000E10    1.803583737095545E-1   3.405634614218422E1   2.993724796386462E-3  -6.273686715793368   2.993807902568863E-3  -5.548736509120693   3.410914574884325E-1  -2.762890442651212E1  
 7.115000000000000E10    1.504290911700874E-1   2.747850190355799E1   2.933734465514494E-3  -5.227938682975006E1   3.090962990327165E-3  -4.596617690923739E1   3.141793611762708E-1  -3.920197821934358E1  
 7.120000000000000E10    1.328256467088778E-1   2.790662528993975E1   3.290858729046712E-3  -9.478914744508629E1   3.060751726823549E-3  -8.857132232633951E1   2.920291776809980E-1  -4.831713961771285E1  
 7.125000000000000E10    1.410514252275813E-1   3.004020400496188E1   2.879975910576940E-3  -1.367327194272543E2   3.043651414981610E-3  -1.289813720803559E2   2.801349156032492E-1  -5.533802132918653E1  
 7.130000000000000E10    1.649605453014461E-1   2.588522989934517E1   2.981575031821778E-3  -1.759123142921971E2   2.947068746814005E-3  -1.716473635954902E2   2.833496194652319E-1  -6.214618554387504E1  
 7.135000000000000E10    1.965126843268975E-1   1.541693096156183E1   2.999831456734598E-3   1.426563148981604E2   2.927006426020237E-3   1.468918850054181E2   2.977301135915778E-1  -6.998368727701222E1  
 7.140000000000000E10    2.244072614238869E-1   7.639749852159533E-2   2.713748571646844E-3   9.999231735602874E1   2.842099080036251E-3   1.066228028873873E2   3.192043007177280E-1  -7.997993097891749E1  
 7.145000000000000E10    2.463495223822109E-1  -1.717032232915502E1   2.833656980032811E-3   5.801280517952054E1   2.704215039255474E-3   6.404867832141486E1   3.411978407666524E-1  -9.178166444936969E1  
 7.150000000000000E10    2.587344877283914E-1  -3.542784958400804E1   2.679531413424505E-3   1.952708755299890E1   2.771071589251412E-3   2.487765030733675E1   3.568307901522682E-1  -1.048296344858855E2  
 7.155000000000000E10    2.605041616519495E-1  -5.417778030807148E1   2.787158320781254E-3  -2.341745325476764E1   2.724280645326821E-3  -1.895197177910777E1   3.653019619452574E-1  -1.180299942514701E2  
 7.160000000000000E10    2.510230525510160E-1  -7.260767507175365E1   2.636784919086065E-3  -6.085312372162724E1   2.668668066699456E-3  -5.812830112854931E1   3.660256678708552E-1  -1.312451294751870E2  
 7.165000000000000E10    2.319225062144230E-1  -9.039450085998261E1   2.870270352194794E-3  -1.008026171510121E2   2.639152284409696E-3  -9.942541281247544E1   3.580122697750816E-1  -1.437747129959724E2  
 7.170000000000000E10    2.034697689042708E-1  -1.058303605089447E2   2.672431325179681E-3  -1.399656013982154E2   2.838465357268876E-3  -1.356972003649837E2   3.445687880935409E-1  -1.548607136535669E2  
 7.175000000000000E10    1.712023586901616E-1  -1.172458066247089E2   2.836127017668382E-3   1.755987035656737E2   2.817062740510573E-3  -1.796503121960904E2   3.308094684398163E-1  -1.643673886651617E2  
 7.180000000000000E10    1.439004709705307E-1  -1.214685901954723E2   2.798691958484083E-3   1.346474785267482E2   2.877794421018748E-3   1.405650057479835E2   3.198628834234199E-1  -1.720985951446980E2  
