#  HZ   S   MA   R     50.00 
! Rohde & Schwarz ZVA67 4Ports - Version 4.11 - 1305.7002k04 SN: 101051
! Date: 2023-09-13 16:55:17
! Measurements: S11 S21 S12 S22 
! 
 6.705000000000000E10    5.072572945092801E-1  -9.805846198520968E1   4.303420565465423E-3  -1.314293908311209E2   4.302707210854961E-3  -1.264477668687870E2   7.438665577405155E-1   1.597349215494440E2  
 6.710000000000000E10    4.939836358504161E-1  -1.330395118402303E2   4.778464005190639E-3  -1.666009572522777E2   4.536648257160810E-3  -1.616739487491447E2   7.315566147512537E-1   1.400846996085594E2  
 6.715000000000000E10    4.563715693259113E-1  -1.708387248215490E2   5.331973902862844E-3   1.568403623396574E2   5.214021445956724E-3   1.598497240430192E2   6.967451206032517E-1   1.193512133387930E2  
 6.720000000000000E10    3.978365751117693E-1   1.462015700345552E2   5.939365804143610E-3   1.168769150559432E2   6.268038187023591E-3   1.199528816881467E2   6.239418814668910E-1   9.671630720106738E1  
 6.725000000000000E10    3.361689487685271E-1   9.462671447653548E1   7.348006278085655E-3   7.007225664890443E1   7.431983672539501E-3   7.504415173166258E1   4.891771393964361E-1   7.034810393960962E1  
 6.730000000000000E10    3.106692139907715E-1   3.489382247455851E1   8.571815616548569E-3   1.925035729779293E1   8.440683537640031E-3   2.437364489507203E1   2.571098118504965E-1   4.069212779961984E1  
 6.735000000000000E10    3.432960911286084E-1  -2.247578165498187E1   8.767477094788388E-3  -3.589778444600849E1   8.856355309692065E-3  -3.073838399819124E1   5.891465405000283E-2   1.577400290990214E2  
 6.740000000000000E10    4.012193267770851E-1  -6.997318589416929E1   8.043843407345262E-3  -8.816294746744578E1   7.842938747626531E-3  -8.230204391547852E1   3.400433949636565E-1   1.404882944054234E2  
 6.745000000000000E10    4.559014270681521E-1  -1.086413835103420E2   6.955722023395028E-3  -1.318584935578344E2   6.708130855510983E-3  -1.282956585959691E2   5.235708114706313E-1   1.105987797974377E2  
 6.750000000000000E10    4.931538980524278E-1  -1.430739820820634E2   5.658998138554408E-3  -1.731245398645109E2   5.887355681741464E-3  -1.683092096859126E2   6.254707496508196E-1   8.407138360819390E1  
 6.755000000000000E10    5.084916187898791E-1  -1.753570639688212E2   5.368344999070565E-3   1.477753551973534E2   5.466695596099492E-3   1.536101542818896E2   6.730647345107058E-1   5.970860806732736E1  
 6.760000000000000E10    5.028554401411437E-1   1.520807912464795E2   5.337093999816437E-3   1.134923248980770E2   5.381343368271885E-3   1.177436756973393E2   6.956443924260916E-1   3.638079751920448E1  
 6.765000000000000E10    4.752438667697154E-1   1.172650990119533E2   5.673435296917736E-3   7.495918850631664E1   5.517511844738421E-3   8.264232010548616E1   6.940309896866497E-1   1.313985234907396E1  
 6.770000000000000E10    4.272349488501639E-1   7.766968130801703E1   6.062696986709719E-3   3.826751355278565E1   6.073991862390990E-3   4.383130873240310E1   6.739120557970115E-1  -1.057594807432882E1  
 6.775000000000000E10    3.714779128021781E-1   3.104884028662186E1   7.020107513227985E-3  -1.816885661541289   6.815131573763557E-3   1.409708935905922   6.324387772302040E-1  -3.583029425583193E1  
 6.780000000000000E10    3.359429738701619E-1  -2.426290786805531E1   7.844633346614772E-3  -4.568354482607861E1   7.917000890113990E-3  -4.243223795248791E1   5.537381571022236E-1  -6.317521707676962E1  
 6.785000000000000E10    3.461932503278076E-1  -8.147914750873078E1   8.738373193846497E-3  -9.242444701247955E1   8.628765131274229E-3  -8.931610172129906E1   4.210100173024883E-1  -9.462451350083023E1  
 6.790000000000000E10    3.828821338249494E-1  -1.314817109704999E2   9.336082542351085E-3  -1.425476354125097E2   9.337517403552509E-3  -1.375167785696568E2   2.127048454305647E-1  -1.336982986410027E2  
 6.795000000000000E10    4.239473346587341E-1  -1.742237831201495E2   9.738560558944658E-3   1.670690586027141E2   9.356636295979942E-3   1.698774496045718E2   7.320095154257611E-2   5.091047779877066E1  
 6.800000000000000E10    4.508454534245467E-1   1.478444538448288E2   8.678110561758171E-3   1.154501797043317E2   8.523432700783859E-3   1.193814688073801E2   3.225361338252764E-1  -9.228327321783789  
 6.805000000000000E10    4.602981530709956E-1   1.119187492156759E2   7.549737404995392E-3   7.093518769215343E1   7.589238682998011E-3   7.456264187800456E1   5.045657130336927E-1  -4.388485354541050E1  
 6.810000000000000E10    4.590832356007891E-1   7.572984740391811E1   6.819635311866815E-3   3.107826917864034E1   6.544326421637879E-3   3.545607194291284E1   6.130320947133316E-1  -7.221429239621811E1  
 6.815000000000000E10    4.484406736190377E-1   3.816031029542594E1   6.276405163982046E-3  -5.707017888542822   6.281356894483086E-3  -3.130731376584313   6.743070496558277E-1  -9.714331352724736E1  
 6.820000000000000E10    4.351326585105483E-1  -2.059922172021605   6.033992391506165E-3  -4.375100374827705E1   5.961969794982614E-3  -4.107076960651143E1   7.052799814156066E-1  -1.195935172961297E2  
 6.825000000000000E10    4.284396321986975E-1  -4.407529096220271E1   5.944193309511227E-3  -8.267566567165679E1   6.194746917051484E-3  -7.892975244336404E1   7.116212226004319E-1  -1.411004369838240E2  
 6.830000000000000E10    4.272162361776020E-1  -8.768067988726887E1   6.629400823944063E-3  -1.178251133439805E2   6.520879330461015E-3  -1.150434684196370E2   6.975543108740658E-1  -1.620055806673900E2  
 6.835000000000000E10    4.282739052645012E-1  -1.315900015346747E2   7.033203549491018E-3  -1.588971274758302E2   7.369028818469368E-3  -1.536344802514001E2   6.557005037733085E-1   1.762038282216558E2  
 6.840000000000000E10    4.252728882095098E-1  -1.748719803173739E2   8.001827244795935E-3   1.593893655251679E2   8.150357712407701E-3   1.644961973975421E2   5.709106276937904E-1   1.530439926962849E2  
 6.845000000000000E10    4.159205311197383E-1   1.419593540356543E2   9.523788910508464E-3   1.128832095810984E2   9.414085255519572E-3   1.175880083634125E2   4.112238677381199E-1   1.272988008429932E2  
 6.850000000000000E10    3.963738390114853E-1   9.805295413166608E1   1.030700945721212E-2   6.171721525143775E1   1.026193051146642E-2   6.696423184154813E1   1.549466270646808E-1   1.074350983223710E2  
 6.855000000000000E10    3.791705479558560E-1   5.272216875928968E1   1.024596436959361E-2   1.047994747368324E1   1.020701345627029E-2   1.262435547090111E1   1.856443420681456E-1  -1.445344157284139E2  
 6.860000000000000E10    3.742189815350396E-1   5.713565229457850   9.012271041579251E-3  -4.236844807662754E1   8.910543117093878E-3  -3.640561317205659E1   4.434041234389527E-1  -1.668232112459642E2  
 6.865000000000000E10    3.899502638423378E-1  -4.020710023492070E1   7.730707644175009E-3  -8.518537160071192E1   7.675702815284397E-3  -8.218370692726253E1   6.014727790618822E-1   1.679339727658413E2  
 6.870000000000000E10    4.221426627610831E-1  -8.304413901145475E1   6.629229671751123E-3  -1.258266742906906E2   6.661988577019940E-3  -1.200719648334719E2   6.836240517182486E-1   1.456845330940969E2  
 6.875000000000000E10    4.604687322630559E-1  -1.218072952154654E2   6.094942297547774E-3  -1.612297384862069E2   6.161050876075253E-3  -1.576983447736858E2   7.235755564288275E-1   1.255920576485870E2  
 6.880000000000000E10    4.927102890427018E-1  -1.576026684894586E2   5.915041805889630E-3   1.640303187519470E2   5.993409108622756E-3   1.682007283722363E2   7.335235448365584E-1   1.065124819858837E2  
 6.885000000000000E10    5.108081602548543E-1   1.682338314205041E2   5.912667785275585E-3   1.288876487547047E2   5.939871131577074E-3   1.330859862079168E2   7.234361031284006E-1   8.767962961147893E1  
 6.890000000000000E10    5.065325654184787E-1   1.342654877052357E2   6.511039558453964E-3   9.322844400375544E1   6.611184070354626E-3   9.701697874489540E1   6.855673934857079E-1   6.783794484109247E1  
 6.895000000000000E10    4.799054107046220E-1   9.856421074952766E1   7.473888456980225E-3   5.436106838080305E1   7.655631859232685E-3   5.827098564177130E1   6.088574140846566E-1   4.608578226353998E1  
 6.900000000000000E10    4.275213463565468E-1   5.888926625232008E1   9.143442969257044E-3   1.040913886176039E1   9.087080260616425E-3   1.449366602745509E1   4.686451358450370E-1   2.192501053533324E1  
 6.905000000000000E10    3.629918760417992E-1   1.242868437180919E1   1.045420854425908E-2  -3.977404929419304E1   1.048359217297256E-2  -3.688832017421922E1   2.346674490504830E-1  -2.314463618462181  
 6.910000000000000E10    3.181262785660589E-1  -4.286742713677685E1   1.080225970990812E-2  -9.461044544749814E1   1.080526225279824E-2  -8.961863792471823E1   9.750873589840529E-2   9.760073632250760E1  
 6.915000000000000E10    3.255818365934083E-1  -1.014477108916993E2   9.700139553240166E-3  -1.458656599675791E2   9.736205492977398E-3  -1.424608588275243E2   3.651354960555924E-1   8.864239684124243E1  
 6.920000000000000E10    3.782624038503081E-1  -1.516881547625246E2   8.224320816210599E-3   1.670692166873872E2   8.290962141884821E-3   1.713270035743967E2   5.438136667113575E-1   6.240061274041059E1  
 6.925000000000000E10    4.394925055838356E-1   1.674361750843739E2   6.971070898834239E-3   1.238112828688668E2   6.981454643728637E-3   1.290139054718809E2   6.432051280420106E-1   3.830458292646733E1  
 6.930000000000000E10    4.899556415482465E-1   1.324667552804158E2   6.149824100894370E-3   8.891803026992456E1   6.047484798200316E-3   9.124821723829780E1   6.910877817215201E-1   1.617319674568486E1  
 6.935000000000000E10    5.214796356261496E-1   1.005715261461451E2   5.872127589044176E-3   5.431088455914612E1   5.790710530669083E-3   5.865487575489046E1   7.064044449982154E-1  -4.722834024783622  
 6.940000000000000E10    5.353663631573238E-1   6.955965605772074E1   5.826398471733701E-3   1.977153719518936E1   5.813490583845972E-3   2.464871101526432E1   7.010822692040524E-1  -2.561473469179478E1  
 6.945000000000000E10    5.320519711604619E-1   3.833323431666720E1   6.265318304226571E-3  -1.547554346616155E1   6.111093178784191E-3  -1.048321434981828E1   6.723206686792618E-1  -4.727811111639444E1  
 6.950000000000000E10    5.060779385733647E-1   4.927521455286064   7.019559406069231E-3  -5.141660063619955E1   6.920438632228019E-3  -4.683053221292548E1   6.125590034501561E-1  -7.033674109657601E1  
 6.955000000000000E10    4.587180333454107E-1  -3.269297366370989E1   8.050250978863291E-3  -9.400627470680689E1   8.025489614786363E-3  -8.890667252642135E1   5.060853354223661E-1  -9.604982743687856E1  
 6.960000000000000E10    3.956431945450551E-1  -7.611425583806238E1   9.449494016390392E-3  -1.394960880059216E2   9.480516816102853E-3  -1.349564674895859E2   3.289947812371224E-1  -1.255996769387593E2  
 6.965000000000000E10    3.385229265914739E-1  -1.276670371962414E2   1.029111178704984E-2   1.690236241880874E2   1.042921914615569E-2   1.737872883075308E2   7.085076897602356E-2  -1.605453094906969E2  
 6.970000000000000E10    3.179580159709258E-1   1.739914635099781E2   1.012455992599500E-2   1.164766231611584E2   1.004995731790370E-2   1.214362856808015E2   2.115074521797312E-1  -1.267083818288058E1  
 6.975000000000000E10    3.445945328173550E-1   1.187310125333731E2   8.782115858337262E-3   6.776125914840381E1   8.812685192994909E-3   7.252919927691282E1   4.352966967228205E-1  -4.525020982704496E1  
 6.980000000000000E10    3.947303096919889E-1   7.198236604958441E1   7.581797602151625E-3   2.310322086900256E1   7.488203968724763E-3   2.861160733438851E1   5.747697288950980E-1  -7.303433601255432E1  
 6.985000000000000E10    4.451976793041769E-1   3.223646044705254E1   6.752993778428806E-3  -1.672191433743366E1   6.535483387781814E-3  -1.194110302951953E1   6.513385233481697E-1  -9.749415544134330E1  
 6.990000000000000E10    4.850299170006306E-1  -3.132175803472030   5.884203466546504E-3  -5.176864393742084E1   5.973533451660957E-3  -4.736794328173650E1   6.869322971868160E-1  -1.199454030579371E2  
 6.995000000000000E10    5.153695245434118E-1  -3.603283064104547E1   5.725975456696800E-3  -8.787770070752798E1   5.859035446853797E-3  -8.392594699065680E1   6.961289384036064E-1  -1.414676039755838E2  
 7.000000000000000E10    5.304671077868046E-1  -6.796114227552558E1   5.842405274348669E-3  -1.213105809386401E2   5.940453702217080E-3  -1.151293097891030E2   6.809694062825754E-1  -1.627738786845139E2  
 7.005000000000000E10    5.280349467953789E-1  -9.992931859131699E1   6.521795716078417E-3  -1.552400885880054E2   6.343744564360227E-3  -1.512073623815801E2   6.404858368203344E-1   1.749192770752112E2  
 7.010000000000000E10    5.094113238164628E-1  -1.331655276965226E2   7.223523340155439E-3   1.651108258720931E2   7.245741343155501E-3   1.708799415670364E2   5.609031059964373E-1   1.506582964010925E2  
 7.015000000000000E10    4.672675565898012E-1  -1.691511380601406E2   8.364743107135255E-3   1.225592936089746E2   8.507074033711894E-3   1.276110393513626E2   4.256884316396347E-1   1.227210272144396E2  
 7.020000000000000E10    4.004084625993475E-1   1.496833832908767E2   9.741455941620370E-3   7.747319038660001E1   9.815831174927254E-3   8.076934832215778E1   2.140829832320573E-1   8.787975338005255E1  
 7.025000000000000E10    3.261772898667408E-1   9.956079527612759E1   1.040406399410003E-2   2.552916887011455E1   1.040897347443036E-2   2.996337055256817E1   6.661976247905822E-2  -8.882344327954807E1  
 7.030000000000000E10    2.812798401089802E-1   3.787495862689165E1   9.762421325380157E-3  -2.723874343221240E1   9.972762535612459E-3  -2.239053673186284E1   3.160152714682789E-1  -1.446649152590288E2  
 7.035000000000000E10    3.107639426046394E-1  -2.469160817251871E1   8.746771876111616E-3  -7.583736719927606E1   8.766156318050819E-3  -6.974029171874440E1   4.973002329042758E-1  -1.763567527389895E2  
 7.040000000000000E10    3.826278089713808E-1  -7.435014056114282E1   7.534571488057446E-3  -1.168370299062415E2   7.447374053120671E-3  -1.128783934504588E2   6.046815199533682E-1   1.568574304521238E2  
 7.045000000000000E10    4.552599411829908E-1  -1.136863862340888E2   6.345749466111159E-3  -1.559807062792653E2   6.509344161399466E-3  -1.505495639678501E2   6.609362814550017E-1   1.332455835313146E2  
 7.050000000000000E10    5.116904672022081E-1  -1.468300108322824E2   5.884844932929112E-3   1.687193151827102E2   6.127230988608893E-3   1.735051946028654E2   6.836300596161032E-1   1.110883104777681E2  
 7.055000000000000E10    5.461187249883654E-1  -1.768167868005633E2   5.803246334265522E-3   1.337274221079147E2   5.841530942579787E-3   1.387451390000843E2   6.782149185450731E-1   8.923841260765440E1  
 7.060000000000000E10    5.608738128797867E-1   1.545538507102210E2   6.085796670558160E-3   9.850232855418513E1   5.970568289043346E-3   1.054845991673591E2   6.499035883446449E-1   6.664634684258164E1  
 7.065000000000000E10    5.532790047671831E-1   1.258458523809906E2   6.614312179529453E-3   6.387319425637145E1   6.597314608405490E-3   6.923093206889352E1   5.861992194628428E-1   4.228939213265075E1  
 7.070000000000000E10    5.208746681382527E-1   9.529720933814279E1   7.606897157863096E-3   2.444168367320661E1   7.679649079115891E-3   3.076649050585850E1   4.765399241418791E-1   1.422270810996249E1  
 7.075000000000000E10    4.566702385952089E-1   6.114471435429962E1   8.701134626594198E-3  -1.824818970136614E1   8.792326663656582E-3  -1.311621890753625E1   3.068248464181462E-1  -2.100693723826981E1  
 7.080000000000000E10    3.636743873633542E-1   1.943145500778491E1   9.901308140786861E-3  -6.554482805437998E1   9.917457660610467E-3  -6.179607689796552E1   1.049691982303474E-1  -9.168046091494631E1  
 7.085000000000000E10    2.694049764908664E-1  -3.784517581980806E1   1.032638095474665E-2  -1.177561957413760E2   1.001253041745488E-2  -1.124652311870419E2   2.046854182207178E-1   1.334574614200134E2  
 7.090000000000000E10    2.500592515002730E-1  -1.112759593652253E2   9.322976118113936E-3  -1.666976289333040E2   9.508124048378237E-3  -1.622168704246383E2   3.970378856311111E-1   8.982001153634630E1  
 7.095000000000000E10    3.260394175145032E-1  -1.725879158064556E2   8.156530796322481E-3   1.465242125572769E2   8.283641637730953E-3   1.515799399003482E2   5.280513896191920E-1   5.807969174820092E1  
 7.100000000000000E10    4.157078508059852E-1   1.435467528414276E2   7.264658358682808E-3   1.059277309522999E2   7.271780350888446E-3   1.115252345014050E2   6.060531991449402E-1   3.048946853520567E1  
 7.105000000000000E10    4.859093174133032E-1   1.087606689247925E2   6.444556935712626E-3   6.809680738514707E1   6.521205424333231E-3   7.443224203675794E1   6.461721663600766E-1   5.381063441309233  
 7.110000000000000E10    5.281010920026075E-1   7.791849002276031E1   6.297967815707531E-3   3.261679759669416E1   6.130602864245565E-3   3.744703575501974E1   6.570309231287422E-1  -1.877622004113241E1  
 7.115000000000000E10    5.487614887943971E-1   4.898820415241511E1   5.899335059674097E-3  -1.872590616206359   6.046784334648285E-3   2.901731541633057   6.428416415734763E-1  -4.335761605719470E1  
 7.120000000000000E10    5.490884035179217E-1   2.020491182152908E1   6.214007310462065E-3  -3.565077351165618E1   6.341546777638828E-3  -3.157388570166630E1   6.056723061737185E-1  -6.868788265731007E1  
 7.125000000000000E10    5.297787429892431E-1  -9.466113497879672   7.007906315789809E-3  -7.277825483773975E1   6.903701751739840E-3  -6.766099612425698E1   5.347919430003493E-1  -9.635710388817131E1  
 7.130000000000000E10    4.846643451119347E-1  -4.189642493202099E1   8.076908669949709E-3  -1.135778641279828E2   7.854735155775106E-3  -1.087561621130372E2   4.236937965085278E-1  -1.283464263817190E2  
 7.135000000000000E10    4.163058609355148E-1  -7.900966583300524E1   9.012513376414325E-3  -1.569882278840277E2   9.051047501185917E-3  -1.534788265857479E2   2.640972591680781E-1  -1.701663760246680E2  
 7.140000000000000E10    3.280381562830049E-1  -1.252641488103660E2   9.897112600430656E-3   1.539362680327898E2   9.812859477077367E-3   1.579693774239180E2   1.231251009114571E-1   1.015724250098636E2  
 7.145000000000000E10    2.579628204437915E-1   1.738213132484616E2   9.818749449797770E-3   1.036293747828549E2   9.855442660002755E-3   1.089515557306688E2   2.424570174917100E-1   1.040513308206659  
 7.150000000000000E10    2.662320151221929E-1   1.040721925640033E2   8.982701552273365E-3   5.630611752357171E1   8.984123213297503E-3   6.065993035149563E1   4.120506568199198E-1  -4.320558063049447E1  
 7.155000000000000E10    3.416027444087694E-1   4.784252946274427E1   8.114984052617912E-3   1.065930681184637E1   7.863622237265708E-3   1.663400899836131E1   5.342819493576247E-1  -7.539281773195879E1  
 7.160000000000000E10    4.226946078870504E-1   5.501031724082538   7.031381347811593E-3  -3.018193860066555E1   7.023412742492000E-3  -2.444107858731485E1   6.107504770203825E-1  -1.027302990814081E2  
 7.165000000000000E10    4.854977461374737E-1  -2.971841244735753E1   6.260264007988551E-3  -6.636864095793588E1   6.172613577273352E-3  -6.097198713751241E1   6.499357979205521E-1  -1.274144969937726E2  
 7.170000000000000E10    5.266888892524575E-1  -6.079381633203129E1   5.757476109784298E-3  -1.010202538463533E2   5.777421751260193E-3  -9.625556335219685E1   6.628150198208974E-1  -1.507130192907907E2  
 7.175000000000000E10    5.492628652221038E-1  -8.989755329643194E1   6.024358247116191E-3  -1.357482149396681E2   5.945626150272457E-3  -1.300251382858775E2   6.488319721908895E-1  -1.739493690936184E2  
 7.180000000000000E10    5.528873838337021E-1  -1.184143266839387E2   6.367637068216693E-3  -1.698817664990681E2   6.331664390145914E-3  -1.632162380409857E2   6.044677355391241E-1   1.619357381390207E2  
