!Agilent Technologies,E5071C,MY46105125,A.08.12
!Date: Tue Sep 16 09:35:54 2014
!Data & Calibration Information:
!Freq	S11:SOLT1(ON)
# Hz S RI R 50
2000000000	4.815570e-001	5.492654e-001
2001250000	4.831682e-001	5.463535e-001
2002500000	4.842969e-001	5.427567e-001
2003750000	4.855750e-001	5.394059e-001
2005000000	4.870967e-001	5.366506e-001
2006250000	4.881688e-001	5.334916e-001
2007500000	4.897235e-001	5.300258e-001
2008750000	4.908977e-001	5.267494e-001
2010000000	4.924296e-001	5.233675e-001
2011250000	4.936205e-001	5.199232e-001
2012500000	4.954875e-001	5.169759e-001
2013750000	4.972756e-001	5.134210e-001
2015000000	4.984263e-001	5.099975e-001
2016250000	5.000246e-001	5.063776e-001
2017500000	5.011090e-001	5.023904e-001
2018750000	5.024730e-001	4.989140e-001
2020000000	5.036023e-001	4.950744e-001
2021250000	5.049407e-001	4.917032e-001
2022500000	5.062070e-001	4.879569e-001
2023750000	5.073288e-001	4.839905e-001
2025000000	5.087768e-001	4.799177e-001
2026250000	5.100051e-001	4.765297e-001
2027500000	5.109818e-001	4.725967e-001
2028750000	5.123810e-001	4.690176e-001
2030000000	5.131900e-001	4.650376e-001
2031250000	5.138775e-001	4.610944e-001
2032500000	5.143953e-001	4.574867e-001
2033750000	5.155796e-001	4.532491e-001
2035000000	5.162561e-001	4.501925e-001
2036250000	5.168924e-001	4.461312e-001
2037500000	5.178358e-001	4.424651e-001
2038750000	5.186315e-001	4.389729e-001
2040000000	5.198124e-001	4.350809e-001
2041250000	5.212466e-001	4.315681e-001
2042500000	5.215668e-001	4.277829e-001
2043750000	5.224688e-001	4.236906e-001
2045000000	5.231558e-001	4.204351e-001
2046250000	5.243990e-001	4.162987e-001
2047500000	5.246660e-001	4.130830e-001
2048750000	5.257401e-001	4.096133e-001
2050000000	5.266902e-001	4.059451e-001
2051250000	5.274187e-001	4.027025e-001
2052500000	5.286334e-001	3.989796e-001
2053750000	5.300016e-001	3.948427e-001
2055000000	5.310497e-001	3.914605e-001
2056250000	5.321923e-001	3.877358e-001
2057500000	5.330424e-001	3.833954e-001
2058750000	5.339823e-001	3.792376e-001
2060000000	5.347286e-001	3.755283e-001
2061250000	5.353290e-001	3.714397e-001
2062500000	5.360905e-001	3.675820e-001
2063750000	5.367858e-001	3.644228e-001
2065000000	5.372940e-001	3.607229e-001
2066250000	5.387309e-001	3.566464e-001
2067500000	5.396164e-001	3.528392e-001
2068750000	5.404477e-001	3.483035e-001
2070000000	5.413505e-001	3.442737e-001
2071250000	5.419384e-001	3.401597e-001
2072500000	5.426497e-001	3.362357e-001
2073750000	5.430521e-001	3.323598e-001
2075000000	5.437826e-001	3.284056e-001
2076250000	5.446975e-001	3.246841e-001
2077500000	5.450093e-001	3.198774e-001
2078750000	5.457414e-001	3.161302e-001
2080000000	5.460700e-001	3.116169e-001
2081250000	5.467777e-001	3.073820e-001
2082500000	5.464799e-001	3.034324e-001
2083750000	5.475700e-001	2.996602e-001
2085000000	5.479570e-001	2.952521e-001
2086250000	5.484075e-001	2.914590e-001
2087500000	5.486814e-001	2.867035e-001
2088750000	5.494056e-001	2.827768e-001
2090000000	5.494677e-001	2.777731e-001
2091250000	5.494077e-001	2.731289e-001
2092500000	5.488842e-001	2.686520e-001
2093750000	5.482974e-001	2.642097e-001
2095000000	5.482238e-001	2.602772e-001
2096250000	5.470348e-001	2.561492e-001
2097500000	5.466443e-001	2.520534e-001
2098750000	5.466574e-001	2.485621e-001
2100000000	5.464666e-001	2.443055e-001
2101250000	5.463362e-001	2.409532e-001
2102500000	5.460505e-001	2.370212e-001
2103750000	5.458821e-001	2.332325e-001
2105000000	5.457862e-001	2.296477e-001
2106250000	5.456671e-001	2.254272e-001
2107500000	5.457473e-001	2.215293e-001
2108750000	5.459077e-001	2.171768e-001
2110000000	5.461428e-001	2.132475e-001
2111250000	5.462579e-001	2.088846e-001
2112500000	5.466183e-001	2.048181e-001
2113750000	5.467156e-001	2.003539e-001
2115000000	5.460677e-001	1.953972e-001
2116250000	5.460181e-001	1.903798e-001
2117500000	5.462231e-001	1.855473e-001
2118750000	5.452157e-001	1.808098e-001
2120000000	5.441366e-001	1.758501e-001
2121250000	5.429930e-001	1.709921e-001
2122500000	5.421345e-001	1.670468e-001
2123750000	5.409398e-001	1.620383e-001
2125000000	5.400388e-001	1.580159e-001
2126250000	5.391443e-001	1.541705e-001
2127500000	5.381627e-001	1.499736e-001
2128750000	5.377385e-001	1.457630e-001
2130000000	5.372702e-001	1.416374e-001
2131250000	5.365764e-001	1.375957e-001
2132500000	5.359153e-001	1.328686e-001
2133750000	5.349750e-001	1.282601e-001
2135000000	5.344587e-001	1.239581e-001
2136250000	5.338622e-001	1.193469e-001
2137500000	5.324766e-001	1.145615e-001
2138750000	5.314460e-001	1.097605e-001
2140000000	5.309277e-001	1.054954e-001
2141250000	5.299657e-001	1.011325e-001
2142500000	5.290526e-001	9.659014e-002
2143750000	5.277964e-001	9.205168e-002
2145000000	5.272841e-001	8.759692e-002
2146250000	5.261174e-001	8.253533e-002
2147500000	5.254638e-001	7.821896e-002
2148750000	5.246738e-001	7.356159e-002
2150000000	5.240532e-001	6.839618e-002
2151250000	5.229965e-001	6.354295e-002
2152500000	5.220216e-001	5.796785e-002
2153750000	5.203761e-001	5.268214e-002
2155000000	5.191874e-001	4.777303e-002
2156250000	5.168340e-001	4.293888e-002
2157500000	5.147415e-001	3.818938e-002
2158750000	5.130405e-001	3.312404e-002
2160000000	5.111835e-001	2.806864e-002
2161250000	5.093446e-001	2.396010e-002
2162500000	5.076243e-001	1.946617e-002
2163750000	5.063649e-001	1.523331e-002
2165000000	5.045853e-001	9.986897e-003
2166250000	5.031463e-001	5.723877e-003
2167500000	5.009381e-001	1.333136e-003
2168750000	4.998467e-001	-4.174363e-003
2170000000	4.980069e-001	-8.341788e-003
2171250000	4.956690e-001	-1.315009e-002
2172500000	4.943887e-001	-1.729507e-002
2173750000	4.920615e-001	-2.231699e-002
2175000000	4.906138e-001	-2.735475e-002
2176250000	4.882324e-001	-3.180714e-002
2177500000	4.859390e-001	-3.669632e-002
2178750000	4.835535e-001	-4.175428e-002
2180000000	4.812181e-001	-4.674563e-002
2181250000	4.783901e-001	-5.055871e-002
2182500000	4.753172e-001	-5.500518e-002
2183750000	4.725653e-001	-5.967672e-002
2185000000	4.702808e-001	-6.333712e-002
2186250000	4.675019e-001	-6.740051e-002
2187500000	4.652322e-001	-7.130229e-002
2188750000	4.626787e-001	-7.533435e-002
2190000000	4.605729e-001	-7.894216e-002
2191250000	4.587727e-001	-8.298825e-002
2192500000	4.563435e-001	-8.709326e-002
2193750000	4.541272e-001	-9.157050e-002
2195000000	4.518522e-001	-9.600606e-002
2196250000	4.496082e-001	-1.001550e-001
2197500000	4.471676e-001	-1.044064e-001
2198750000	4.447144e-001	-1.086846e-001
2200000000	4.421611e-001	-1.134044e-001
2201250000	4.396136e-001	-1.176205e-001
2202500000	4.366305e-001	-1.222605e-001
2203750000	4.344547e-001	-1.265810e-001
2205000000	4.310298e-001	-1.309298e-001
2206250000	4.286765e-001	-1.351372e-001
2207500000	4.255087e-001	-1.397151e-001
2208750000	4.223020e-001	-1.440427e-001
2210000000	4.195726e-001	-1.487440e-001
2211250000	4.159533e-001	-1.533075e-001
2212500000	4.127837e-001	-1.573825e-001
2213750000	4.094277e-001	-1.617974e-001
2215000000	4.064898e-001	-1.656945e-001
2216250000	4.023652e-001	-1.701110e-001
2217500000	3.993661e-001	-1.745329e-001
2218750000	3.957937e-001	-1.786968e-001
2220000000	3.921256e-001	-1.830115e-001
2221250000	3.887811e-001	-1.864591e-001
2222500000	3.854737e-001	-1.906019e-001
2223750000	3.818852e-001	-1.948957e-001
2225000000	3.785657e-001	-1.989198e-001
2226250000	3.751765e-001	-2.037608e-001
2227500000	3.715957e-001	-2.081102e-001
2228750000	3.675599e-001	-2.128622e-001
2230000000	3.633561e-001	-2.165685e-001
2231250000	3.591798e-001	-2.210759e-001
2232500000	3.545341e-001	-2.252185e-001
2233750000	3.505977e-001	-2.291219e-001
2235000000	3.468580e-001	-2.331638e-001
2236250000	3.424209e-001	-2.371289e-001
2237500000	3.377334e-001	-2.421128e-001
2238750000	3.330378e-001	-2.458686e-001
2240000000	3.280615e-001	-2.498157e-001
2241250000	3.230134e-001	-2.534922e-001
2242500000	3.186874e-001	-2.568778e-001
2243750000	3.131923e-001	-2.600307e-001
2245000000	3.083620e-001	-2.631430e-001
2246250000	3.034938e-001	-2.661875e-001
2247500000	2.989617e-001	-2.693271e-001
2248750000	2.947037e-001	-2.723798e-001
2250000000	2.897065e-001	-2.756092e-001
2251250000	2.852248e-001	-2.784697e-001
2252500000	2.813001e-001	-2.814570e-001
2253750000	2.765231e-001	-2.846205e-001
2255000000	2.721627e-001	-2.876589e-001
2256250000	2.677115e-001	-2.905928e-001
2257500000	2.628691e-001	-2.932114e-001
2258750000	2.587619e-001	-2.961452e-001
2260000000	2.545998e-001	-2.985763e-001
2261250000	2.503621e-001	-3.016660e-001
2262500000	2.466417e-001	-3.046129e-001
2263750000	2.428453e-001	-3.075915e-001
2265000000	2.384600e-001	-3.110789e-001
2266250000	2.346670e-001	-3.145823e-001
2267500000	2.301856e-001	-3.187894e-001
2268750000	2.256666e-001	-3.223452e-001
2270000000	2.208595e-001	-3.260011e-001
2271250000	2.159146e-001	-3.297472e-001
2272500000	2.111152e-001	-3.330424e-001
2273750000	2.056782e-001	-3.370795e-001
2275000000	2.006148e-001	-3.401025e-001
2276250000	1.951189e-001	-3.434814e-001
2277500000	1.898183e-001	-3.470323e-001
2278750000	1.842362e-001	-3.497982e-001
2280000000	1.785536e-001	-3.530208e-001
2281250000	1.723734e-001	-3.558690e-001
2282500000	1.662991e-001	-3.589166e-001
2283750000	1.607646e-001	-3.612956e-001
2285000000	1.544274e-001	-3.638304e-001
2286250000	1.482387e-001	-3.658203e-001
2287500000	1.426199e-001	-3.677908e-001
2288750000	1.372209e-001	-3.697238e-001
2290000000	1.316180e-001	-3.716186e-001
2291250000	1.259471e-001	-3.735841e-001
2292500000	1.199426e-001	-3.755993e-001
2293750000	1.145148e-001	-3.778108e-001
2295000000	1.085167e-001	-3.793561e-001
2296250000	1.029125e-001	-3.811931e-001
2297500000	9.662676e-002	-3.822897e-001
2298750000	9.077756e-002	-3.833781e-001
2300000000	8.507478e-002	-3.845949e-001
2301250000	7.994236e-002	-3.858544e-001
2302500000	7.439109e-002	-3.873753e-001
2303750000	6.935517e-002	-3.890466e-001
2305000000	6.422556e-002	-3.906658e-001
2306250000	5.875490e-002	-3.928358e-001
2307500000	5.349690e-002	-3.947173e-001
2308750000	4.744685e-002	-3.970316e-001
2310000000	4.069050e-002	-3.983879e-001
2311250000	3.417697e-002	-3.997069e-001
2312500000	2.738767e-002	-4.003935e-001
2313750000	2.135775e-002	-4.012761e-001
2315000000	1.555395e-002	-4.021561e-001
2316250000	1.013776e-002	-4.026405e-001
2317500000	4.605103e-003	-4.036862e-001
2318750000	-1.166010e-003	-4.041660e-001
2320000000	-5.939856e-003	-4.052121e-001
2321250000	-1.246192e-002	-4.071054e-001
2322500000	-1.800032e-002	-4.082991e-001
2323750000	-2.400448e-002	-4.089774e-001
2325000000	-3.013168e-002	-4.102275e-001
2326250000	-3.744255e-002	-4.110570e-001
2327500000	-4.308025e-002	-4.117632e-001
2328750000	-4.996956e-002	-4.125447e-001
2330000000	-5.669392e-002	-4.130053e-001
2331250000	-6.278439e-002	-4.133388e-001
2332500000	-6.913344e-002	-4.136287e-001
2333750000	-7.621287e-002	-4.134072e-001
2335000000	-8.222028e-002	-4.135530e-001
2336250000	-8.903085e-002	-4.136607e-001
2337500000	-9.542852e-002	-4.133344e-001
2338750000	-1.021904e-001	-4.124559e-001
2340000000	-1.080359e-001	-4.120658e-001
2341250000	-1.136338e-001	-4.112994e-001
2342500000	-1.195178e-001	-4.114603e-001
2343750000	-1.255036e-001	-4.108836e-001
2345000000	-1.307510e-001	-4.105163e-001
2346250000	-1.371266e-001	-4.102460e-001
2347500000	-1.432578e-001	-4.106454e-001
2348750000	-1.491237e-001	-4.100502e-001
2350000000	-1.555445e-001	-4.096607e-001
2351250000	-1.610563e-001	-4.087051e-001
2352500000	-1.668823e-001	-4.085373e-001
2353750000	-1.725568e-001	-4.083298e-001
2355000000	-1.788778e-001	-4.084020e-001
2356250000	-1.855182e-001	-4.087853e-001
2357500000	-1.917134e-001	-4.081723e-001
2358750000	-1.984855e-001	-4.077075e-001
2360000000	-2.050032e-001	-4.071293e-001
2361250000	-2.121080e-001	-4.059741e-001
2362500000	-2.191732e-001	-4.050255e-001
2363750000	-2.256431e-001	-4.036868e-001
2365000000	-2.321547e-001	-4.020620e-001
2366250000	-2.385126e-001	-4.008886e-001
2367500000	-2.451989e-001	-3.994656e-001
2368750000	-2.516367e-001	-3.975292e-001
2370000000	-2.584985e-001	-3.958615e-001
2371250000	-2.647798e-001	-3.932610e-001
2372500000	-2.710664e-001	-3.911332e-001
2373750000	-2.764158e-001	-3.890311e-001
2375000000	-2.820823e-001	-3.866100e-001
2376250000	-2.874026e-001	-3.844144e-001
2377500000	-2.927169e-001	-3.820270e-001
2378750000	-2.983214e-001	-3.801116e-001
2380000000	-3.036147e-001	-3.780794e-001
2381250000	-3.098214e-001	-3.761772e-001
2382500000	-3.152462e-001	-3.741472e-001
2383750000	-3.208566e-001	-3.715944e-001
2385000000	-3.256412e-001	-3.688380e-001
2386250000	-3.312021e-001	-3.667888e-001
2387500000	-3.360512e-001	-3.643459e-001
2388750000	-3.411934e-001	-3.625258e-001
2390000000	-3.464203e-001	-3.605418e-001
2391250000	-3.514084e-001	-3.579252e-001
2392500000	-3.573719e-001	-3.561850e-001
2393750000	-3.628117e-001	-3.539327e-001
2395000000	-3.678636e-001	-3.509777e-001
2396250000	-3.733665e-001	-3.486807e-001
2397500000	-3.790571e-001	-3.460104e-001
2398750000	-3.845352e-001	-3.431489e-001
2400000000	-3.894656e-001	-3.405633e-001
2401250000	-3.950072e-001	-3.380378e-001
2402500000	-3.996310e-001	-3.344277e-001
2403750000	-4.047345e-001	-3.315296e-001
2405000000	-4.096456e-001	-3.291421e-001
2406250000	-4.142463e-001	-3.260846e-001
2407500000	-4.195433e-001	-3.237341e-001
2408750000	-4.245485e-001	-3.209625e-001
2410000000	-4.299393e-001	-3.179117e-001
2411250000	-4.351178e-001	-3.151805e-001
2412500000	-4.398674e-001	-3.125405e-001
2413750000	-4.449996e-001	-3.092273e-001
2415000000	-4.503881e-001	-3.061649e-001
2416250000	-4.556829e-001	-3.025549e-001
2417500000	-4.607910e-001	-2.988205e-001
2418750000	-4.657255e-001	-2.952333e-001
2420000000	-4.710061e-001	-2.917017e-001
2421250000	-4.757600e-001	-2.884951e-001
2422500000	-4.811710e-001	-2.847174e-001
2423750000	-4.864348e-001	-2.804718e-001
2425000000	-4.914436e-001	-2.765466e-001
2426250000	-4.960306e-001	-2.720585e-001
2427500000	-5.009467e-001	-2.680092e-001
2428750000	-5.057383e-001	-2.629472e-001
2430000000	-5.101003e-001	-2.581386e-001
2431250000	-5.142056e-001	-2.532166e-001
2432500000	-5.173735e-001	-2.488083e-001
2433750000	-5.209303e-001	-2.444765e-001
2435000000	-5.244009e-001	-2.404308e-001
2436250000	-5.287411e-001	-2.365523e-001
2437500000	-5.322338e-001	-2.320695e-001
2438750000	-5.358392e-001	-2.277247e-001
2440000000	-5.397116e-001	-2.235913e-001
2441250000	-5.430491e-001	-2.191629e-001
2442500000	-5.465752e-001	-2.148428e-001
2443750000	-5.494775e-001	-2.111504e-001
2445000000	-5.532438e-001	-2.067460e-001
2446250000	-5.561445e-001	-2.023699e-001
2447500000	-5.593015e-001	-1.992625e-001
2448750000	-5.620198e-001	-1.948390e-001
2450000000	-5.661581e-001	-1.912949e-001
2451250000	-5.694422e-001	-1.883201e-001
2452500000	-5.733095e-001	-1.845187e-001
2453750000	-5.767091e-001	-1.808737e-001
2455000000	-5.810339e-001	-1.767605e-001
2456250000	-5.848145e-001	-1.713308e-001
2457500000	-5.880568e-001	-1.675361e-001
2458750000	-5.914276e-001	-1.633170e-001
2460000000	-5.951517e-001	-1.591416e-001
2461250000	-5.981931e-001	-1.552525e-001
2462500000	-6.022893e-001	-1.514492e-001
2463750000	-6.063084e-001	-1.469191e-001
2465000000	-6.100398e-001	-1.421061e-001
2466250000	-6.138331e-001	-1.376019e-001
2467500000	-6.173327e-001	-1.313553e-001
2468750000	-6.198020e-001	-1.265426e-001
2470000000	-6.221931e-001	-1.211727e-001
2471250000	-6.252267e-001	-1.158062e-001
2472500000	-6.270455e-001	-1.109403e-001
2473750000	-6.296843e-001	-1.066024e-001
2475000000	-6.309588e-001	-1.024267e-001
2476250000	-6.335688e-001	-9.839768e-002
2477500000	-6.362562e-001	-9.403101e-002
2478750000	-6.384715e-001	-8.979622e-002
2480000000	-6.413199e-001	-8.603696e-002
2481250000	-6.441464e-001	-8.098428e-002
2482500000	-6.467922e-001	-7.568882e-002
2483750000	-6.494189e-001	-7.132536e-002
2485000000	-6.519572e-001	-6.646838e-002
2486250000	-6.539808e-001	-6.111722e-002
2487500000	-6.562979e-001	-5.626574e-002
2488750000	-6.576110e-001	-5.184671e-002
2490000000	-6.589343e-001	-4.649426e-002
2491250000	-6.613075e-001	-4.249624e-002
2492500000	-6.625032e-001	-3.683628e-002
2493750000	-6.643211e-001	-3.213842e-002
2495000000	-6.653175e-001	-2.732435e-002
2496250000	-6.664123e-001	-2.270974e-002
2497500000	-6.681478e-001	-1.763153e-002
2498750000	-6.690258e-001	-1.349744e-002
2500000000	-6.703602e-001	-9.604842e-003
2501250000	-6.716145e-001	-5.432810e-003
2502500000	-6.726302e-001	-1.610057e-003
2503750000	-6.742542e-001	2.841877e-003
2505000000	-6.755995e-001	7.278478e-003
2506250000	-6.772351e-001	1.029156e-002
2507500000	-6.789547e-001	1.421061e-002
2508750000	-6.807727e-001	1.800628e-002
2510000000	-6.829908e-001	2.343573e-002
2511250000	-6.847383e-001	2.661181e-002
2512500000	-6.870558e-001	3.217374e-002
2513750000	-6.894348e-001	3.702515e-002
2515000000	-6.912512e-001	4.205256e-002
2516250000	-6.913631e-001	4.727002e-002
2517500000	-6.930296e-001	5.220576e-002
2518750000	-6.940560e-001	5.762041e-002
2520000000	-6.946260e-001	6.156874e-002
2521250000	-6.957525e-001	6.667810e-002
2522500000	-6.966181e-001	7.077135e-002
2523750000	-6.976707e-001	7.704238e-002
2525000000	-6.990739e-001	8.149147e-002
2526250000	-6.994255e-001	8.638355e-002
2527500000	-6.995980e-001	9.147899e-002
2528750000	-6.996108e-001	9.578778e-002
2530000000	-7.005254e-001	1.004884e-001
2531250000	-7.006155e-001	1.048944e-001
2532500000	-7.010173e-001	1.096500e-001
2533750000	-7.017673e-001	1.146489e-001
2535000000	-7.016272e-001	1.184636e-001
2536250000	-7.020599e-001	1.232886e-001
2537500000	-7.031212e-001	1.268710e-001
2538750000	-7.033613e-001	1.315854e-001
2540000000	-7.041960e-001	1.364419e-001
2541250000	-7.042060e-001	1.410613e-001
2542500000	-7.049075e-001	1.460887e-001
2543750000	-7.052736e-001	1.504353e-001
2545000000	-7.056754e-001	1.553827e-001
2546250000	-7.051389e-001	1.597869e-001
2547500000	-7.046800e-001	1.643878e-001
2548750000	-7.043312e-001	1.680001e-001
2550000000	-7.042250e-001	1.721822e-001
2551250000	-7.048957e-001	1.763137e-001
2552500000	-7.050065e-001	1.797036e-001
2553750000	-7.051696e-001	1.842734e-001
2555000000	-7.057325e-001	1.891352e-001
2556250000	-7.053603e-001	1.935070e-001
2557500000	-7.056171e-001	1.984780e-001
2558750000	-7.059080e-001	2.029855e-001
2560000000	-7.050508e-001	2.080811e-001
2561250000	-7.042817e-001	2.127851e-001
2562500000	-7.027936e-001	2.166288e-001
2563750000	-7.018614e-001	2.203697e-001
2565000000	-7.013767e-001	2.239075e-001
2566250000	-7.011601e-001	2.277769e-001
2567500000	-7.004473e-001	2.304884e-001
2568750000	-6.996527e-001	2.345646e-001
2570000000	-6.996327e-001	2.378802e-001
2571250000	-6.995154e-001	2.411286e-001
2572500000	-7.002131e-001	2.450661e-001
2573750000	-7.000877e-001	2.485209e-001
2575000000	-6.998420e-001	2.519657e-001
2576250000	-6.994173e-001	2.557754e-001
2577500000	-6.994952e-001	2.592373e-001
2578750000	-6.995714e-001	2.622409e-001
2580000000	-6.998413e-001	2.657391e-001
2581250000	-7.002817e-001	2.696106e-001
2582500000	-7.005111e-001	2.731354e-001
2583750000	-7.009163e-001	2.775665e-001
2585000000	-7.014757e-001	2.820385e-001
2586250000	-7.010987e-001	2.868920e-001
2587500000	-7.004090e-001	2.911541e-001
2588750000	-6.994927e-001	2.961633e-001
2590000000	-6.991705e-001	2.999855e-001
2591250000	-6.975903e-001	3.050081e-001
2592500000	-6.964186e-001	3.081358e-001
2593750000	-6.957087e-001	3.127518e-001
2595000000	-6.946070e-001	3.158827e-001
2596250000	-6.938886e-001	3.198011e-001
2597500000	-6.923183e-001	3.233550e-001
2598750000	-6.912515e-001	3.277717e-001
2600000000	-6.908055e-001	3.311053e-001
2601250000	-6.893607e-001	3.350709e-001
2602500000	-6.878868e-001	3.386796e-001
2603750000	-6.861965e-001	3.423664e-001
2605000000	-6.852639e-001	3.452827e-001
2606250000	-6.838050e-001	3.485897e-001
2607500000	-6.828276e-001	3.523612e-001
2608750000	-6.817564e-001	3.550548e-001
2610000000	-6.806941e-001	3.587789e-001
2611250000	-6.800192e-001	3.618935e-001
2612500000	-6.786323e-001	3.653140e-001
2613750000	-6.773314e-001	3.687345e-001
2615000000	-6.761972e-001	3.720074e-001
2616250000	-6.749107e-001	3.754188e-001
2617500000	-6.736783e-001	3.792311e-001
