#  HZ   S   MA   R     50.00 
! Rohde & Schwarz ZVA67 4Ports - Version 4.11 - 1305.7002k04 SN: 101051
! Date: 2023-09-13 16:08:49
! Measurements: S11 S21 S12 S22 
! 
 6.705000000000000E10    1.191485879487876E-1  -1.574247388435497E2   3.549511664401890E-1  -1.146917819290972E2   3.552206618234554E-1  -1.091328956740969E2   4.997610888333098E-1   1.572949163255024E2  
 6.710000000000000E10    2.312169419712823E-2   7.371257771096255E1   3.571442488145014E-1  -1.583302745433741E2   3.569227557382648E-1  -1.527021758682490E2   4.896699830594742E-1   1.474505273485739E2  
 6.715000000000000E10    1.261325245623864E-1  -3.972746947822488E1   3.525584499407815E-1   1.585247596175032E2   3.540410583848677E-1   1.641063936541953E2   4.970408011882774E-1   1.366346233630240E2  
 6.720000000000000E10    2.089283464523726E-1  -8.263795408634186E1   3.509566045503171E-1   1.162868772795129E2   3.511791743428374E-1   1.219695109882782E2   5.005656229788497E-1   1.237130550771750E2  
 6.725000000000000E10    2.325853825080544E-1  -1.206170721647162E2   3.528141084801997E-1   7.467128858183577E1   3.544252111048354E-1   8.003064064450474E1   4.822714786615269E-1   1.095238230326309E2  
 6.730000000000000E10    1.936491644747336E-1  -1.537028257497466E2   3.637829886600494E-1   3.187440645789749E1   3.638703468055308E-1   3.744563652773203E1   4.399877074063133E-1   9.731046585833542E1  
 6.735000000000000E10    1.083988832020754E-1  -1.689726299430785E2   3.716301692981776E-1  -1.203604267592482E1   3.724702078160707E-1  -6.482406426867760   4.025408401268079E-1   8.954749083238561E1  
 6.740000000000000E10    1.018141252274122E-1  -1.338872017991997E2   3.708152960185571E-1  -5.641372623516849E1   3.715820604745818E-1  -5.079069264152898E1   4.088232247958991E-1   8.392576099801462E1  
 6.745000000000000E10    1.812184094359218E-1  -1.439661553443254E2   3.640919993768569E-1  -9.994312510037335E1   3.642546072807069E-1  -9.413972351508528E1   4.407814061316404E-1   7.302644507765226E1  
 6.750000000000000E10    2.251240595321486E-1  -1.744225743001855E2   3.588184386896795E-1  -1.419802691239642E2   3.596186865375521E-1  -1.361893960907458E2   4.632648328762669E-1   5.784328191958544E1  
 6.755000000000000E10    2.059768120020132E-1   1.501988912842315E2   3.612023057996813E-1   1.763257563024154E2   3.626295425491070E-1  -1.780711541106548E2   4.541559259204828E-1   4.132859018651154E1  
 6.760000000000000E10    1.289023816332994E-1   1.110718684276131E2   3.703020035019962E-1   1.335047819727874E2   3.699455535154202E-1   1.391315243823799E2   4.305577809717768E-1   2.672500550147555E1  
 6.765000000000000E10    1.964570113483471E-2   2.930719015660504E1   3.727496504866528E-1   8.989804940494904E1   3.744579419281243E-1   9.549190857334376E1   4.121378376646011E-1   1.477340939983655E1  
 6.770000000000000E10    1.042727074206351E-1  -1.312400642660385E2   3.710061370552200E-1   4.643201606854171E1   3.719517281618962E-1   5.180004226106856E1   4.172640374502545E-1   2.677830090275499  
 6.775000000000000E10    1.827441292701552E-1  -1.725980730710847E2   3.666743415088137E-1   3.888595042983336   3.679481705574791E-1   8.936935038008175   4.290243832010010E-1  -1.295241592576767E1  
 6.780000000000000E10    2.078904408698887E-1   1.507972793695898E2   3.669515246230561E-1  -3.819680965611165E1   3.682332165270296E-1  -3.293407722679380E1   4.209954619899881E-1  -2.994463940504317E1  
 6.785000000000000E10    1.757272049833938E-1   1.172951213420250E2   3.728720970947935E-1  -8.073137750435205E1   3.743746003706778E-1  -7.526927831165192E1   3.886946958234221E-1  -4.557102637446088E1  
 6.790000000000000E10    1.045483593460397E-1   9.343002968965307E1   3.804589053753463E-1  -1.240832773397607E2   3.805469477320401E-1  -1.186095298371546E2   3.543163489490745E-1  -5.579290251909489E1  
 6.795000000000000E10    6.381179722110136E-2   1.242370843582637E2   3.807446746752227E-1  -1.683330035472361E2   3.814503331633758E-1  -1.627737487150088E2   3.556746997520134E-1  -6.169819772001451E1  
 6.800000000000000E10    1.225322215991584E-1   1.261792509742764E2   3.738951436591469E-1   1.480052658479775E2   3.753331446059264E-1   1.536028553198265E2   3.942794705148720E-1  -7.073177190292644E1  
 6.805000000000000E10    1.656560291532974E-1   9.170223989055083E1   3.659326025761367E-1   1.056139499169246E2   3.663306245365579E-1   1.110081481370925E2   4.362142836548204E-1  -8.514956528286008E1  
 6.810000000000000E10    1.700304905872908E-1   4.699288652756369E1   3.622405479218654E-1   6.389771918368135E1   3.630263019693520E-1   6.927140939333927E1   4.540616395726903E-1  -1.009936561217446E2  
 6.815000000000000E10    1.445491424429344E-1  -6.562641272346418   3.635562044875424E-1   2.188805981576795E1   3.636923328140739E-1   2.736075557206371E1   4.547846603037906E-1  -1.161405739617263E2  
 6.820000000000000E10    1.168382708576114E-1  -7.605306724432619E1   3.670228906662537E-1  -2.045955145771437E1   3.673774933157881E-1  -1.513153573981965E1   4.483262564515304E-1  -1.288902992224697E2  
 6.825000000000000E10    1.081414885793953E-1  -1.530759411100941E2   3.670194176131539E-1  -6.331881943359152E1   3.679340448934054E-1  -5.811262372979569E1   4.473141288892392E-1  -1.403446757036805E2  
 6.830000000000000E10    1.089183355052363E-1   1.347350990571937E2   3.656273995174447E-1  -1.060827615244407E2   3.667814171762510E-1  -1.006909026103896E2   4.529918794845574E-1  -1.514669626367560E2  
 6.835000000000000E10    1.020228644753664E-1   6.556009610935709E1   3.651128568739558E-1  -1.486072651798734E2   3.658471675151965E-1  -1.430053366874478E2   4.557480382858408E-1  -1.632322471387053E2  
 6.840000000000000E10    9.071609281350668E-2  -8.324443450226434   3.648363494267590E-1   1.689533036859801E2   3.662081953197319E-1   1.746910489044460E2   4.524112565620411E-1  -1.744650169351218E2  
 6.845000000000000E10    8.470594923261830E-2  -8.320938589321220E1   3.672940584474472E-1   1.263615840939357E2   3.674175860314388E-1   1.321301425364431E2   4.454851145097380E-1   1.756287455926845E2  
 6.850000000000000E10    7.242601892509307E-2  -1.549553630276260E2   3.663312592806499E-1   8.331581160779223E1   3.672810748610456E-1   8.902267094323317E1   4.447458686471471E-1   1.670771747324266E2  
 6.855000000000000E10    4.159012074565754E-2   1.155529075205738E2   3.631829981694234E-1   4.034235880140592E1   3.636380322623741E-1   4.599364513646572E1   4.594582067112710E-1   1.588891707583066E2  
 6.860000000000000E10    6.703835254441701E-2  -1.778289665728815E1   3.555596021021836E-1  -2.100763291966282   3.564927505162139E-1   3.508727896922153   4.836681754126863E-1   1.493015568767386E2  
 6.865000000000000E10    1.432912074145011E-1  -8.247634577970470E1   3.489490459395646E-1  -4.369712673102948E1   3.491388471714245E-1  -3.819217666492984E1   5.078039606871782E-1   1.378282065630112E2  
 6.870000000000000E10    2.073082240662870E-1  -1.301548680478740E2   3.445305729359179E-1  -8.449259469534364E1   3.450790606595257E-1  -7.913887484146201E1   5.184675659211004E-1   1.249394320671460E2  
 6.875000000000000E10    2.322417319014852E-1  -1.728557203191642E2   3.469841677418356E-1  -1.251432213120397E2   3.481772223496176E-1  -1.200046155958172E2   5.104784797516584E-1   1.119678241196041E2  
 6.880000000000000E10    2.026145198671187E-1   1.465473520012944E2   3.554664995602822E-1  -1.667006865143349E2   3.562635786658592E-1  -1.613899647050820E2   4.818534275007019E-1   1.005004489243081E2  
 6.885000000000000E10    1.163461809348828E-1   1.098319256178078E2   3.644180772660166E-1   1.505051428057611E2   3.650570956408956E-1   1.561863917536165E2   4.534956470667805E-1   9.211261751549853E1  
 6.890000000000000E10    2.184247822640615E-2   1.629805428859087E2   3.673585430724508E-1   1.071686236004619E2   3.675257187560191E-1   1.128560928550385E2   4.458267447063207E-1   8.556975314612222E1  
 6.895000000000000E10    1.147602869747952E-1  -1.730062794672733E2   3.637143540413906E-1   6.427185708740036E1   3.642387780458046E-1   7.006006653974468E1   4.583625275601430E-1   7.732472555801569E1  
 6.900000000000000E10    1.738744756152424E-1   1.524532003552678E2   3.604422086829844E-1   2.211218557906485E1   3.610724802542480E-1   2.797805208329870E1   4.701835308440611E-1   6.659921068618245E1  
 6.905000000000000E10    1.660797628603253E-1   1.169352450829781E2   3.612477251110360E-1  -1.959799660265952E1   3.620324350317292E-1  -1.402470689796208E1   4.642110629159339E-1   5.557402929923895E1  
 6.910000000000000E10    9.286416791089511E-2   8.805341515286746E1   3.634330185756100E-1  -6.216351472236298E1   3.632739407461317E-1  -5.653453083164863E1   4.525701061724348E-1   4.610770165718456E1  
 6.915000000000000E10    4.779760953088529E-2   1.645342259425883E2   3.592662333100458E-1  -1.050195651413639E2   3.599655084588936E-1  -9.931430654297331E1   4.595857174853601E-1   3.781688689861299E1  
 6.920000000000000E10    1.596236817673536E-1   1.583974116515995E2   3.504810969313897E-1  -1.470137364520921E2   3.514506886153382E-1  -1.414261464831639E2   4.842674161172413E-1   2.696105024895138E1  
 6.925000000000000E10    2.458547511998433E-1   1.267720445623392E2   3.444348150395714E-1   1.723432787458652E2   3.448081692547854E-1   1.778760952491526E2   5.043626060238192E-1   1.279694888805397E1  
 6.930000000000000E10    2.781703387500003E-1   9.353712872169977E1   3.454042120425247E-1   1.322365963927571E2   3.461484001672703E-1   1.379814463246878E2   4.945949315452444E-1  -3.036648920095717  
 6.935000000000000E10    2.523491879549577E-1   6.095614376029204E1   3.557655945611309E-1   9.157001429840958E1   3.569709918028880E-1   9.742741048953631E1   4.535123658809337E-1  -1.774051340727693E1  
 6.940000000000000E10    1.711821950449529E-1   3.250384480807893E1   3.694184900880794E-1   4.937381662814712E1   3.709428652121555E-1   5.522595444625834E1   3.994427839060307E-1  -2.841357256987154E1  
 6.945000000000000E10    8.251365424025321E-2   3.690434093781778E1   3.780066676402811E-1   5.759718187681942   3.786309698069775E-1   1.174493101107891E1   3.717963284146602E-1  -3.316942131723989E1  
 6.950000000000000E10    1.191412225049890E-1   6.837627780236645E1   3.763846238243868E-1  -3.770537481194646E1   3.767936654260385E-1  -3.175841320227894E1   3.898878245942303E-1  -3.883720534964759E1  
 6.955000000000000E10    1.790477938596489E-1   4.722622929280292E1   3.709355181772862E-1  -7.987218741309695E1   3.713158762047011E-1  -7.427051072071006E1   4.175842048591562E-1  -4.981729307680980E1  
 6.960000000000000E10    1.900292993788418E-1   1.586371142853537E1   3.688846007291884E-1  -1.215558350041536E2   3.699275585766566E-1  -1.161406702227239E2   4.267667833394739E-1  -6.304729944668249E1  
 6.965000000000000E10    1.428193086788476E-1  -1.619114206783198E1   3.707670410168983E-1  -1.636004631203309E2   3.715481783992435E-1  -1.581974806516995E2   4.162194986534086E-1  -7.492201105384780E1  
 6.970000000000000E10    5.466309440358346E-2  -2.538355333522319E1   3.709196874797032E-1   1.537952544950745E2   3.713815316099016E-1   1.591791673429228E2   4.121774838391658E-1  -8.405670088039031E1  
 6.975000000000000E10    8.527365225801646E-2   4.496350253981661E1   3.650572988150399E-1   1.112465534408665E2   3.655038552351296E-1   1.167276513747281E2   4.327672450789917E-1  -9.344416756027533E1  
 6.980000000000000E10    1.792889915540804E-1   2.048990675774093E1   3.568910751284664E-1   6.964344948568974E1   3.573914245178636E-1   7.530638460579897E1   4.627594782984507E-1  -1.060040602550979E2  
 6.985000000000000E10    2.392805487428665E-1  -1.332837352484395E1   3.517624106669662E-1   2.918822973161459E1   3.527131888885516E-1   3.502216454029350E1   4.759050571064694E-1  -1.214799450306280E2  
 6.990000000000000E10    2.509185264829938E-1  -4.801428272438011E1   3.552582223943804E-1  -1.108654262801462E1   3.558573035114394E-1  -5.052694358864292   4.594376842295690E-1  -1.375137596215471E2  
 6.995000000000000E10    2.125263843371484E-1  -8.120983576458293E1   3.662571708618737E-1  -5.220385987115207E1   3.666089380976295E-1  -4.595798219134358E1   4.157407187489060E-1  -1.513708749517030E2  
 7.000000000000000E10    1.326686808117484E-1  -1.052383593695780E2   3.775277248798545E-1  -9.438402007174233E1   3.778871431428456E-1  -8.844884412482408E1   3.670631744727457E-1  -1.598287865476919E2  
 7.005000000000000E10    7.731164009860340E-2  -8.202374473679735E1   3.814287818724362E-1  -1.375908401757911E2   3.821901458660237E-1  -1.317880094116159E2   3.526256139134431E-1  -1.633169856123472E2  
 7.010000000000000E10    1.406191200806624E-1  -7.158996013385074E1   3.783813556872594E-1   1.795986655376534E2   3.787679806651257E-1  -1.746719054893378E2   3.770635446813984E-1  -1.695492525484019E2  
 7.015000000000000E10    1.988388158988440E-1  -9.649938851640516E1   3.739056918322103E-1   1.376545458588009E2   3.741225149996582E-1   1.433668750594742E2   4.000911221112531E-1   1.790469071981057E2  
 7.020000000000000E10    2.032203361435385E-1  -1.257658121644091E2   3.727616798043942E-1   9.633539368047242E1   3.733009163421915E-1   1.020577519763244E2   3.985486081363861E-1   1.662333434573887E2  
 7.025000000000000E10    1.552241148886935E-1  -1.502866722382526E2   3.752104391818489E-1   5.440111980326839E1   3.757345336822447E-1   6.006833664982926E1   3.792120204529597E-1   1.560629344621590E2  
 7.030000000000000E10    9.620719159285937E-2  -1.441346694470841E2   3.750864062216784E-1   1.173876315582484E1   3.754375681077320E-1   1.749118409560274E1   3.741713454891499E-1   1.498739068893755E2  
 7.035000000000000E10    1.445960609324197E-1  -1.213572043049413E2   3.687438295788779E-1  -3.095007472734343E1   3.687232061912669E-1  -2.464171610187493E1   4.043120988502229E-1   1.427036213611074E2  
 7.040000000000000E10    2.304600509046999E-1  -1.389107352754519E2   3.582441293349085E-1  -7.235672757874271E1   3.588764954512070E-1  -6.574706248940761E1   4.424929410748139E-1   1.301383237458547E2  
 7.045000000000000E10    2.818088468620273E-1  -1.663106445317603E2   3.532770586093543E-1  -1.122970091731927E2   3.546462657233531E-1  -1.055311399327314E2   4.588694810660260E-1   1.140711540189514E2  
 7.050000000000000E10    2.795388949224972E-1   1.653360083136473E2   3.581889577222281E-1  -1.520260936807910E2   3.588402739549267E-1  -1.454885674693700E2   4.372910833898997E-1   9.762638116075702E1  
 7.055000000000000E10    2.219200999244407E-1   1.405600856140312E2   3.699851065165653E-1   1.672977693784951E2   3.709810570221001E-1   1.734294010469260E2   3.820762783581966E-1   8.395212208593748E1  
 7.060000000000000E10    1.396579221777710E-1   1.328628022365257E2   3.813541644912027E-1   1.247948354774741E2   3.815259611238674E-1   1.309345601756782E2   3.313834804935182E-1   7.763615247062124E1  
 7.065000000000000E10    1.352968507799904E-1   1.563730218680429E2   3.828112865625887E-1   8.175686685728179E1   3.831986204354480E-1   8.788829401384996E1   3.263437896008657E-1   7.561453932118660E1  
 7.070000000000000E10    2.007164803722524E-1   1.509749639483119E2   3.789020910099498E-1   3.948302093803812E1   3.790350277442101E-1   4.555522641885717E1   3.536747267039499E-1   6.759406383048705E1  
 7.075000000000000E10    2.374224928167634E-1   1.298628360748727E2   3.762968964512540E-1  -1.753198005319771   3.765427293993643E-1   4.099779692371641   3.620216079208954E-1   5.421677913442181E1  
 7.080000000000000E10    2.218552333509802E-1   1.090078775725290E2   3.789362426393008E-1  -4.330824938233104E1   3.790229581484098E-1  -3.734719184201084E1   3.373636174107592E-1   4.120027890235047E1  
 7.085000000000000E10    1.747989170780614E-1   9.931977556349746E1   3.818979834528022E-1  -8.571265026729725E1   3.817036991998808E-1  -7.938582377086300E1   3.022472060809201E-1   3.506162686197962E1  
 7.090000000000000E10    1.733961489679165E-1   1.071555006939096E2   3.790435793851884E-1  -1.285964691712203E2   3.784577850668538E-1  -1.219039455668237E2   3.119140004617377E-1   3.349229249373740E1  
 7.095000000000000E10    2.336141069307716E-1   1.013691761471392E2   3.678591754981687E-1  -1.705946363621434E2   3.684115834269097E-1  -1.636724310382525E2   3.651441819087299E-1   2.503264860999412E1  
 7.100000000000000E10    2.898920148650809E-1   8.078361006907674E1   3.597152089293900E-1   1.489262055889289E2   3.599724651825701E-1   1.557085213047103E2   4.111965840602015E-1   8.537523573793230  
 7.105000000000000E10    3.030030787112793E-1   5.529491158516140E1   3.578377260206797E-1   1.094384319043924E2   3.587128974533996E-1   1.159988969625479E2   4.218385855073258E-1  -1.082143146299714E1  
 7.110000000000000E10    2.670403750776199E-1   2.869669832905983E1   3.655355324025590E-1   6.966596174092959E1   3.660576620001377E-1   7.594099254391368E1   3.918814225225942E-1  -2.971901014560758E1  
 7.115000000000000E10    1.894997853549958E-1   6.380660262478369   3.767698327105492E-1   2.843036404485628E1   3.779135121085512E-1   3.469672938697198E1   3.367777392775623E-1  -4.464934474280867E1  
 7.120000000000000E10    1.067569266116358E-1   6.854131015072730   3.866571870081850E-1  -1.399713723751430E1   3.874492202520753E-1  -7.843928357102272   2.931934866694396E-1  -5.176554753791594E1  
 7.125000000000000E10    1.198062918750056E-1   3.469840176769227E1   3.879085020444190E-1  -5.663487235154908E1   3.888154236030945E-1  -5.074629583236072E1   2.912001376745069E-1  -5.657344733453125E1  
 7.130000000000000E10    1.764784119823129E-1   2.560226462825016E1   3.858909437773159E-1  -9.876926944626183E1   3.857990545672077E-1  -9.291943284829674E1   3.082366944451419E-1  -6.728251690967005E1  
 7.135000000000000E10    2.014588673129128E-1   4.788404402374344   3.838722611990996E-1  -1.406341752983452E2   3.847608673746060E-1  -1.344016694697641E2   3.023357082720735E-1  -8.118965471245846E1  
 7.140000000000000E10    1.851053144151668E-1  -1.304562445972138E1   3.847086618924189E-1   1.774063628719404E2   3.859892355270303E-1  -1.761616815669335E2   2.727720087608238E-1  -9.152875951588732E1  
 7.145000000000000E10    1.669810093064637E-1  -1.742244033276108E1   3.841150743287414E-1   1.348775339611715E2   3.847061278317492E-1   1.413751648698060E2   2.564096920747958E-1  -9.277576053817602E1  
 7.150000000000000E10    1.990404702977603E-1  -1.815892698723654E1   3.762714225989177E-1   9.246343541972998E1   3.766432321025580E-1   9.900519639417378E1   2.962244836017289E-1  -9.364775859199585E1  
 7.155000000000000E10    2.631192608185496E-1  -3.337883625302802E1   3.641203258872388E-1   5.129527347178674E1   3.642107115253661E-1   5.759232501761354E1   3.660995838215602E-1  -1.045853293206509E2  
 7.160000000000000E10    3.085011637861838E-1  -5.761139364915640E1   3.531741215156897E-1   1.145194742444966E1   3.543492462878339E-1   1.759820390955408E1   4.186312359531121E-1  -1.222195288837189E2  
 7.165000000000000E10    3.161290855490072E-1  -8.498650508993758E1   3.517098695151068E-1  -2.776798277973623E1   3.525565969048409E-1  -2.160575767793959E1   4.323425047527751E-1  -1.414508559223518E2  
 7.170000000000000E10    2.777741563152680E-1  -1.123664914840361E2   3.600099815560350E-1  -6.715389145042225E1   3.600776209661346E-1  -6.118993548759476E1   4.062778971179767E-1  -1.594565816899328E2  
 7.175000000000000E10    1.985668654446877E-1  -1.350637800914990E2   3.718317221314098E-1  -1.081075769672966E2   3.727755049417054E-1  -1.020623356960731E2   3.534294498114481E-1  -1.729893310072954E2  
 7.180000000000000E10    1.158187765679719E-1  -1.352220857150351E2   3.820555781997095E-1  -1.504006464356005E2   3.824949471913932E-1  -1.443483597460308E2   3.101746473352370E-1  -1.786116986765229E2  
