#  HZ   S   MA   R     50.00 
! Rohde & Schwarz ZVA67 4Ports - Version 4.11 - 1305.7002k04 SN: 101051
! Date: 2023-09-13 16:13:49
! Measurements: S11 S21 S12 S22 
! 
 6.705000000000000E10    1.146408007552877E-1  -6.777079499785423E1   3.408620113006863E-1   1.288816200803233E2   3.412906796753948E-1   1.351207239868428E2   4.554823639592404E-1   1.532805267650613E2  
 6.710000000000000E10    1.010562151799811E-1  -1.005758745363054E2   3.457452775624737E-1   8.414237086610194E1   3.460246234820789E-1   9.051206923705179E1   4.250377167946203E-1   1.452334419421583E2  
 6.715000000000000E10    5.433905465078517E-2  -8.578771138795582E1   3.451953073390069E-1   3.871328672199434E1   3.459392548609150E-1   4.520287358633041E1   4.157350392701751E-1   1.401690728117927E2  
 6.720000000000000E10    1.299864028799787E-1  -6.018582631276452E1   3.353446391832503E-1  -6.163200447882541   3.356231902007411E-1   2.396537693839958E-1   4.485460123744755E-1   1.343158233223182E2  
 6.725000000000000E10    2.292668675325056E-1  -8.825733963771417E1   3.205521752618357E-1  -4.928777186998248E1   3.207656407706915E-1  -4.305388569301723E1   4.995105973064085E-1   1.227386489608554E2  
 6.730000000000000E10    2.909480248464674E-1  -1.220273639753675E2   3.109419506105678E-1  -9.056123295238936E1   3.111686873807275E-1  -8.425474442521268E1   5.304581766492892E-1   1.072326318102260E2  
 6.735000000000000E10    2.977977169922789E-1  -1.564862341089991E2   3.099637824820526E-1  -1.311734446320404E2   3.109574834086731E-1  -1.247653781559647E2   5.296973763975250E-1   9.013938915728781E1  
 6.740000000000000E10    2.511592364612377E-1   1.687090264467045E2   3.204573198347520E-1  -1.725023694838448E2   3.207652501857272E-1  -1.657817145439903E2   5.022048610705703E-1   7.371780738145445E1  
 6.745000000000000E10    1.543021731564149E-1   1.342814698197271E2   3.337618257553115E-1   1.448063931231346E2   3.341701139724867E-1   1.514127470335641E2   4.575349152167041E-1   5.932232588315384E1  
 6.750000000000000E10    3.979849311238554E-2   1.220267572115450E2   3.454424335610960E-1   1.007457065042149E2   3.455684085167496E-1   1.073135575117950E2   4.247783066978404E-1   4.787751878707780E1  
 6.755000000000000E10    7.041686721570702E-2  -1.451399308321850E2   3.503926902345877E-1   5.650956793752045E1   3.512330225859783E-1   6.294133128250969E1   4.053011298083365E-1   3.623379991801366E1  
 6.760000000000000E10    1.175809042100297E-1  -1.713377221478999E2   3.549442461579185E-1   1.256270559227590E1   3.545389078473730E-1   1.896694598133884E1   3.882294651483204E-1   2.321806780926600E1  
 6.765000000000000E10    1.028681027057075E-1   1.642112925468967E2   3.579832051872653E-1  -3.154312738509348E1   3.587359504739998E-1  -2.536484940358001E1   3.563603932602144E-1   1.149917870635296E1  
 6.770000000000000E10    6.450253024772168E-2   1.773776447990033E2   3.589242782881807E-1  -7.628869335459041E1   3.596573230265436E-1  -7.044851963355053E1   3.357359263422651E-1   4.643740326549800  
 6.775000000000000E10    1.205569908454576E-1  -1.613181879386910E2   3.521894878003621E-1  -1.208867389404627E2   3.534193536081103E-1  -1.154715292290460E2   3.609890104787024E-1  -1.622644633762755  
 6.780000000000000E10    2.027999532912361E-1   1.754619349447808E2   3.388161312637266E-1  -1.646067332495123E2   3.396857143039399E-1  -1.589446560473129E2   4.150713038705505E-1  -1.392773513705037E1  
 6.785000000000000E10    2.517532553599717E-1   1.428010748503356E2   3.292959934206144E-1   1.532594603229824E2   3.292328132541606E-1   1.591634451468576E2   4.581528695501919E-1  -3.160812669961595E1  
 6.790000000000000E10    2.537672686824721E-1   1.068996994117422E2   3.256913904530947E-1   1.120546080409691E2   3.261739626111641E-1   1.181660032406816E2   4.753746989656958E-1  -5.076532917978749E1  
 6.795000000000000E10    2.124218038395586E-1   6.784152777100478E1   3.298058158334032E-1   7.054963256817813E1   3.315427163882883E-1   7.668438679594338E1   4.651844814199329E-1  -6.891659886898106E1  
 6.800000000000000E10    1.366979021207866E-1   2.293629757710289E1   3.402673989672900E-1   2.823177750467983E1   3.399738343171593E-1   3.426641810227523E1   4.394492520455776E-1  -8.406327335913068E1  
 6.805000000000000E10    5.652654366238090E-2  -4.174761301000952E1   3.466336187068021E-1  -1.531011843334507E1   3.473861208307801E-1  -9.184949282927407   4.198407110365878E-1  -9.679505420251900E1  
 6.810000000000000E10    3.852655245579912E-2  -1.788448778429117E2   3.500624288822435E-1  -5.900594600452450E1   3.504845964576315E-1  -5.287369798492940E1   4.111284494099849E-1  -1.081123235668489E2  
 6.815000000000000E10    6.172342828125079E-2   1.049123684273213E2   3.526163405277728E-1  -1.025199670699434E2   3.524004463755986E-1  -9.657492952604919E1   4.076795599806287E-1  -1.197744821580483E2  
 6.820000000000000E10    5.064897182749933E-2   4.193587234455048E1   3.543791117813982E-1  -1.459359159154961E2   3.547977924032826E-1  -1.400126813092780E2   3.985386270883214E-1  -1.304594712273851E2  
 6.825000000000000E10    2.880685998602693E-2  -6.675571285404165E1   3.554600172775570E-1   1.702520892589494E2   3.557447433055203E-1   1.758806502776058E2   3.913040982570952E-1  -1.390818014258652E2  
 6.830000000000000E10    5.946316223523756E-2  -1.798326710293873E2   3.514834921122905E-1   1.258987119703964E2   3.524267395828173E-1   1.318927852146613E2   4.053831399621332E-1  -1.458465000201281E2  
 6.835000000000000E10    9.771484188521798E-2   1.119734728447543E2   3.427014448076302E-1   8.193263954365560E1   3.438511659280511E-1   8.838228118640281E1   4.404203054379755E-1  -1.546281615354811E2  
 6.840000000000000E10    1.255185303539023E-1   4.940481894868665E1   3.328267651361864E-1   3.917193116130744E1   3.331335006567522E-1   4.569791348739212E1   4.815944640055492E-1  -1.662103288391124E2  
 6.845000000000000E10    1.492354251724441E-1  -1.223213568886815E1   3.247914735703851E-1  -2.452144407563449   3.250637680653193E-1   3.922085097528340   5.105361557289265E-1  -1.798094659276623E2  
 6.850000000000000E10    1.721551537071784E-1  -6.973460471557623E1   3.213014951602870E-1  -4.385393940794738E1   3.222179676331141E-1  -3.736008651387726E1   5.217919707744213E-1   1.663283976236546E2  
 6.855000000000000E10    1.815752095010747E-1  -1.210515147004640E2   3.230972442245282E-1  -8.488466437916230E1   3.235958471114540E-1  -7.881812140043137E1   5.175867247417925E-1   1.528669497389974E2  
 6.860000000000000E10    1.585249777769703E-1  -1.674451046464658E2   3.287078074257084E-1  -1.267325894538048E2   3.294391257117794E-1  -1.206039324725345E2   4.990475762903325E-1   1.406268421927029E2  
 6.865000000000000E10    9.793181717698274E-2   1.524210859599506E2   3.347626152024547E-1  -1.690433695494551E2   3.361319738466914E-1  -1.631356665265886E2   4.777394697100473E-1   1.304075087172504E2  
 6.870000000000000E10    2.214159838733300E-2   1.793550405608013E2   3.387692020446970E-1   1.479530311696453E2   3.399047024102340E-1   1.537539307656338E2   4.629220151082682E-1   1.215814888557676E2  
 6.875000000000000E10    9.147867558884322E-2  -1.403753582223414E2   3.411975154269759E-1   1.048739367323861E2   3.415487330393603E-1   1.105193921449870E2   4.586165537144765E-1   1.128476936488934E2  
 6.880000000000000E10    1.467305250467392E-1  -1.755507086648194E2   3.423549226460035E-1   6.205903595523866E1   3.437688984757858E-1   6.779159407519475E1   4.524593321131595E-1   1.036577760506170E2  
 6.885000000000000E10    1.449102221819466E-1   1.465647403837307E2   3.454994580773237E-1   1.878496362454147E1   3.457550757176790E-1   2.488568130414790E1   4.428691152937460E-1   9.516383619687456E1  
 6.890000000000000E10    7.888916576459841E-2   1.115145858513214E2   3.452849542246306E-1  -2.490023833664082E1   3.459483855933841E-1  -1.861277763737651E1   4.378708637851327E-1   8.830231973658601E1  
 6.895000000000000E10    3.560042915720050E-2  -1.434944645093229E2   3.396653930112840E-1  -6.872496383319209E1   3.405831272510470E-1  -6.225350331889023E1   4.562226776497807E-1   8.143259456649938E1  
 6.900000000000000E10    1.457545843523299E-1  -1.643407102624675E2   3.292475980402270E-1  -1.114909019143538E2   3.299304166540021E-1  -1.049092322035353E2   4.932870799494810E-1   7.150175007651011E1  
 6.905000000000000E10    2.236374225090195E-1   1.609210502738806E2   3.199392254872421E-1  -1.522784210348193E2   3.212368094048758E-1  -1.462630972589709E2   5.196385566264536E-1   5.829958872236966E1  
 6.910000000000000E10    2.479666645795562E-1   1.263877583184958E2   3.195537158218176E-1   1.671646464306312E2   3.202082304298447E-1   1.733300512818596E2   5.209074724173457E-1   4.357175799650373E1  
 6.915000000000000E10    2.125477270585816E-1   9.402980516449182E1   3.250954985741277E-1   1.260772316933562E2   3.262057444424146E-1   1.323760424883894E2   4.973039422646259E-1   2.967857922805546E1  
 6.920000000000000E10    1.300910235599291E-1   6.972995677840800E1   3.349443337388933E-1   8.408110778396670E1   3.355042785378639E-1   9.015557411974903E1   4.631549318274416E-1   1.799466440958897E1  
 6.925000000000000E10    6.596354002630447E-2   1.000797475312119E2   3.403500754099627E-1   4.110843972351086E1   3.406099182357480E-1   4.722353259966732E1   4.452377570155813E-1   8.681679044610021  
 6.930000000000000E10    1.357620143923058E-1   1.166331946124468E2   3.410656679790816E-1  -1.717242052894877   3.420668812275433E-1   4.621815959375144   4.427017167962227E-1  -1.621688283899266  
 6.935000000000000E10    1.927253486275090E-1   9.169186101778512E1   3.426210897539903E-1  -4.419930156206967E1   3.436344415460482E-1  -3.743770590986073E1   4.331058519787692E-1  -1.377987545892925E1  
 6.940000000000000E10    1.928758561217465E-1   6.181661736820946E1   3.481386415465460E-1  -8.669292283164729E1   3.486589878246481E-1  -7.981547530544120E1   4.052077824922688E-1  -2.610766361573353E1  
 6.945000000000000E10    1.388166361974995E-1   3.840766301999456E1   3.557729092277166E-1  -1.297168849787470E2   3.552378787291142E-1  -1.231204321633212E2   3.685461063064058E-1  -3.411077723003174E1  
 6.950000000000000E10    8.425450056584836E-2   5.286588550899830E1   3.557220675084156E-1  -1.738334013026353E2   3.557187314741284E-1  -1.673573172756096E2   3.649637956902956E-1  -3.745285667727021E1  
 6.955000000000000E10    1.401056948768769E-1   6.932271243356227E1   3.461582497787423E-1   1.428013032961175E2   3.471961932444359E-1   1.488381972592028E2   4.069837513265256E-1  -4.391244647916880E1  
 6.960000000000000E10    2.115159036303780E-1   4.620393680715925E1   3.350666313915953E-1   1.007698948528346E2   3.361916700040969E-1   1.066159422990519E2   4.561003349807536E-1  -5.680011559556824E1  
 6.965000000000000E10    2.424232517485668E-1   1.481032387348887E1   3.298694066648900E-1   5.999011488478780E1   3.301133836689009E-1   6.574662762167679E1   4.800863196904615E-1  -7.263786083017142E1  
 6.970000000000000E10    2.221426727794147E-1  -1.837984000825771E1   3.310160649487512E-1   1.931603906460105E1   3.315147114868898E-1   2.494872033036068E1   4.749015955923596E-1  -8.842028707224189E1  
 6.975000000000000E10    1.545122354433810E-1  -4.996268040221724E1   3.368700852099912E-1  -2.235059441745324E1   3.374005675395118E-1  -1.662632881350445E1   4.539768481640609E-1  -1.022070829405580E2  
 6.980000000000000E10    6.296436997638821E-2  -6.195930342211610E1   3.425423911229627E-1  -6.473748180618004E1   3.427785779587959E-1  -5.878515814642485E1   4.337638829918244E-1  -1.133331706153850E2  
 6.985000000000000E10    7.513437184147311E-2   2.151309543655632   3.441465560495344E-1  -1.074591509531674E2   3.446742721839650E-1  -1.010892527995363E2   4.281085679102370E-1  -1.239202937694173E2  
 6.990000000000000E10    1.486580765410377E-1  -1.685765209198722E1   3.438992064070217E-1  -1.497597019019193E2   3.448170247960495E-1  -1.430265105976465E2   4.246266835072486E-1  -1.362073379078337E2  
 6.995000000000000E10    1.842546888976854E-1  -4.769441412656276E1   3.477909499359727E-1   1.683484853386288E2   3.484101857379315E-1   1.751517502356236E2   4.052659568719947E-1  -1.492338402593089E2  
 7.000000000000000E10    1.704745265492638E-1  -7.731765805051498E1   3.545219133550310E-1   1.260406675542863E2   3.547750432421631E-1   1.326024047648717E2   3.656297744742105E-1  -1.600810014250264E2  
 7.005000000000000E10    1.175242988176083E-1  -9.173366511978531E1   3.587106863177347E-1   8.271334371821196E1   3.595955624181277E-1   8.907369291947197E1   3.307013675635733E-1  -1.643646505028997E2  
 7.010000000000000E10    1.109214254819785E-1  -7.353732519066487E1   3.565685664828600E-1   3.889716829508954E1   3.565514268294359E-1   4.518916347544920E1   3.445384366122051E-1  -1.653859095292780E2  
 7.015000000000000E10    1.838813631974703E-1  -7.901267129157642E1   3.467885028958765E-1  -3.922006029489956   3.469115091920960E-1   2.327440739010529   3.974754502519374E-1  -1.727911880121149E2  
 7.020000000000000E10    2.452637693312255E-1  -1.044709151358206E2   3.359301228602285E-1  -4.542460751740195E1   3.366571718674687E-1  -3.914097512038153E1   4.433352116563032E-1   1.734304507136779E2  
 7.025000000000000E10    2.638692144793227E-1  -1.341734545279543E2   3.323202625070644E-1  -8.597526626353488E1   3.332284255198568E-1  -7.964524884714713E1   4.578102220986402E-1   1.575077137558298E2  
 7.030000000000000E10    2.336947826043185E-1  -1.626986438446338E2   3.367143771704307E-1  -1.266092896027548E2   3.361725522247629E-1  -1.202235505964152E2   4.422443019085208E-1   1.425253610110334E2  
 7.035000000000000E10    1.618078558895390E-1   1.771867940757765E2   3.440150856178048E-1  -1.686869788051875E2   3.437754322508315E-1  -1.615699604526134E2   4.112275627021551E-1   1.308347913553330E2  
 7.040000000000000E10    1.047096461282096E-1  -1.705978428591255E2   3.486347653121972E-1   1.485942531161163E2   3.482520730379905E-1   1.560479689827197E2   3.937309144474707E-1   1.222191607447520E2  
 7.045000000000000E10    1.508178274994581E-1  -1.562633494583251E2   3.480568965132723E-1   1.063749151515237E2   3.482487871929647E-1   1.136182599671923E2   3.985022069899413E-1   1.130846410458416E2  
 7.050000000000000E10    2.094544101839459E-1  -1.730989166271940E2   3.472761904150980E-1   6.473725368421117E1   3.476369751339908E-1   7.165616327855504E1   4.006237999981744E-1   1.006216425368084E2  
 7.055000000000000E10    2.209425502145668E-1   1.633628048882889E2   3.503931731665401E-1   2.320407402304129E1   3.515691279175968E-1   2.992236266691180E1   3.749951049994568E-1   8.710110314961538E1  
 7.060000000000000E10    1.837594754434906E-1   1.450918605599340E2   3.573681905964387E-1  -1.907842476895826E1   3.578052080428170E-1  -1.250093830148362E1   3.274553290194915E-1   7.752042020559433E1  
 7.065000000000000E10    1.447145865146711E-1   1.480328345772095E2   3.599872501888379E-1  -6.219662410939215E1   3.601606288728041E-1  -5.585520617168975E1   2.992957507811747E-1   7.647162244354216E1  
 7.070000000000000E10    1.833136900258962E-1   1.563826022747066E2   3.550381380033716E-1  -1.055847716929507E2   3.550100391076622E-1  -9.912324967762518E1   3.313717364781537E-1   7.501328564423642E1  
 7.075000000000000E10    2.529835223738084E-1   1.419829347921719E2   3.444726736411543E-1  -1.474992837814873E2   3.448062135626713E-1  -1.410850944369358E2   3.841641403251472E-1   6.438936961781201E1  
 7.080000000000000E10    2.895354331829740E-1   1.187285495355708E2   3.396253718505451E-1   1.718100164202362E2   3.396992225520056E-1   1.781961579350370E2   4.108771467361687E-1   4.783673070061517E1  
 7.085000000000000E10    2.766290401254237E-1   9.467189991394432E1   3.404423669134327E-1   1.310246867530211E2   3.409615137410096E-1   1.379815245624643E2   3.962807614901446E-1   3.103510282922664E1  
 7.090000000000000E10    2.250699355416477E-1   7.562765200661042E1   3.477564211214244E-1   8.944970875601301E1   3.480844025671169E-1   9.695027935849925E1   3.564231508263348E-1   1.740823412127361E1  
 7.095000000000000E10    1.699108790900301E-1   7.104483723054955E1   3.531640655251387E-1   4.720708788086657E1   3.539513389228221E-1   5.461295847038299E1   3.251042793509418E-1   1.005694342940558E1  
 7.100000000000000E10    1.756070697140658E-1   7.650974510058940E1   3.542518618348164E-1   4.590460221445794   3.549978858748792E-1   1.193542234625814E1   3.315083869504147E-1   3.583044418633190  
 7.105000000000000E10    2.165198236323831E-1   6.690658664420560E1   3.520454405439261E-1  -3.726127918702331E1   3.528078799674421E-1  -2.997800841131239E1   3.555486777950511E-1  -8.164432487454052  
 7.110000000000000E10    2.307774160744829E-1   4.626497362755966E1   3.531212096815370E-1  -7.841585344873963E1   3.527768614773245E-1  -7.158666455931396E1   3.581170249367659E-1  -2.407233133838659E1  
 7.115000000000000E10    2.031442111259335E-1   2.434870940769203E1   3.573047772532476E-1  -1.200506959554553E2   3.579775492887086E-1  -1.131645040876645E2   3.302623289532363E-1  -3.982760264782363E1  
 7.120000000000000E10    1.425305067879127E-1   1.238046731382855E1   3.633255030007909E-1  -1.623535876709754E2   3.638854588015879E-1  -1.556514277887771E2   2.888287859760979E-1  -4.932738081230308E1  
 7.125000000000000E10    1.174870617232845E-1   2.832529072156845E1   3.639846409125234E-1   1.546181831505371E2   3.649368043686345E-1   1.611325707362380E2   2.777606502422309E-1  -5.219217312920478E1  
 7.130000000000000E10    1.722890218983029E-1   3.252060334609785E1   3.583804007649838E-1   1.119293063708487E2   3.595841853871892E-1   1.183654131065795E2   3.110890552551909E-1  -5.865010153647270E1  
 7.135000000000000E10    2.315645974221810E-1   1.393588559766249E1   3.522497813341383E-1   7.009616390031400E1   3.527520513214548E-1   7.685052176030033E1   3.460370320575751E-1  -7.252371066260773E1  
 7.140000000000000E10    2.518422545929304E-1  -1.010999376208040E1   3.490943386754451E-1   2.892625121043988E1   3.499380737244969E-1   3.592731350315274E1   3.542576620564733E-1  -8.926930426071557E1  
 7.145000000000000E10    2.342223038929024E-1  -3.231215720899223E1   3.508784987393617E-1  -1.237940823273137E1   3.519605060132450E-1  -5.311922739651396   3.302260254777761E-1  -1.041416091610356E2  
 7.150000000000000E10    1.968090853627522E-1  -4.580800875753237E1   3.543329308967333E-1  -5.415360493211156E1   3.550953733543592E-1  -4.721238963512842E1   2.972147743058097E-1  -1.125609067502239E2  
 7.155000000000000E10    1.872148810170446E-1  -4.810887103399056E1   3.538980725432563E-1  -9.646913540344553E1   3.542583844764217E-1  -8.970658141173554E1   2.966329479644985E-1  -1.154232931563927E2  
 7.160000000000000E10    2.216878304960814E-1  -5.571754181118769E1   3.492666939194818E-1  -1.384055084169108E2   3.495067359680472E-1  -1.318771531692532E2   3.366552369439395E-1  -1.222842904059412E2  
 7.165000000000000E10    2.580658838740534E-1  -7.544630644938017E1   3.440100202691953E-1  -1.795267026022839E2   3.444675260273685E-1  -1.729623732633027E2   3.755416349847895E-1  -1.358612136355301E2  
 7.170000000000000E10    2.594790175016810E-1  -9.981064263892232E1   3.434623756041820E-1   1.399761465077824E2   3.446253423641166E-1   1.464019277865647E2   3.859417181352999E-1  -1.521144165597018E2  
 7.175000000000000E10    2.171623132462490E-1  -1.238635005787199E2   3.496031710765791E-1   9.892059793909350E1   3.502187478772988E-1   1.053306335262322E2   3.623755387299407E-1  -1.667514464502549E2  
 7.180000000000000E10    1.424196231089003E-1  -1.366855676315522E2   3.571190614621806E-1   5.679380145415341E1   3.573282948658048E-1   6.336287585530819E1   3.258811254523498E-1  -1.758273093108741E2  
