#  HZ   S   MA   R     50.00 
! Rohde & Schwarz ZVA67 4Ports - Version 4.11 - 1305.7002k04 SN: 101051
! Date: 2023-09-13 16:03:02
! Measurements: S11 S21 S12 S22 
! 
 6.705000000000000E10    5.068528332887394E-1  -9.726956375974527E1   4.166930188539431E-3  -1.423463703162547E2   4.260465083873238E-3  -1.352623014360952E2   7.431280880575892E-1   1.601122157899868E2  
 6.710000000000000E10    4.941065343743428E-1  -1.322150164364620E2   4.077538306911426E-3  -1.763593803417152E2   4.462568292118152E-3  -1.697577382445211E2   7.316350286271359E-1   1.405040392388437E2  
 6.715000000000000E10    4.584168152481410E-1  -1.698222147166720E2   4.871242692624516E-3   1.494277461412858E2   4.924682651607813E-3   1.524011524388891E2   6.998042379078875E-1   1.198985767197267E2  
 6.720000000000000E10    3.998733174520680E-1   1.475705367046050E2   5.770601096315335E-3   1.079103947434420E2   5.817454894739759E-3   1.139146714293974E2   6.300965947108934E-1   9.742576447056825E1  
 6.725000000000000E10    3.379663145741849E-1   9.644364808738260E1   7.064836360724568E-3   6.339117235708663E1   6.787033418320486E-3   6.689115285806928E1   5.017482446818713E-1   7.135497619269698E1  
 6.730000000000000E10    3.099024269892659E-1   3.675093771096980E1   7.907404153274086E-3   1.249446642223985E1   7.819615948923230E-3   1.732300400938003E1   2.779043352093609E-1   4.191310163774119E1  
 6.735000000000000E10    3.399775395162754E-1  -2.098455181526168E1   8.215589153788559E-3  -4.149645871919416E1   8.077672576281893E-3  -3.580692902606759E1   3.640023717034994E-2   1.456541610504496E2  
 6.740000000000000E10    3.979455418735170E-1  -6.862139909529216E1   7.234832076151504E-3  -9.271467151927151E1   7.459828083414403E-3  -8.821234039989521E1   3.205752062374819E-1   1.417539448151181E2  
 6.745000000000000E10    4.539767798284605E-1  -1.077081818957560E2   6.321203161268444E-3  -1.386922335678503E2   6.376181865668132E-3  -1.344401221088945E2   5.118864836211580E-1   1.116784636340139E2  
 6.750000000000000E10    4.916082728197425E-1  -1.422993883961227E2   5.667981569845391E-3  -1.791514830340299E2   5.641437386826721E-3  -1.763494709363442E2   6.186720810798126E-1   8.487899242774358E1  
 6.755000000000000E10    5.072384016704322E-1  -1.746717794697448E2   4.970982977417087E-3   1.443016589202704E2   5.036958007314392E-3   1.489239027161114E2   6.694246854573707E-1   6.033044845958399E1  
 6.760000000000000E10    5.027710686967247E-1   1.527937445540796E2   4.965717842430472E-3   1.055715221401664E2   4.980881088302183E-3   1.116081565894398E2   6.936363922128711E-1   3.688449375070513E1  
 6.765000000000000E10    4.754297888651002E-1   1.182069537402710E2   5.356477432855262E-3   7.109047762549157E1   5.417164102487707E-3   7.530607203294409E1   6.936066927188231E-1   1.366458032155826E1  
 6.770000000000000E10    4.288846916212963E-1   7.877812539184600E1   5.633226939457351E-3   3.548044784609144E1   5.657734929266411E-3   3.732026615787544E1   6.755879536116013E-1  -9.989506852040242  
 6.775000000000000E10    3.744798250295692E-1   3.262308963855114E1   6.156511924692020E-3  -8.524222347906253   6.086101993679858E-3  -2.108923615999364   6.365367751985855E-1  -3.508553060548108E1  
 6.780000000000000E10    3.361156192638146E-1  -2.231522118785455E1   7.110063115339036E-3  -5.164829505734424E1   7.157073430061699E-3  -4.617565099722736E1   5.617103133487211E-1  -6.217778388618471E1  
 6.785000000000000E10    3.445312108697003E-1  -7.960886430691549E1   8.056017039597406E-3  -9.768076357619233E1   7.803169581416043E-3  -9.356451831283999E1   4.341883222021699E-1  -9.317901517030943E1  
 6.790000000000000E10    3.808025735220217E-1  -1.300839680778153E2   8.567811003813451E-3  -1.480338442857384E2   8.398513032465537E-3  -1.414885040363827E2   2.320982952064799E-1  -1.308386808362369E2  
 6.795000000000000E10    4.222127916642972E-1  -1.731110886545631E2   8.463049864606971E-3   1.631805674648609E2   8.596873636291854E-3   1.662062352983526E2   5.391106526002246E-2   6.437737765477880E1  
 6.800000000000000E10    4.488080468524899E-1   1.489485933918227E2   7.690637950846384E-3   1.128086251901069E2   7.687812193681685E-3   1.169499897815436E2   3.043576242631458E-1  -7.472287753185374  
 6.805000000000000E10    4.596234020754983E-1   1.127975387879207E2   6.808399568053488E-3   6.722528840989324E1   6.759582827561027E-3   7.255989441268351E1   4.929560939485575E-1  -4.279020166745922E1  
 6.810000000000000E10    4.588783154732035E-1   7.659806518822443E1   6.091402829437620E-3   2.526037658449253E1   6.026792000513044E-3   2.994114386766330E1   6.056290366893747E-1  -7.141729731653699E1  
 6.815000000000000E10    4.476606065616639E-1   3.920086383632197E1   5.556911526006458E-3  -1.078309425990647E1   5.614746985075404E-3  -7.052751878999879   6.705872401126235E-1  -9.652198767482666E1  
 6.820000000000000E10    4.351717374500820E-1  -7.958111768700495E-1   5.450218991720810E-3  -4.952055784010459E1   5.276221462232498E-3  -4.458653708754966E1   7.038908518536624E-1  -1.190892093254454E2  
 6.825000000000000E10    4.285160682563478E-1  -4.297666477701741E1   5.287493295909211E-3  -8.729516921350538E1   5.512003531340576E-3  -8.208840220958926E1   7.121307759890497E-1  -1.405795227816951E2  
 6.830000000000000E10    4.269685602453257E-1  -8.644350435965148E1   5.848726059663008E-3  -1.245954741454538E2   5.605979401058698E-3  -1.186531136534713E2   6.994985955299936E-1  -1.614028940515374E2  
 6.835000000000000E10    4.286129567188768E-1  -1.302367775335773E2   6.453121868242640E-3  -1.613374965908186E2   6.370982568104547E-3  -1.576794857998216E2   6.599893442726879E-1   1.769239508702932E2  
 6.840000000000000E10    4.259320722890937E-1  -1.736553209927699E2   7.090874732131108E-3   1.577380312484865E2   7.043194651161550E-3   1.627120182458867E2   5.793500248277337E-1   1.539865062808928E2  
 6.845000000000000E10    4.162324673397926E-1   1.431911262152929E2   8.266441441436767E-3   1.108476659658587E2   8.175203773100584E-3   1.163926367061239E2   4.271781067384586E-1   1.285457548418707E2  
 6.850000000000000E10    3.963338717753684E-1   9.934227558115235E1   8.973266917530793E-3   6.100919615470435E1   9.054083925142811E-3   6.662430846045010E1   1.779207976461910E-1   1.069680754414731E2  
 6.855000000000000E10    3.781710637215880E-1   5.399312010721666E1   9.029880578346815E-3   9.789333063093183   9.008109812980943E-3   1.510039292061997E1   1.628756835503407E-1  -1.460096562275851E2  
 6.860000000000000E10    3.731784408711857E-1   6.937171443068025   8.158744206725599E-3  -4.145887680702499E1   7.944661495125851E-3  -3.705081137088548E1   4.262430511497752E-1  -1.659150099940046E2  
 6.865000000000000E10    3.882015738385121E-1  -3.914097732642161E1   6.978544865248529E-3  -8.641837888632787E1   6.710402714897712E-3  -8.070305955514957E1   5.909909747149322E-1   1.686521767651560E2  
 6.870000000000000E10    4.203980906741965E-1  -8.203315238596892E1   5.852658675640089E-3  -1.237816066273372E2   6.092418282526431E-3  -1.207470525481177E2   6.786762777393598E-1   1.463059319181725E2  
 6.875000000000000E10    4.580996020059869E-1  -1.210018141945646E2   5.489724166152104E-3  -1.604918178914333E2   5.257260715443598E-3  -1.574578343873270E2   7.200148677773276E-1   1.261194085207178E2  
 6.880000000000000E10    4.914479616000912E-1  -1.567735355980823E2   5.076809768547617E-3   1.645302771428395E2   5.108414891161078E-3   1.676441540963942E2   7.327238372074268E-1   1.070474501476013E2  
 6.885000000000000E10    5.100112390289378E-1   1.691099832446797E2   5.210772976888942E-3   1.275626701582465E2   5.242646364384253E-3   1.343917675240614E2   7.237989947896520E-1   8.819055016366389E1  
 6.890000000000000E10    5.068324999029829E-1   1.351771301438426E2   5.620904678163004E-3   9.434247131658867E1   5.637451131919025E-3   9.787228474450419E1   6.887857913371440E-1   6.851817830958694E1  
 6.895000000000000E10    4.802657247334625E-1   9.954985754054862E1   6.534929052875445E-3   5.502349090450643E1   6.620265712738957E-3   5.924910430253195E1   6.154847847964583E-1   4.689661664787671E1  
 6.900000000000000E10    4.293211853014071E-1   6.012927491517888E1   7.931841303442853E-3   1.253280450309667E1   7.909071982660686E-3   1.847610234262950E1   4.823113823993779E-1   2.299711046020837E1  
 6.905000000000000E10    3.642040824391491E-1   1.404512772867914E1   9.270723742399177E-3  -3.632363201056495E1   9.113357532567359E-3  -3.179492868449332E1   2.563014795161949E-1  -1.537092562028883  
 6.910000000000000E10    3.175658820030451E-1  -4.111884349161851E1   9.669701525609632E-3  -9.079955861255205E1   9.560212018035991E-3  -8.485024737852281E1   7.746766690238227E-2   8.802121566676654E1  
 6.915000000000000E10    3.233686796971801E-1  -9.977080946723639E1   8.631263630712581E-3  -1.435827825764525E2   8.768942464957697E-3  -1.381944529456583E2   3.440994434251806E-1   8.939608065265200E1  
 6.920000000000000E10    3.749149197519470E-1  -1.503962019230523E2   7.365700300791257E-3   1.706906277958203E2   7.312904244155380E-3   1.754859768461046E2   5.307514507492435E-1   6.331312230725403E1  
 6.925000000000000E10    4.373764972427973E-1   1.683819391463837E2   6.154208451480989E-3   1.311012828574714E2   6.377392075730471E-3   1.339705895167349E2   6.356110655756563E-1   3.909896375692404E1  
 6.930000000000000E10    4.871975161306739E-1   1.332485801826792E2   5.457072249196255E-3   9.165209770368374E1   5.561441878407048E-3   9.880228294307791E1   6.861668555928561E-1   1.680399286619786E1  
 6.935000000000000E10    5.206709883054046E-1   1.012560564282316E2   5.228368386653992E-3   5.708897385269693E1   5.279031215003996E-3   6.281738424418980E1   7.041708913059818E-1  -4.145231186001219  
 6.940000000000000E10    5.345203106399581E-1   7.022258058423994E1   5.156050736588701E-3   2.399651043798054E1   5.180816170087455E-3   2.836966763622235E1   7.007692099885882E-1  -2.508571490539050E1  
 6.945000000000000E10    5.315094012335988E-1   3.906218026493219E1   5.449906784701320E-3  -1.002933226598177E1   5.424203536850012E-3  -4.344753687384032   6.740704899267082E-1  -4.655710576248415E1  
 6.950000000000000E10    5.067126661540979E-1   5.731071117380689   6.172709179625302E-3  -4.785428794164757E1   6.171160907073516E-3  -4.185335661352851E1   6.176528808685646E-1  -6.948037440958321E1  
 6.955000000000000E10    4.595459551085300E-1  -3.157996828027675E1   7.304975648722203E-3  -8.843712124192857E1   7.249227782448149E-3  -8.309319205449683E1   5.162270378120718E-1  -9.475932529829183E1  
 6.960000000000000E10    3.973949703790490E-1  -7.457935713023807E1   8.330141457052910E-3  -1.338823818486241E2   8.528726226071041E-3  -1.279780511412607E2   3.464019383894680E-1  -1.238828736209578E2  
 6.965000000000000E10    3.398877510264694E-1  -1.258679328437136E2   9.594335515388287E-3   1.773630770742048E2   9.519931737333252E-3  -1.785458686423720E2   9.518962773050824E-2  -1.569421674171643E2  
 6.970000000000000E10    3.164368981043156E-1   1.760044268557982E2   9.443757785299531E-3   1.241532320931198E2   9.190950936313835E-3   1.287487252114882E2   1.874841911540932E-1  -1.159956784565327E1  
 6.975000000000000E10    3.420446676736971E-1   1.204060979393175E2   8.359881075115806E-3   7.357147592966646E1   8.320967988317753E-3   7.999633977470339E1   4.177091181669780E-1  -4.396526929922059E1  
 6.980000000000000E10    3.914043800045356E-1   7.322834533002246E1   7.233300210983077E-3   3.011169824044824E1   7.233222805900542E-3   3.682533573021780E1   5.633386946621937E-1  -7.200514806915717E1  
 6.985000000000000E10    4.422012591053188E-1   3.318140349431924E1   6.242913740875816E-3  -8.725133517775422   6.279620995749265E-3  -3.349317422400366   6.444700342206321E-1  -9.668067880607171E1  
 6.990000000000000E10    4.827478397128747E-1  -2.265554064044592   5.583311335715145E-3  -4.305837600890768E1   5.571014637255258E-3  -3.915042935673073E1   6.838896765330562E-1  -1.192851063511849E2  
 6.995000000000000E10    5.122744747425551E-1  -3.526222030766885E1   5.343251290138498E-3  -7.954199277659319E1   5.567025325922817E-3  -7.336666195006083E1   6.943242901125490E-1  -1.407313139414727E2  
 7.000000000000000E10    5.292278381590170E-1  -6.725562353937380E1   5.377730491222811E-3  -1.141870913311125E2   5.684197162686128E-3  -1.069136214428885E2   6.821963078210780E-1  -1.620679808712739E2  
 7.005000000000000E10    5.276289848327928E-1  -9.905629639263277E1   5.931039177096550E-3  -1.479993279091965E2   6.176007083394380E-3  -1.432370883844581E2   6.433434812748160E-1   1.757418859565176E2  
 7.010000000000000E10    5.097492282327453E-1  -1.323091774392732E2   6.928842756767053E-3   1.758471587150417E2   6.891492108992153E-3   1.785361920374858E2   5.681245764679074E-1   1.517852500446286E2  
 7.015000000000000E10    4.690270049217042E-1  -1.680068115372900E2   8.298589138408349E-3   1.325351739914636E2   8.145442773482709E-3   1.378426949087810E2   4.385207333273745E-1   1.243676704351913E2  
 7.020000000000000E10    4.029374160237513E-1   1.512367832679825E2   9.421291418887676E-3   8.551915089638941E1   9.578922941424097E-3   8.992768973182137E1   2.338741603997153E-1   9.063081210283561E1  
 7.025000000000000E10    3.273985764582653E-1   1.016300658106936E2   1.033701173822149E-2   3.412777877059277E1   1.016078203281175E-2   3.923047861533942E1   4.527464608154513E-2  -7.491151248226272E1  
 7.030000000000000E10    2.804096868399722E-1   4.040414442270131E1   9.872998865749029E-3  -1.815337542590796E1   9.839630507821138E-3  -1.271328437190029E1   2.952044823783528E-1  -1.429047297762142E2  
 7.035000000000000E10    3.062982686016924E-1  -2.271687999294353E1   8.828210936141933E-3  -6.608426893540080E1   8.824415624206191E-3  -6.043987567395377E1   4.833339012339686E-1  -1.751170469494142E2  
 7.040000000000000E10    3.783556405328666E-1  -7.301046470005268E1   7.407311850743253E-3  -1.094426394907303E2   7.545405403686489E-3  -1.025233059537505E2   5.964105502540495E-1   1.579342375205869E2  
 7.045000000000000E10    4.512111513587263E-1  -1.127464884191004E2   6.429286369470345E-3  -1.469548733341969E2   6.615542806657127E-3  -1.420205506518621E2   6.567137409366907E-1   1.340837763565944E2  
 7.050000000000000E10    5.080316818182773E-1  -1.460891574749739E2   6.204623370272141E-3   1.765791731188091E2   6.047790636961993E-3  -1.796954264657065E2   6.814378694472476E-1   1.117851267024334E2  
 7.055000000000000E10    5.436390502773238E-1  -1.761492934966141E2   5.874686488853313E-3   1.418174157903242E2   5.929756284677932E-3   1.475476818497542E2   6.778855506768047E-1   8.997253152282960E1  
 7.060000000000000E10    5.601727715465302E-1   1.552716725409613E2   6.154212646101324E-3   1.080058278248313E2   6.257841579805855E-3   1.126553669450234E2   6.520265427957638E-1   6.754628036682144E1  
 7.065000000000000E10    5.531048559687475E-1   1.266884364554694E2   6.837407886642313E-3   7.254742199122208E1   6.819064580897443E-3   7.782839926617390E1   5.915716011115638E-1   4.343593421610053E1  
 7.070000000000000E10    5.216780588809125E-1   9.629133872814984E1   7.613279259297931E-3   3.357750257890982E1   7.752754757286475E-3   3.840247664380166E1   4.869603734976381E-1   1.568507619870461E1  
 7.075000000000000E10    4.594165074772719E-1   6.233218434292871E1   8.986709315724340E-3  -9.682279761485505   8.978032084168050E-3  -4.487055748397675   3.224501665700220E-1  -1.852595312416539E1  
 7.080000000000000E10    3.666937150588943E-1   2.120413164915019E1   1.024819185590476E-2  -5.754729810134478E1   1.005548054278552E-2  -5.320291801652112E1   1.177133671869361E-1  -8.129954263016694E1  
 7.085000000000000E10    2.715448708725904E-1  -3.509462884598381E1   1.067122881975302E-2  -1.092857260342204E2   1.052718520004388E-2  -1.035251429778114E2   1.863157082773116E-1   1.376947866966245E2  
 7.090000000000000E10    2.464019850734133E-1  -1.083881786700309E2   9.688014251513355E-3  -1.586231482989074E2   9.822411447587033E-3  -1.535169085494689E2   3.818934077575497E-1   9.170125565578485E1  
 7.095000000000000E10    3.200360596891728E-1  -1.706893542122504E2   8.615511353540372E-3   1.559483825933798E2   8.615201842684269E-3   1.604529894263839E2   5.182816239871494E-1   5.943293073781841E1  
 7.100000000000000E10    4.104148858551563E-1   1.446331222984905E2   7.270019421375073E-3   1.134859251487752E2   7.381563740409585E-3   1.194796795877794E2   5.998396243733998E-1   3.161791631872671E1  
 7.105000000000000E10    4.816693154602100E-1   1.096419195650847E2   6.760523151539128E-3   7.765964286936661E1   6.787669069689696E-3   8.138831696682149E1   6.427438285779710E-1   6.318483735915597  
 7.110000000000000E10    5.247990962643558E-1   7.872998490286024E1   6.401286235468349E-3   4.122491895905826E1   6.243902644432656E-3   4.664536582818307E1   6.560635373472284E-1  -1.790073107508944E1  
 7.115000000000000E10    5.470293546364217E-1   4.971916864102381E1   6.590561514022228E-3   7.148377311261032   6.271158338878957E-3   1.301399316234753E1   6.438711326545953E-1  -4.245200855221344E1  
 7.120000000000000E10    5.485636454119779E-1   2.097007931651871E1   6.664994149607188E-3  -2.780583064773694E1   6.439411232818515E-3  -2.393008522343618E1   6.097800482842459E-1  -6.765495005664532E1  
 7.125000000000000E10    5.302476208524373E-1  -8.610578019412845   7.339050433274198E-3  -6.523436459494340E1   7.373652241157601E-3  -6.038981017294209E1   5.418532478437900E-1  -9.509930090813408E1  
 7.130000000000000E10    4.858285872049890E-1  -4.091158960865547E1   8.400157952321432E-3  -1.052500636407628E2   8.408015403054830E-3  -9.933503179100858E1   4.350729437223332E-1  -1.264762747312298E2  
 7.135000000000000E10    4.193418089292629E-1  -7.772133801988514E1   9.549720302120830E-3  -1.486765121865787E2   9.649356443770652E-3  -1.444349645085138E2   2.780314033592038E-1  -1.669479997782886E2  
 7.140000000000000E10    3.314958087024899E-1  -1.232302410037230E2   1.048525679373886E-2   1.623986902929542E2   1.055529276432711E-2   1.684261221016309E2   1.263004111703209E-1   1.119464052352360E2  
 7.145000000000000E10    2.583658762622338E-1   1.767800871645104E2   1.071844045170501E-2   1.129329655838727E2   1.067271432085527E-2   1.172913129747646E2   2.266473169886622E-1   4.852706256798037  
 7.150000000000000E10    2.623088246508669E-1   1.067627055575729E2   9.876018817128318E-3   6.350985258991565E1   9.853723204916013E-3   6.933140350687221E1   3.990704065278843E-1  -4.126143773902666E1  
 7.155000000000000E10    3.359091982009161E-1   4.958645799787441E1   8.751501428820837E-3   1.922827323535477E1   8.787482601558087E-3   2.478733169062587E1   5.253915077888968E-1  -7.407656324005380E1  
 7.160000000000000E10    4.178106450542850E-1   6.616550471041005   7.579131252483867E-3  -2.311284773273707E1   7.671272987789528E-3  -1.615903702495399E1   6.056372211206160E-1  -1.017117396938490E2  
 7.165000000000000E10    4.817208997552396E-1  -2.877263364038706E1   7.011735114112703E-3  -5.888570657215407E1   6.923435297511235E-3  -5.378218467122080E1   6.476073568428404E-1  -1.265140830374953E2  
 7.170000000000000E10    5.241464559415724E-1  -5.995998691730042E1   6.531690201432374E-3  -9.305888035995676E1   6.635207820664086E-3  -8.862242684835822E1   6.625882648628976E-1  -1.498930273927654E2  
 7.175000000000000E10    5.484043614435186E-1  -8.913626949360305E1   6.590206707489985E-3  -1.278692637221240E2   6.692779577387981E-3  -1.229157362541647E2   6.508382446899774E-1  -1.731079804411720E2  
 7.180000000000000E10    5.518853909918013E-1  -1.176057083987514E2   7.050409958695450E-3  -1.640221272000842E2   7.118716901594194E-3  -1.576487683668947E2   6.096327431392801E-1   1.629591623343157E2  
