#  HZ   S   MA   R     50.00 
! Rohde & Schwarz ZVA67 4Ports - Version 4.11 - 1305.7002k04 SN: 101051
! Date: 2023-05-31 14:21:15
! Measurements: S11 S21 S12 S22 
! 
 5.000000000000000E7     7.695492159953668E-3   5.181906186390290E1   9.970189265710602E-1  -7.015213295623329   1.002035879418513  -6.516431358570203   8.525908368782127E-3  -6.028279324651490  
 1.000000000000000E8     3.898884931847154E-3  -4.477912049314778E1   9.992858196682244E-1  -1.338892464032903E1   9.997717783993920E-1  -1.349790823347783E1   3.700286885738200E-3  -3.163496199498474E1  
 1.500000000000000E8     9.420781036749369E-3  -1.817983354063400E1   9.981239032734973E-1  -2.006581751608191E1   9.982942559714825E-1  -2.032722758892171E1   9.381608446148075E-3  -3.602036746554898E1  
 2.000000000000000E8     6.270789841597659E-3  -1.937034012903699E1   9.974473351588866E-1  -2.661139250618212E1   9.986446871859601E-1  -2.713142592147206E1   8.585369263162543E-3  -3.488109365977788E1  
 2.500000000000000E8     1.073399138466476E-2  -2.611463720136368E1   9.964211137850952E-1  -3.344804468280251E1   9.974542217890056E-1  -3.384394186639950E1   1.247534681822907E-2  -3.409663504694917E1  
 3.000000000000000E8     1.337439161959345E-2  -3.658123678736683E1   9.977505876867867E-1  -4.029847090248836E1   9.959919425358276E-1  -4.055187305297152E1   1.614843272682358E-2  -3.945756263080659E1  
 3.500000000000000E8     1.571066370137414E-2  -4.324420571590068E1   9.957590193921042E-1  -4.698851615167123E1   9.965600148999058E-1  -4.732396014920148E1   1.657728607506114E-2  -4.491917055281463E1  
 4.000000000000000E8     1.848126106955491E-2  -4.927971277285155E1   9.954100928797470E-1  -5.367171340412996E1   9.962473969152362E-1  -5.405379065962890E1   2.076203930495217E-2  -4.604890563118693E1  
 4.500000000000000E8     1.857689720035363E-2  -5.290170328146780E1   9.967829969234271E-1  -6.046431041699146E1   9.959107161664177E-1  -6.078229309996542E1   2.374554229447711E-2  -5.198621693224462E1  
 5.000000000000000E8     1.962408586868043E-2  -6.308130474302273E1   9.957704439791344E-1  -6.721127210656415E1   9.966285668161093E-1  -6.748340608618416E1   2.459285287234033E-2  -6.475623954477317E1  
 5.500000000000000E8     1.670514603786897E-2  -7.359409345761857E1   9.946306324327073E-1  -7.387745046768816E1   9.950563272401238E-1  -7.426559326936641E1   2.570319105900528E-2  -7.306144300522698E1  
 6.000000000000000E8     1.571609665443119E-2  -9.236833353331194E1   9.946819627153605E-1  -8.069158180266336E1   9.942337778791938E-1  -8.102419596423441E1   2.826351206143453E-2  -8.434548254056965E1  
 6.500000000000000E8     1.342036490472538E-2  -9.874043832400874E1   9.943776991460839E-1  -8.735008855208055E1   9.943115315647233E-1  -8.777045154391330E1   3.102169747516967E-2  -9.817787027453467E1  
 7.000000000000000E8     1.221057726749834E-2  -1.315250689210979E2   9.942197274597131E-1  -9.412346281206830E1   9.940784056820705E-1  -9.451568464870150E1   3.142045728275119E-2  -1.130438717519439E2  
 7.500000000000000E8     8.320398290567284E-3  -1.658468042242694E2   9.939470976832157E-1  -1.008425725071885E2   9.934681727661797E-1  -1.012756137522963E2   3.232871446388252E-2  -1.278858412925981E2  
 8.000000000000000E8     1.245954491224887E-2   1.530469761260881E2   9.933634743184893E-1  -1.075457091502009E2   9.925500749925984E-1  -1.079460646091915E2   3.171260853480613E-2  -1.449976986126225E2  
 8.500000000000000E8     1.431712790380992E-2   1.293139581199002E2   9.931693846163661E-1  -1.143309985791451E2   9.922944133575306E-1  -1.147828945135180E2   3.501973888363076E-2  -1.587475304537718E2  
 9.000000000000000E8     1.972058680654879E-2   1.118750788464319E2   9.920153786173055E-1  -1.210581700699959E2   9.915575209154454E-1  -1.214725686584365E2   3.867847307769119E-2  -1.712158969844900E2  
 9.500000000000000E8     2.299035556143316E-2   1.027125915312413E2   9.912370178651048E-1  -1.277438419977888E2   9.912860323938492E-1  -1.282199875283818E2   4.052216763052912E-2   1.782398290045416E2  
 1.000000000000000E9     2.760156983349803E-2   9.664407116465618E1   9.908487921096220E-1  -1.344934803028233E2   9.903678097419157E-1  -1.349870061769956E2   4.299483073287733E-2   1.668146128532121E2  
 1.050000000000000E9     2.951397228060092E-2   8.921419147893165E1   9.908271313305469E-1  -1.411842323955287E2   9.902838232321379E-1  -1.417393509057039E2   4.287462342927123E-2   1.583480372733591E2  
 1.100000000000000E9     3.249839973092147E-2   8.360030606222333E1   9.898535714449177E-1  -1.479339985275286E2   9.894055359812565E-1  -1.484162149766332E2   4.476373265910284E-2   1.474160866469187E2  
 1.150000000000000E9     3.499120676932226E-2   7.706893044836963E1   9.897507034150154E-1  -1.546475781637877E2   9.890952746098685E-1  -1.551815422142576E2   4.387933514267479E-2   1.384159948907316E2  
 1.200000000000000E9     3.709020188228720E-2   7.287281445812127E1   9.890503036323838E-1  -1.613814849188578E2   9.885422450349786E-1  -1.619599448693923E2   4.554308810982211E-2   1.283431423924730E2  
 1.250000000000000E9     3.665785292021839E-2   6.714862312515837E1   9.887552725262301E-1  -1.681447087755444E2   9.881639110898971E-1  -1.686826614524784E2   4.144001837793739E-2   1.222901616975068E2  
 1.300000000000000E9     3.725236778177636E-2   6.196713788104346E1   9.888617692566314E-1  -1.748249713737212E2   9.888919719537085E-1  -1.754097828351670E2   4.114575233251017E-2   1.155892903329586E2  
 1.350000000000000E9     3.757131511341718E-2   5.661171852779324E1   9.890355367500618E-1   1.784414239837498E2   9.886043617353642E-1   1.778645109304563E2   3.681946216542294E-2   1.089868162880364E2  
 1.400000000000000E9     3.605267372161447E-2   5.223817348123460E1   9.883198019415039E-1   1.717478377455231E2   9.885373291833481E-1   1.711367003644010E2   3.538122900050689E-2   1.030888723875292E2  
 1.450000000000000E9     3.455671522250188E-2   4.515202058685814E1   9.886728324576225E-1   1.650618731551431E2   9.887598914949890E-1   1.643840635831165E2   3.092088351888301E-2   9.989491901799225E1  
 1.500000000000000E9     3.316623987204186E-2   4.169288218067872E1   9.883219791150382E-1   1.583282047554581E2   9.887984029106701E-1   1.576824749928271E2   2.877439918423706E-2   9.723200004966239E1  
 1.550000000000000E9     3.087626750769543E-2   3.324419304936206E1   9.888186176303546E-1   1.516573118296310E2   9.890691754535108E-1   1.509106422623950E2   2.366549071690005E-2   9.797752472575540E1  
 1.600000000000000E9     2.954743067090455E-2   2.579197532321070E1   9.895725688080213E-1   1.449313011991642E2   9.893902703925729E-1   1.442663361910636E2   2.190514436260039E-2   9.822707426367715E1  
 1.650000000000000E9     2.654784802244349E-2   1.423577990448888E1   9.901259433902404E-1   1.381950121467968E2   9.898129601083537E-1   1.375180311418155E2   1.980611158926264E-2   1.047187711821356E2  
 1.700000000000000E9     2.503243394557471E-2   4.026526459422938   9.902884657776525E-1   1.314999202083367E2   9.895904534826968E-1   1.308330272467105E2   1.955344987458156E-2   1.104010014400828E2  
 1.750000000000000E9     2.330748513817019E-2  -1.435815307807378E1   9.900069957512869E-1   1.248621718493995E2   9.902249027791782E-1   1.241255334875531E2   1.956036413943391E-2   1.187287132994629E2  
 1.800000000000000E9     2.406785380911283E-2  -2.787899250488495E1   9.900075606233558E-1   1.181345524192188E2   9.903115472862036E-1   1.174138544796108E2   1.939744627876170E-2   1.184047305383536E2  
 1.850000000000000E9     2.597135343432529E-2  -4.631057659165576E1   9.904991193929714E-1   1.114596576514749E2   9.903939586560728E-1   1.107206998163886E2   2.061845825443248E-2   1.163634233063763E2  
 1.900000000000000E9     2.855544952192335E-2  -6.068046573875380E1   9.899322730831891E-1   1.047952482148649E2   9.904443491906046E-1   1.040164221193212E2   2.126614312714372E-2   1.159704113108151E2  
 1.950000000000000E9     3.225205557104757E-2  -7.476041620765388E1   9.893975037049783E-1   9.814161203019928E1   9.902142115206496E-1   9.733541098374255E1   2.273760069088975E-2   1.118553631431195E2  
 2.000000000000000E9     3.641953411648662E-2  -8.636433828027096E1   9.894758921860581E-1   9.147327896692222E1   9.905482069294125E-1   9.062862425919194E1   2.486095523254936E-2   1.041971825613054E2  
 2.050000000000000E9     4.198291877717143E-2  -9.504860771387249E1   9.896284332373109E-1   8.472099057174901E1   9.902406282952336E-1   8.395350938537719E1   2.563388670130840E-2   9.682267112203302E1  
 2.100000000000000E9     4.517706451284396E-2  -1.042394834364354E2   9.905729035632778E-1   7.808864963347429E1   9.899603554055870E-1   7.726301511847413E1   2.608902174254643E-2   9.185206467331079E1  
 2.150000000000000E9     5.047836626636923E-2  -1.115311009870975E2   9.900450363826994E-1   7.140849895410696E1   9.895189859706275E-1   7.055221024458878E1   2.738871831867323E-2   8.609557170022556E1  
 2.200000000000000E9     5.380321073144035E-2  -1.192708820695058E2   9.897098918734270E-1   6.474453407828487E1   9.902061129342633E-1   6.388477237745511E1   2.759302254021071E-2   7.934119893956967E1  
 2.250000000000000E9     5.690418783807573E-2  -1.252105620044287E2   9.890652175481899E-1   5.804811083935812E1   9.900899127660305E-1   5.714344482897239E1   2.817977782960869E-2   7.140785756146728E1  
 2.300000000000000E9     5.662249247992610E-2  -1.322306262466634E2   9.890864719353067E-1   5.138194241192754E1   9.884834951812778E-1   5.047647128865078E1   3.081206852130203E-2   6.728288657382309E1  
 2.350000000000000E9     5.825937058691469E-2  -1.380362137324854E2   9.881394956222432E-1   4.470188175832571E1   9.890501250154449E-1   4.379641208791875E1   3.210446649240823E-2   6.303112380506550E1  
 2.400000000000000E9     5.685853088372945E-2  -1.454967338631523E2   9.883599530465370E-1   3.802886017312515E1   9.879097131472733E-1   3.715013219122306E1   3.501367108933362E-2   6.152979270991602E1  
 2.450000000000000E9     5.757890363380848E-2  -1.507529848380116E2   9.879423814852139E-1   3.128868061790022E1   9.877362416954167E-1   3.038777065963039E1   3.497701770806320E-2   5.723444660156468E1  
 2.500000000000000E9     5.418101269692958E-2  -1.591262557986423E2   9.879932342466296E-1   2.462727934311166E1   9.879190436874271E-1   2.367479900485863E1   3.874586562928036E-2   5.616909197273267E1  
 2.550000000000000E9     5.223087684843399E-2  -1.657524648050113E2   9.887964920162013E-1   1.789655752276069E1   9.877361957579559E-1   1.706086003018957E1   3.846565786615366E-2   5.160786056382136E1  
 2.600000000000000E9     4.941804651748232E-2  -1.767377217695092E2   9.888575734520748E-1   1.121579321931520E1   9.872028377088415E-1   1.028311416569246E1   4.195034763991280E-2   5.012336852983059E1  
 2.650000000000000E9     4.738288723334482E-2   1.750859991895385E2   9.880939378709182E-1   4.448056118470543   9.873573857539547E-1   3.655195393956405   4.172573235504888E-2   4.618080434900384E1  
 2.700000000000000E9     4.435497718906244E-2   1.638008393322701E2   9.869401715927012E-1  -2.221771866611467   9.869935329045373E-1  -3.053742035918617   4.467074061690481E-2   4.230186182258137E1  
 2.750000000000000E9     4.280032252117492E-2   1.520114482912165E2   9.869779362505107E-1  -8.975513046149839   9.865575693206339E-1  -9.774045975645763   4.589700853100933E-2   3.731033652414690E1  
 2.800000000000000E9     4.154611794807498E-2   1.382514820970701E2   9.873990499322415E-1  -1.569732596060586E1   9.861364726247621E-1  -1.657162613709239E1   4.786037581692001E-2   3.219975340466986E1  
 2.850000000000000E9     4.179683036097663E-2   1.250372796568146E2   9.871473780796958E-1  -2.241902569429897E1   9.870387237793127E-1  -2.328698383221248E1   4.900498147277523E-2   2.571384637611326E1  
 2.900000000000000E9     4.482882398954409E-2   1.108617381705890E2   9.872703496885381E-1  -2.918914229396127E1   9.870196440182604E-1  -3.003348450091189E1   5.019742042843496E-2   1.971225256160782E1  
 2.950000000000000E9     4.378271253244994E-2   9.928641033907699E1   9.863828143081980E-1  -3.593022420806527E1   9.863082670010532E-1  -3.681630779834291E1   5.114274109387887E-2   1.172232669063543E1  
 3.000000000000000E9     4.591667840330348E-2   8.762838539987465E1   9.866690592958890E-1  -4.266420361835109E1   9.861925236332200E-1  -4.364776144117735E1   5.150223007848374E-2   6.721480483600366  
 3.050000000000000E9     4.546872131958162E-2   7.873229734489330E1   9.855995110650935E-1  -4.943512339767469E1   9.863392537034373E-1  -5.042727183368515E1   5.048559776167518E-2  -2.467497029899614  
 3.100000000000000E9     4.946608467496746E-2   6.716685548110594E1   9.858297162493556E-1  -5.610236646610791E1   9.837194336639812E-1  -5.725062492081288E1   5.123403237794251E-2  -8.500864514360627  
 3.150000000000000E9     4.883007066294162E-2   6.067691169030277E1   9.841609867672638E-1  -6.282269249542634E1   9.838368900427956E-1  -6.404969982707200E1   4.962620316222387E-2  -1.648684044910708E1  
 3.200000000000000E9     5.109393959433157E-2   5.281177999156410E1   9.827758055969553E-1  -6.957740967448066E1   9.838259311348132E-1  -7.071113032082380E1   4.882234150272116E-2  -2.344835123600936E1  
 3.250000000000000E9     5.057801448400596E-2   4.700549658936048E1   9.836681509361511E-1  -7.627886158524797E1   9.838627281307227E-1  -7.746838044083900E1   4.450017106512236E-2  -3.167575890484843E1  
 3.300000000000000E9     4.973150396010706E-2   4.120432968074968E1   9.831251731389094E-1  -8.291644369070765E1   9.844978908978302E-1  -8.408431224808059E1   4.310560091925816E-2  -4.154285569138525E1  
 3.350000000000000E9     4.724287076234979E-2   3.556236909297115E1   9.831386101757722E-1  -8.958974920070368E1   9.855374343974477E-1  -9.075550100419321E1   3.888578615613786E-2  -5.053504233196429E1  
 3.400000000000000E9     4.519326971438748E-2   3.118508087987297E1   9.836998922299884E-1  -9.622869015509629E1   9.847577388286033E-1  -9.752585058610633E1   3.627686071032168E-2  -5.990463719931638E1  
 3.450000000000000E9     4.075321056758889E-2   2.626245497095701E1   9.835731754625990E-1  -1.029070814422867E2   9.858632308462579E-1  -1.043068748873274E2   3.211179476724518E-2  -7.146245488556536E1  
 3.500000000000000E9     3.946917005956755E-2   2.232446099762674E1   9.865944726095967E-1  -1.095032126375373E2   9.868956745628175E-1  -1.110829151374261E2   2.764605780866535E-2  -8.498281800535369E1  
 3.550000000000000E9     3.271365452054624E-2   1.969788200514363E1   9.886763142627935E-1  -1.162335155935734E2   9.875020978090388E-1  -1.178581390771655E2   2.431390948633339E-2  -9.903272369665562E1  
 3.600000000000000E9     3.001423865391650E-2   1.884140913730808E1   9.903187980102036E-1  -1.230905049429748E2   9.867769466786940E-1  -1.246323627437408E2   2.036376204219058E-2  -1.147966048075095E2  
 3.650000000000000E9     2.591001680052254E-2   1.758872943866901E1   9.896619154071753E-1  -1.299283426152455E2   9.868029514783218E-1  -1.313164487543289E2   2.019675705780873E-2  -1.424937852194260E2  
 3.700000000000000E9     2.225410235487834E-2   1.719196850103460E1   9.896623335851997E-1  -1.367104977579076E2   9.868236243659038E-1  -1.380401885612181E2   2.000918140772281E-2  -1.582213035842621E2  
 3.750000000000000E9     1.562673226608865E-2   2.230452772854083E1   9.889074460611104E-1  -1.434626350265530E2   9.872965017915224E-1  -1.447898604832062E2   2.118561807811681E-2  -1.767511506208868E2  
 3.800000000000000E9     1.352478378571919E-2   4.023204484248132E1   9.873807657688479E-1  -1.501521184209699E2   9.870082005672125E-1  -1.515252444107915E2   2.017129912828348E-2   1.642204563860279E2  
 3.850000000000000E9     1.331647570003900E-2   7.276076597419647E1   9.870309450392781E-1  -1.568868377236961E2   9.872527727078326E-1  -1.582172711723721E2   2.327108226203547E-2   1.460296454850090E2  
 3.900000000000000E9     1.652629661944117E-2   8.823888531225904E1   9.878828726696868E-1  -1.636098319675791E2   9.856695857809098E-1  -1.650167956693983E2   2.554950414618155E-2   1.339349709520306E2  
 3.950000000000000E9     2.243606657757876E-2   1.006110920059492E2   9.871155768691908E-1  -1.703069906693409E2   9.854414740978637E-1  -1.716935276194485E2   2.801334624464144E-2   1.209409897707738E2  
 4.000000000000000E9     2.753257284045877E-2   1.011815515661345E2   9.871313399121811E-1  -1.770031083323181E2   9.868456639463155E-1  -1.783855980602141E2   3.158435829694000E-2   1.075115519831382E2  
 4.050000000000000E9     3.284823954686517E-2   1.019232112567291E2   9.865402519108356E-1   1.763724574783408E2   9.861405650525412E-1   1.748977834998696E2   3.415720228462200E-2   9.953789184753057E1  
 4.100000000000000E9     3.725084302083860E-2   9.955589165571257E1   9.857507031051613E-1   1.696140586925087E2   9.851260683025775E-1   1.681355356884166E2   3.644775953806299E-2   8.884410068071075E1  
 4.150000000000000E9     4.321933205249506E-2   9.643314277541072E1   9.856703193118009E-1   1.629047185320272E2   9.842184461147704E-1   1.614459062967287E2   3.971250468335377E-2   8.017656798872932E1  
 4.200000000000000E9     4.630816383359753E-2   9.155742368921236E1   9.852666738039835E-1   1.561735210261575E2   9.840599098672104E-1   1.547205682754741E2   4.314642745236409E-2   7.090835418712604E1  
 4.250000000000000E9     4.979123442191517E-2   8.627389085182220E1   9.845623462670131E-1   1.494504549225335E2   9.836467865216899E-1   1.480319050709719E2   4.728942351121310E-2   6.351193733708056E1  
 4.300000000000000E9     5.264408467949417E-2   7.929666082337080E1   9.844207860703229E-1   1.427280783355757E2   9.832955496287557E-1   1.413318310564893E2   5.218709178049114E-2   5.806818518347116E1  
 4.350000000000000E9     5.581350724918646E-2   7.399888405528421E1   9.843196383061008E-1   1.360726059998410E2   9.833480664816036E-1   1.346108302374995E2   5.565395170661814E-2   5.077297786961542E1  
 4.400000000000000E9     5.992118885959345E-2   6.535672890183352E1   9.843755456241449E-1   1.293655238291039E2   9.828885840916933E-1   1.278995891210530E2   5.946472794263242E-2   4.421345438061435E1  
 4.450000000000000E9     6.056483904232393E-2   5.975715137508958E1   9.845114483753242E-1   1.226818087212224E2   9.833466209544146E-1   1.211952226602139E2   6.175311019468647E-2   3.748886786010693E1  
 4.500000000000000E9     6.390049237427344E-2   5.115632962124348E1   9.843839735808690E-1   1.159885595707817E2   9.829224204978179E-1   1.144826757042346E2   6.571730152586316E-2   3.036964379490089E1  
 4.550000000000000E9     6.568642155297758E-2   4.495162664662761E1   9.838847385652640E-1   1.092537245579220E2   9.831402354918852E-1   1.077957070354625E2   6.754787392058367E-2   2.470901423323835E1  
 4.600000000000000E9     6.805929661223234E-2   3.624003598295231E1   9.837731853715734E-1   1.025860199641623E2   9.835528632552750E-1   1.010784788457413E2   6.921364772036130E-2   1.605848477785617E1  
 4.650000000000000E9     7.021235879813854E-2   2.851159118761600E1   9.842497488791018E-1   9.589413758104278E1   9.841454720235979E-1   9.437812153563736E1   7.053884928863374E-2   1.136928547687504E1  
 4.700000000000000E9     7.213740438642158E-2   1.974729817634913E1   9.849030170091960E-1   8.925291688005214E1   9.835688898119762E-1   8.766079600142997E1   7.010920531338923E-2   4.944907555679241  
 4.750000000000000E9     7.491538466690620E-2   1.296162913019400E1   9.855214488566416E-1   8.258262157067657E1   9.842732476098460E-1   8.098032681519814E1   6.898958926434823E-2  -8.275929323207047E-1  
 4.800000000000000E9     7.764086535598308E-2   4.475459282659041   9.855456295425192E-1   7.589983845665313E1   9.844376223413470E-1   7.431915236195090E1   6.715593081750186E-2  -8.441214068105500  
