#  HZ   S   MA   R     50.00 
! Rohde & Schwarz ZVA67 4Ports - Version 4.11 - 1305.7002k04 SN: 101051
! Date: 2023-09-13 16:01:50
! Measurements: S11 S21 S12 S22 
! 
 6.705000000000000E10    5.762855082584803E-2   8.404261657053270E1   3.536248141473579E-1   1.726314957157236E1   3.540738440190995E-1   2.168021515013275E1   5.011730755704412E-1   1.531030755525782E2  
 6.710000000000000E10    1.161474604393106E-1  -2.532251034052262E1   3.591465892278260E-1  -2.626649979226894E1   3.595781637534244E-1  -2.162978393791868E1   4.785027192443047E-1   1.421158569877222E2  
 6.715000000000000E10    1.675517619948970E-1  -7.480603407271912E1   3.647155179415128E-1  -6.965796619846027E1   3.650137426203134E-1  -6.493158464844053E1   4.513245661652633E-1   1.307463035297937E2  
 6.720000000000000E10    1.567225932892254E-1  -1.101245324750938E2   3.711027993704705E-1  -1.133394763790464E2   3.716721038939954E-1  -1.087772214828943E2   4.107346281264186E-1   1.217471986476570E2  
 6.725000000000000E10    1.045681099918102E-1  -1.197893381795522E2   3.736173034090484E-1  -1.579707182920248E2   3.743968203679032E-1  -1.535908761560328E2   3.866677292162884E-1   1.176934085440454E2  
 6.730000000000000E10    1.347136402389219E-1  -9.818686297774272E1   3.653037109383564E-1   1.571297246950923E2   3.656653705471222E-1   1.616905897395369E2   4.156968019871934E-1   1.142347795131306E2  
 6.735000000000000E10    2.266471559528794E-1  -1.156496016759317E2   3.492689146338037E-1   1.139764699251060E2   3.497076328255535E-1   1.186255903038139E2   4.740946049497816E-1   1.034612595571773E2  
 6.740000000000000E10    2.895810868561251E-1  -1.468731650526280E2   3.373791091659346E-1   7.293450459795182E1   3.376021532620311E-1   7.757371922603969E1   5.176501769990688E-1   8.731718328325225E1  
 6.745000000000000E10    2.975441702571395E-1   1.787137680847266E2   3.361010149778910E-1   3.254018005011440E1   3.359980340861301E-1   3.745794394337984E1   5.260514479591902E-1   6.892746910503489E1  
 6.750000000000000E10    2.511705558128111E-1   1.411918526574083E2   3.453466640404537E-1  -7.963337637182962   3.456141570017807E-1  -3.232007949640443   5.050013398040536E-1   5.113302462958180E1  
 6.755000000000000E10    1.533436156056627E-1   9.635605844593560E1   3.592252111377052E-1  -5.019857660332708E1   3.599402760088073E-1  -4.548571002385587E1   4.620428490450413E-1   3.524474290489017E1  
 6.760000000000000E10    4.932331556762846E-2   9.031557635649483   3.709360961443277E-1  -9.372365395790588E1   3.708089876392776E-1  -8.910795459419641E1   4.290116412559251E-1   2.197341071956500E1  
 6.765000000000000E10    1.011448182315367E-1  -1.156298954470907E2   3.749597846859264E-1  -1.375563894808642E2   3.748772934204141E-1  -1.327857876671228E2   4.077973214191561E-1   8.949539213710796  
 6.770000000000000E10    1.578444706766956E-1  -1.619923806583138E2   3.777347197381268E-1   1.792748995137366E2   3.775381351854164E-1  -1.762222092786542E2   3.852976465377734E-1  -5.471056953062409  
 6.775000000000000E10    1.595803794431704E-1   1.643799504962940E2   3.818461639315521E-1   1.360418815529461E2   3.824448901140861E-1   1.403476738227796E2   3.473895542730751E-1  -1.891139843070655E1  
 6.780000000000000E10    1.205755946936499E-1   1.476527342659180E2   3.857046110088934E-1   9.179604894777313E1   3.859227026993529E-1   9.631787633797865E1   3.094614702435818E-1  -2.556089634478555E1  
 6.785000000000000E10    1.178432410162659E-1   1.590699213852253E2   3.812636057794739E-1   4.705242251447952E1   3.818187997968244E-1   5.166047815363049E1   3.222041753243263E-1  -2.724809533721824E1  
 6.790000000000000E10    1.804318325165807E-1   1.494737788920933E2   3.672187035807712E-1   3.417323032330508   3.681887716876182E-1   7.988003731657307   3.886330967343105E-1  -3.620183933698680E1  
 6.795000000000000E10    2.326765519642534E-1   1.197419129528574E2   3.525077724402481E-1  -3.877414809096429E1   3.538480452252450E-1  -3.410152576758105E1   4.549246815282793E-1  -5.270069807488665E1  
 6.800000000000000E10    2.471263038199916E-1   8.277087176276567E1   3.460093231912892E-1  -7.950586900003844E1   3.457215333425023E-1  -7.484951142222442E1   4.928509134319606E-1  -7.157297300686831E1  
 6.805000000000000E10    2.264942060194068E-1   3.891262198473505E1   3.464757025260887E-1  -1.200680607950841E2   3.466531527869530E-1  -1.154528198468758E2   5.000161251034209E-1  -9.042106939873746E1  
 6.810000000000000E10    1.845715109081045E-1  -1.348218743907528E1   3.533437406905967E-1  -1.611027731237777E2   3.540463042353246E-1  -1.566881496930837E2   4.821906776874784E-1  -1.072806335687085E2  
 6.815000000000000E10    1.418098861959869E-1  -7.808909057371307E1   3.620037359197098E-1   1.565003242969759E2   3.621641049953381E-1   1.610028664931892E2   4.601967146343184E-1  -1.217351779258443E2  
 6.820000000000000E10    1.237137331710756E-1  -1.503189337618905E2   3.684499854069069E-1   1.136092420699233E2   3.697442402996076E-1   1.181858002902093E2   4.401348182937122E-1  -1.340884836228333E2  
 6.825000000000000E10    1.109146550245669E-1   1.435211936697730E2   3.733896266732394E-1   7.063453816063361E1   3.735908885563727E-1   7.512152278786506E1   4.214124621906451E-1  -1.454228564392551E2  
 6.830000000000000E10    8.176724266784290E-2   8.105513919257726E1   3.764589935510635E-1   2.750580974191476E1   3.778875056626656E-1   3.192018934666606E1   4.024107789506408E-1  -1.550354811228430E2  
 6.835000000000000E10    3.695543801748900E-2   1.230744044203428E1   3.801909420193758E-1  -1.624398756275518E1   3.796614678151072E-1  -1.158850598827621E1   3.872063376615678E-1  -1.621356088937645E2  
 6.840000000000000E10    2.090276183085391E-2  -1.652616446899197E2   3.760567673361881E-1  -6.027948780503668E1   3.770740825898112E-1  -5.547491895929282E1   3.965406134556223E-1  -1.669773557543035E2  
 6.845000000000000E10    6.196215271031909E-2   9.963237674531571E1   3.676763539213128E-1  -1.038509354894383E2   3.670282451622444E-1  -9.909935236476242E1   4.348288750392886E-1  -1.736095491196785E2  
 6.850000000000000E10    1.053710694672164E-1   2.909145464463701E1   3.527870861267025E-1  -1.466798750965348E2   3.535622156875133E-1  -1.417134927730949E2   4.852390702782702E-1   1.759940292824854E2  
 6.855000000000000E10    1.595173096200911E-1  -3.247387078673843E1   3.399196146523111E-1   1.721759323994025E2   3.402494545713938E-1   1.768660784915938E2   5.291282632420956E-1   1.626765698146759E2  
 6.860000000000000E10    2.172096745632454E-1  -8.469002043133074E1   3.322392670199335E-1   1.321483714731413E2   3.322126893825436E-1   1.366868120769397E2   5.531593459724531E-1   1.481586971436546E2  
 6.865000000000000E10    2.566031977166823E-1  -1.314962437812302E2   3.316032428602548E-1   9.235661925323132E1   3.318362320484827E-1   9.700923414611697E1   5.547037051765041E-1   1.332597513799293E2  
 6.870000000000000E10    2.590761684318618E-1  -1.742861483393646E2   3.397368505615785E-1   5.218908691997334E1   3.402195612837929E-1   5.699259500063220E1   5.308198205234412E-1   1.190401066810247E2  
 6.875000000000000E10    2.113731278529377E-1   1.445333091953259E2   3.536173878226052E-1   1.099873999802072E1   3.536507783734399E-1   1.554166179050886E1   4.881622177251647E-1   1.068613105071618E2  
 6.880000000000000E10    1.157966672042305E-1   1.070768800359430E2   3.665682407599850E-1  -3.181550933071459E1   3.671121259743577E-1  -2.725143744899090E1   4.434967102891823E-1   9.834714329402425E1  
 6.885000000000000E10    2.333036466947634E-2   1.535333214174442E2   3.741568216369925E-1  -7.560533806013758E1   3.743299819925354E-1  -7.076267802986767E1   4.230333681017640E-1   9.301385961942876E1  
 6.890000000000000E10    9.820957593602742E-2   1.798837104797053E2   3.744497610696856E-1  -1.191573009193688E2   3.741325726275423E-1  -1.142697476449786E2   4.248453199973404E-1   8.670795102674438E1  
 6.895000000000000E10    1.294498150796128E-1   1.443839389946556E2   3.723318707656118E-1  -1.623401207918051E2   3.725583877733311E-1  -1.573965277576403E2   4.302354677687443E-1   7.894043911603826E1  
 6.900000000000000E10    8.800512178145627E-2   1.095110487259745E2   3.687734085075104E-1   1.545431602778350E2   3.694187752145431E-1   1.595324852170167E2   4.376658430658481E-1   7.135375725202442E1  
 6.905000000000000E10    2.269327960537456E-2  -1.681432292844270E2   3.611061703480000E-1   1.115424612995143E2   3.617268944157171E-1   1.163664182340506E2   4.597477215011093E-1   6.387217494603971E1  
 6.910000000000000E10    1.393324920709093E-1  -1.659163286685605E2   3.478574477163892E-1   6.935881510442036E1   3.476333081204887E-1   7.410105040513180E1   4.986571770594575E-1   5.348707056555143E1  
 6.915000000000000E10    2.438222250897455E-1   1.597785074851713E2   3.343576571614236E-1   2.865496035217590E1   3.344693594668143E-1   3.358400226228015E1   5.351321549929536E-1   3.951169628127409E1  
 6.920000000000000E10    3.025898274064127E-1   1.253149970487452E2   3.287492558998799E-1  -1.051078333984810E1   3.290797189468411E-1  -5.697504537766475   5.460042288167044E-1   2.315164988401627E1  
 6.925000000000000E10    3.089461475311289E-1   9.142132587689022E1   3.351946192730134E-1  -4.961954222435990E1   3.356545868482304E-1  -4.458061254358759E1   5.265396918489959E-1   6.303014110398630  
 6.930000000000000E10    2.602796785194365E-1   5.796914690708414E1   3.513513986683154E-1  -8.984237283370901E1   3.521509888484657E-1  -8.490367005283198E1   4.745570393885851E-1  -9.143459098318806  
 6.935000000000000E10    1.593762391226534E-1   2.915498121398773E1   3.690034828625683E-1  -1.322918104265826E2   3.704263530638349E-1  -1.271449058120029E2   4.101973358397149E-1  -1.978082204799614E1  
 6.940000000000000E10    6.082357757490715E-2   4.196164224709898E1   3.801949912796103E-1  -1.760052173964194E2   3.810641346683906E-1  -1.708774860376643E2   3.740073173258968E-1  -2.537457460867558E1  
 6.945000000000000E10    1.094012414984476E-1   7.788434890098762E1   3.830403220217187E-1   1.403548436936231E2   3.829640288601229E-1   1.455617313842921E2   3.758986073253890E-1  -3.143018062206907E1  
 6.950000000000000E10    1.551136364967028E-1   5.371534905839476E1   3.811903927191445E-1   9.744905397052828E1   3.812305118531597E-1   1.025768213314729E2   3.836254827359950E-1  -4.093570640328298E1  
 6.955000000000000E10    1.372753992969374E-1   2.430595392778303E1   3.804373538836403E-1   5.481438228549866E1   3.817843852468401E-1   5.972846864517743E1   3.787012506954732E-1  -5.039366972373630E1  
 6.960000000000000E10    7.277831407896980E-2   1.315180210667089E1   3.788355778897322E-1   1.175404537997708E1   3.789294257099665E-1   1.648341795254213E1   3.813663172316574E-1  -5.739494337290046E1  
 6.965000000000000E10    8.669958972268764E-2   6.518008330859958E1   3.690794710567910E-1  -3.130857914888788E1   3.693741299175060E-1  -2.664444290343262E1   4.138108651420258E-1  -6.471820060726884E1  
 6.970000000000000E10    1.852108684059226E-1   4.948525975213380E1   3.548334187027594E-1  -7.318046815809957E1   3.551851481889000E-1  -6.840990719518948E1   4.654356168672258E-1  -7.680229474145673E1  
 6.975000000000000E10    2.587378499950290E-1   1.745985515826976E1   3.424410387995209E-1  -1.134860832148602E2   3.433146870822683E-1  -1.086156580453991E2   5.055307222150021E-1  -9.275672618124989E1  
 6.980000000000000E10    2.895892995853196E-1  -1.699317353278327E1   3.399263875409290E-1  -1.526685297940875E2   3.402190531128749E-1  -1.478675548132119E2   5.142121218500791E-1  -1.103552171929914E2  
 6.985000000000000E10    2.752943577145440E-1  -5.203769708305227E1   3.466652265303089E-1   1.677877235630432E2   3.476863884137675E-1   1.729232245309605E2   4.903562478551796E-1  -1.274127063170771E2  
 6.990000000000000E10    2.127596609576437E-1  -8.728914166088718E1   3.615659308853747E-1   1.270212717960433E2   3.620972664194979E-1   1.322843107341597E2   4.405668426574228E-1  -1.420908870536863E2  
 6.995000000000000E10    1.121504250534582E-1  -1.165511964531580E2   3.764969523158190E-1   8.471623292568930E1   3.767984396853061E-1   8.990993039477809E1   3.874423185185658E-1  -1.521144908937127E2  
 7.000000000000000E10    4.316327912578230E-2  -6.876775782637985E1   3.839703055696022E-1   4.144268436220963E1   3.842476036045268E-1   4.654882022593323E1   3.606551054808982E-1  -1.579008838733663E2  
 7.005000000000000E10    1.157936117629514E-1  -5.509452413222102E1   3.841239956098352E-1  -1.395073991074934   3.844268443380848E-1   3.470389780600891   3.592724764451695E-1  -1.647948655815399E2  
 7.010000000000000E10    1.579086863438275E-1  -8.359443682396135E1   3.833482470583849E-1  -4.397615659643078E1   3.841118631571788E-1  -3.906813398399878E1   3.568594251845670E-1  -1.738135855385033E2  
 7.015000000000000E10    1.446003654228246E-1  -1.087642124977941E2   3.846184289568603E-1  -8.655598696569349E1   3.845091452544522E-1  -8.166666247048704E1   3.422075112337289E-1   1.785314241125934E2  
 7.020000000000000E10    1.036511111927529E-1  -1.101137180715978E2   3.814284938417281E-1  -1.295728511050118E2   3.814534607590033E-1  -1.246702891946199E2   3.431781468686301E-1   1.749526576804699E2  
 7.025000000000000E10    1.399453096160510E-1  -9.267043065873077E1   3.701281682277386E-1  -1.725645532894673E2   3.705583629777793E-1  -1.675574666181246E2   3.854660241723812E-1   1.699733372385834E2  
 7.030000000000000E10    2.322476441376629E-1  -1.086887661004762E2   3.544055916011296E-1   1.458708455524181E2   3.545807961040303E-1   1.509344005006254E2   4.488887919268858E-1   1.582687617687050E2  
 7.035000000000000E10    3.033896549680710E-1  -1.362531057113428E2   3.423065036774740E-1   1.059771812998663E2   3.420102741546622E-1   1.114758649370581E2   4.922949496664796E-1   1.419569361900280E2  
 7.040000000000000E10    3.279157608109219E-1  -1.661201136644911E2   3.400017246294708E-1   6.716267253140637E1   3.403113728290232E-1   7.291346460780380E1   4.994015964432851E-1   1.236709770614958E2  
 7.045000000000000E10    3.028804229561879E-1   1.639163965768162E2   3.498119449539487E-1   2.804211472932109E1   3.495299697850869E-1   3.386868408458133E1   4.685039869328703E-1   1.060769231868040E2  
 7.050000000000000E10    2.240696602617015E-1   1.362959707454469E2   3.662661150589808E-1  -1.241315450177894E1   3.664508734514816E-1  -6.889745879867489   4.076700098892310E-1   9.163168902079056E1  
 7.055000000000000E10    1.173941895797435E-1   1.254189748121786E2   3.808517920210764E-1  -5.484394899850493E1   3.813830390135526E-1  -4.950826288322065E1   3.466438232418185E-1   8.363005211079013E1  
 7.060000000000000E10    9.905441248382171E-2   1.654991292941422E2   3.873893002309616E-1  -9.811179055837491E1   3.871454684815271E-1  -9.273805289373784E1   3.264905314527692E-1   7.959610566117949E1  
 7.065000000000000E10    1.665205154142955E-1   1.627117721591731E2   3.869068323472557E-1  -1.408011553162635E2   3.872081279863222E-1  -1.354519881131248E2   3.281919208849228E-1   7.225511945694534E1  
 7.070000000000000E10    1.907504887737336E-1   1.435871674300437E2   3.869416560484280E-1   1.768704225618097E2   3.868158287127365E-1  -1.777905300239413E2   3.130503335468908E-1   6.249039335441660E1  
 7.075000000000000E10    1.731062650614407E-1   1.314523646597767E2   3.867495233316262E-1   1.343578858828270E2   3.867778876520994E-1   1.395533097340226E2   2.839335482172387E-1   5.744814817374494E1  
 7.080000000000000E10    1.736330230835713E-1   1.351497843949088E2   3.808008524139023E-1   9.135865965211949E1   3.810259721469731E-1   9.654000108173887E1   2.924712454179937E-1   5.871541416585014E1  
 7.085000000000000E10    2.363790909438592E-1   1.312542907695556E2   3.667012705842348E-1   4.895969114492110E1   3.670960251986827E-1   5.439528488407401E1   3.573151336287059E-1   5.366041447278013E1  
 7.090000000000000E10    3.111714972376519E-1   1.117611241056280E2   3.514361665128814E-1   8.135870842067767   3.510610282030868E-1   1.403109650697714E1   4.276873241127969E-1   3.826724331047873E1  
 7.095000000000000E10    3.507458553421526E-1   8.609742053863413E1   3.425624641502511E-1  -3.081434615358872E1   3.427031777668447E-1  -2.493687354873712E1   4.650016543144609E-1   1.850728127750193E1  
 7.100000000000000E10    3.471074156386958E-1   5.876013023551202E1   3.447006684948177E-1  -6.924515263064698E1   3.451195075916251E-1  -6.360082246575129E1   4.602997150118976E-1  -2.635158666642055  
 7.105000000000000E10    2.945988123115372E-1   3.117565177970814E1   3.583763852369937E-1  -1.087053866031349E2   3.584806825384474E-1  -1.030339851677653E2   4.169589265076659E-1  -2.220175193654519E1  
 7.110000000000000E10    1.994899609397013E-1   5.949851647536104   3.758459980788446E-1  -1.498088620488678E2   3.758403061876843E-1  -1.442914439331974E2   3.480575829336623E-1  -3.763372797268696E1  
 7.115000000000000E10    9.918858437681208E-2   1.896652803978554   3.883062968604229E-1   1.676430765145055E2   3.892516107002988E-1   1.729973325631661E2   2.903929198844338E-1  -4.592061870122520E1  
 7.120000000000000E10    9.338786994277117E-2   4.084499651103927E1   3.937824671837376E-1   1.247256924849373E2   3.944930912994483E-1   1.298106392734444E2   2.734319037959752E-1  -5.050357847981563E1  
 7.125000000000000E10    1.434837880131179E-1   3.683569166660166E1   3.932882636570763E-1   8.205025087656085E1   3.939810927652743E-1   8.696791634363517E1   2.705342390513917E-1  -5.886607649416717E1  
 7.130000000000000E10    1.569971040135339E-1   2.106546509753624E1   3.934627826752690E-1   3.952731699180298E1   3.935462103029567E-1   4.455526371321628E1   2.533302943376049E-1  -6.796871083265290E1  
 7.135000000000000E10    1.529991137686339E-1   1.503292723587909E1   3.899139586602350E-1  -3.230249149991763   3.905029985136191E-1   1.982792227465447   2.348663220692220E-1  -6.965591777746482E1  
 7.140000000000000E10    1.815984534489653E-1   1.528129745117411E1   3.808849818343312E-1  -4.609084283281855E1   3.814153127989262E-1  -4.058495568482378E1   2.683395670901129E-1  -6.800856275170118E1  
 7.145000000000000E10    2.531926500153793E-1   2.323133448932992   3.652870910634602E-1  -8.802992916368355E1   3.666273379749162E-1  -8.244967752652421E1   3.482250604712499E-1  -7.710464775242524E1  
 7.150000000000000E10    3.191385195263130E-1  -2.126687040984408E1   3.501244455915746E-1  -1.281264401127745E2   3.508818306843809E-1  -1.225941165186935E2   4.192774311657593E-1  -9.464051449403689E1  
 7.155000000000000E10    3.534601341948999E-1  -4.830713292119880E1   3.424379329527912E-1  -1.667606917012621E2   3.425084363506596E-1  -1.613694936340869E2   4.555242305047287E-1  -1.149046281957775E2  
 7.160000000000000E10    3.459826163334073E-1  -7.690002903549720E1   3.448621246101532E-1   1.548503726062833E2   3.456628766188700E-1   1.601881498427426E2   4.519707123258653E-1  -1.355908128666774E2  
 7.165000000000000E10    2.969293332345467E-1  -1.051059978244359E2   3.573782562708575E-1   1.156492292861731E2   3.578624138226674E-1   1.208202880370742E2   4.079165727513274E-1  -1.544591451434231E2  
 7.170000000000000E10    2.096448770905614E-1  -1.287477346571491E2   3.745082478148842E-1   7.481253606756134E1   3.748692071689873E-1   7.975491951836422E1   3.380909603888211E-1  -1.678471747278736E2  
 7.175000000000000E10    1.227130693693109E-1  -1.327195883685827E2   3.869408101841250E-1   3.219570924633653E1   3.878332052744188E-1   3.725595901261706E1   2.841928219085316E-1  -1.718213187514698E2  
 7.180000000000000E10    1.161843900703966E-1  -1.110205235146851E2   3.921266113249145E-1  -1.088308253297791E1   3.918745890521406E-1  -5.735134716177909   2.801264224799965E-1  -1.720898567818263E2  
