#  HZ   S   MA   R     50.00 
! Rohde & Schwarz ZVA67 4Ports - Version 4.11 - 1305.7002k04 SN: 101051
! Date: 2023-05-24 10:29:11
! Measurements: S11 S21 S12 S22 
! 
 2.699999900000000E7     1.386208748389823  -1.117044518297502E1   1.676995798111209E-1   7.928809295470775E1   1.686063157363457E-1   7.959562888327595E1   7.011412451943143E-1  -9.520780892705320  
 7.699999900000000E7     1.273247191790465  -2.659021216536820E1   4.379336170048256E-1   6.381234722271946E1   4.386342747156571E-1   6.352499056094441E1   6.354282703658373E-1  -2.600355861819371E1  
 1.269999990000000E8     1.101666006716942  -3.955239135213295E1   6.246543814226065E-1   5.089082108513656E1   6.242039136228470E-1   5.079802052633063E1   5.502467271613838E-1  -3.886543756758935E1  
 1.769999990000000E8     9.407431283845694E-1  -4.924344068057541E1   7.437452442736701E-1   4.125062697531006E1   7.428321905175447E-1   4.117241081985214E1   4.746040593977201E-1  -4.828834596096783E1  
 2.269999990000000E8     8.090830552456297E-1  -5.644458413581042E1   8.188942757934997E-1   3.424433289589433E1   8.184764682189335E-1   3.416795573681501E1   4.075220084842202E-1  -5.513980230347185E1  
 2.769999990000000E8     6.986335900365480E-1  -6.169498347762542E1   8.654162480833049E-1   2.905995172755394E1   8.645264602072914E-1   2.900852061522015E1   3.593113992390047E-1  -6.030851763622431E1  
 3.269999990000000E8     6.122268586133184E-1  -6.583037231262730E1   8.974773158260804E-1   2.506762499293578E1   8.965033614067201E-1   2.497123843166411E1   3.195506150882371E-1  -6.421653768060379E1  
 3.769999990000000E8     5.421000436641641E-1  -6.917823191786076E1   9.191559765572451E-1   2.179564741000565E1   9.184214792607662E-1   2.180081531380726E1   2.866369642696748E-1  -6.732586332325997E1  
 4.269999990000000E8     4.866833424658449E-1  -7.190100445356990E1   9.352574097526010E-1   1.925102475996251E1   9.344173620122751E-1   1.922042259260940E1   2.604681408423869E-1  -6.978781254224806E1  
 4.769999990000000E8     4.443380489017514E-1  -7.410640489553332E1   9.457903547855810E-1   1.713345121450499E1   9.452380319425804E-1   1.706378680722723E1   2.370518463165963E-1  -7.191713616221144E1  
 5.269999990000000E8     4.069409288845556E-1  -7.586578213428817E1   9.556298724796608E-1   1.537812039079548E1   9.547217625527510E-1   1.528694130391623E1   2.183624375867108E-1  -7.349987264205052E1  
 5.769999990000000E8     3.749522116754780E-1  -7.751372082964258E1   9.619837758650048E-1   1.389238585430034E1   9.611894372725729E-1   1.378786735384039E1   2.028793951876659E-1  -7.497826547950592E1  
 6.269999990000000E8     3.472325387572757E-1  -7.892473055549213E1   9.661336658054529E-1   1.259139584864992E1   9.653948213506454E-1   1.249281415423779E1   1.916676217865511E-1  -7.623673817784258E1  
 6.769999990000000E8     3.241880800386942E-1  -8.013314358584225E1   9.710878468847743E-1   1.150135512397792E1   9.704326143927995E-1   1.134684714044448E1   1.801333805932907E-1  -7.722796225606038E1  
 7.269999990000000E8     3.034832689689354E-1  -8.107985616285268E1   9.747006568128808E-1   1.044024764732263E1   9.739440961168460E-1   1.030238943498754E1   1.714435494421228E-1  -7.827403827291671E1  
 7.769999990000000E8     2.854612633415468E-1  -8.210459135739981E1   9.775654701800494E-1   9.560757730246582   9.763507276951521E-1   9.422931574483096   1.630590398287518E-1  -7.894496374368305E1  
 8.269999990000000E8     2.710157116858155E-1  -8.305628652450154E1   9.790154268624977E-1   8.736031234574673   9.783780581276899E-1   8.585259984040857   1.546722627888292E-1  -7.977375144110241E1  
 8.769999990000000E8     2.560113944774457E-1  -8.370780790151791E1   9.824072015777076E-1   8.027044791891427   9.811506850467722E-1   7.845504103636238   1.484582559451907E-1  -8.048526499820343E1  
 9.269999990000000E8     2.444384072854007E-1  -8.455747139638497E1   9.822364995416533E-1   7.337524330082794   9.813555574086347E-1   7.147536198874742   1.427808867267746E-1  -8.116376031949632E1  
 9.769999990000000E8     2.326081559989035E-1  -8.506160831176740E1   9.854643454797614E-1   6.736174731577094   9.839890610457581E-1   6.531818985889249   1.383680212087113E-1  -8.139114894571827E1  
 1.026999999000000E9     2.224587384182990E-1  -8.584058910470647E1   9.861711272690417E-1   6.196424032780601   9.847927719453035E-1   5.985862442875773   1.336921203880986E-1  -8.210995268885171E1  
 1.076999999000000E9     2.131587565511183E-1  -8.641818324658536E1   9.856984713753442E-1   5.644501370860879   9.848131973819055E-1   5.422197455899269   1.307464480114699E-1  -8.293499986491334E1  
 1.126999999000000E9     2.047416247567521E-1  -8.687812138249316E1   9.884124774107421E-1   5.174640170172733   9.873309995185783E-1   4.965148675676253   1.265086992631697E-1  -8.293204849035008E1  
 1.176999999000000E9     1.975039158575183E-1  -8.740313805726568E1   9.881685129112944E-1   4.668971992406751   9.872326672461710E-1   4.424837274050829   1.239369056817357E-1  -8.350049484555991E1  
 1.226999999000000E9     1.909792095331195E-1  -8.801563815107303E1   9.891055321513512E-1   4.232002900042343   9.877425857992805E-1   3.998869808770219   1.207177804702743E-1  -8.384111662445451E1  
 1.276999999000000E9     1.854879406814029E-1  -8.841878070703719E1   9.890824242551505E-1   3.808686917252496   9.883778714502182E-1   3.583939877262372   1.179299178497908E-1  -8.443846710003207E1  
 1.326999999000000E9     1.786232844306374E-1  -8.861684780971048E1   9.909509535408587E-1   3.412854673949596   9.895523968097002E-1   3.191455178476354   1.163104521488817E-1  -8.450528584728228E1  
 1.376999999000000E9     1.735188029561934E-1  -8.923950185224140E1   9.897338164544088E-1   3.046287248215943   9.888703377082142E-1   2.811322839442803   1.140019128749538E-1  -8.509689603930552E1  
 1.426999999000000E9     1.684848986793683E-1  -8.945147396446406E1   9.914584648842171E-1   2.675546849544902   9.905686200485965E-1   2.424820031413118   1.130436033200020E-1  -8.538348900384530E1  
 1.476999999000000E9     1.645502603580567E-1  -8.979447677352474E1   9.909708914388903E-1   2.356658698599489   9.901706513102294E-1   2.104415842389588   1.112261051697705E-1  -8.581552660153145E1  
 1.526999999000000E9     1.598297691808889E-1  -8.998780106967246E1   9.912986340431025E-1   2.012400247717552   9.904684600165024E-1   1.752124982666823   1.096992372989170E-1  -8.605609568603894E1  
 1.576999999000000E9     1.559254374340349E-1  -9.040154612912339E1   9.921775082384985E-1   1.707156203555548   9.914253228430495E-1   1.454565210519600   1.077132999031051E-1  -8.621629209890524E1  
 1.626999999000000E9     1.529722187861314E-1  -9.069250733971610E1   9.918019371068755E-1   1.366510337287926   9.907521200149634E-1   1.133963576418954   1.069157152367870E-1  -8.668536373797025E1  
 1.676999999000000E9     1.493297686064819E-1  -9.080257214354010E1   9.930397276031255E-1   1.076586073449573   9.917219239847068E-1   8.183111341906919E-1   1.056002594861301E-1  -8.672207101056100E1  
 1.726999999000000E9     1.455885850981558E-1  -9.101152468941999E1   9.923999159061795E-1   8.090194214791687E-1   9.917442394384370E-1   5.491836876502908E-1   1.045471624018946E-1  -8.721464700599459E1  
 1.776999999000000E9     1.422618581637090E-1  -9.124579945876577E1   9.931990138516474E-1   5.294364763187403E-1   9.922084673463684E-1   2.633016289958241E-1   1.043905533601169E-1  -8.732311532567032E1  
 1.826999999000000E9     1.401668090964628E-1  -9.156267576590905E1   9.927075057645238E-1   2.781449749872837E-1   9.919238137325919E-1  -2.863632266926934E-2   1.031614061031981E-1  -8.775890177427323E1  
 1.876999999000000E9     1.366241366741111E-1  -9.153042155913151E1   9.935974751003660E-1   2.395379998732941E-2   9.926523058788368E-1  -2.642703166468342E-1   1.023982421059603E-1  -8.794007833015481E1  
 1.926999999000000E9     1.207741571098853E-1  -8.652574398756323E1   9.891017964265558E-1   1.981676758129407   9.885740217079360E-1   1.679020084555597   1.206998855544245E-1  -8.813794126045534E1  
 1.976999999000000E9     1.179752940501665E-1  -8.688185237054439E1   9.896533985788312E-1   1.702663273112434   9.891282655030913E-1   1.396864829311053   1.180387779084600E-1  -8.831487713886857E1  
 2.026999999000000E9     1.154071698753768E-1  -8.726329265401401E1   9.905035039914054E-1   1.444948118324054   9.891294175479273E-1   1.125013576379406   1.150853147221926E-1  -8.866807102707332E1  
 2.076999999000000E9     1.129416974015435E-1  -8.742864380451317E1   9.899792768014235E-1   1.144095001068761   9.889261590945468E-1   8.427624485351675E-1   1.129499708041149E-1  -8.901691875704741E1  
 2.126999999000000E9     1.105761073517787E-1  -8.768172799577968E1   9.909887400179354E-1   8.726042980438886E-1   9.900122678583787E-1   5.587008405476239E-1   1.109926317493364E-1  -8.902931068386140E1  
 2.176999999000000E9     1.084000149764962E-1  -8.798283797983571E1   9.903056856313234E-1   6.461127070186209E-1   9.897943695347851E-1   3.149813657586667E-1   1.086471726843935E-1  -8.944437322075292E1  
 2.226999999000000E9     1.063463336592639E-1  -8.833335333151379E1   9.910936852338869E-1   3.938450472550763E-1   9.902755560579949E-1   7.412450959847038E-2   1.064766169526206E-1  -8.985055558155197E1  
 2.276999999000000E9     1.047449299532763E-1  -8.848513091713463E1   9.911813649370717E-1   1.471662606165536E-1   9.903870609733573E-1  -1.828847389167196E-1   1.046348270231145E-1  -9.030482571843358E1  
 2.326999999000000E9     1.021396201165976E-1  -8.867840543845304E1   9.915606519693216E-1  -9.780055255005472E-2   9.905146776231140E-1  -4.205722448776163E-1   1.028518119249915E-1  -9.044934043587570E1  
 2.376999999000000E9     1.004320488098280E-1  -8.900015181838670E1   9.916916661940048E-1  -3.130175946301783E-1   9.907776553919332E-1  -6.554702696077046E-1   1.002793921888940E-1  -9.085774496935817E1  
 2.426999999000000E9     9.892443333111223E-2  -8.911644619554852E1   9.922974182123603E-1  -5.482397756774851E-1   9.910473797295698E-1  -8.902331514484895E-1   9.871533142292766E-2  -9.138029194092862E1  
 2.476999999000000E9     9.707157648910730E-2  -8.929960002879020E1   9.923193757171809E-1  -7.646339962791440E-1   9.912309390102813E-1  -1.122181862189851   9.709990392830867E-2  -9.149353219472887E1  
 2.526999999000000E9     9.499465948694733E-2  -8.950732026752571E1   9.922012796028733E-1  -1.001942649098935   9.913344951475153E-1  -1.328994042690702   9.505295527144630E-2  -9.158084542496837E1  
 2.576999999000000E9     9.356894352051556E-2  -8.987063571437082E1   9.926354123357003E-1  -1.209702525448709   9.916283980083898E-1  -1.551710736536474   9.315988024197697E-2  -9.206034741987624E1  
 2.626999999000000E9     9.245495553953223E-2  -9.007992978146747E1   9.926264281760705E-1  -1.415509647168969   9.914986240385761E-1  -1.769410967302576   9.169947115835914E-2  -9.237190308319558E1  
 2.676999999000000E9     9.043616897643428E-2  -9.008427100115169E1   9.930146305998524E-1  -1.633093322385750   9.920632608673607E-1  -1.975336630719236   8.999731914743037E-2  -9.228108343475334E1  
 2.726999999000000E9     8.913067211402183E-2  -9.038302266089879E1   9.933943519629882E-1  -1.857712049881442   9.918765024032025E-1  -2.192504485113747   8.859895255965332E-2  -9.258675267945398E1  
 2.776999999000000E9     8.811667342393131E-2  -9.058035616205289E1   9.935676212562721E-1  -2.055478324440325   9.922587686304045E-1  -2.414515493462783   8.748641530578924E-2  -9.311719890464761E1  
 2.826999999000000E9     8.687244170751074E-2  -9.076957609701273E1   9.937788807746081E-1  -2.254440589269140   9.923686481518048E-1  -2.609842735848148   8.594799044824610E-2  -9.308733715466069E1  
 2.876999999000000E9     8.531861951162807E-2  -9.084463970647697E1   9.938714227365340E-1  -2.471335120623555   9.928421550980869E-1  -2.849346063105275   8.468516130198169E-2  -9.314372357888772E1  
 2.926999999000000E9     8.415300183926382E-2  -9.128414639724173E1   9.941167300894271E-1  -2.640633061889971   9.930479047181766E-1  -3.063427147460563   8.388864895408432E-2  -9.349840935407411E1  
 2.976999999000000E9     8.344732576065303E-2  -9.142225292359392E1   9.936170041720884E-1  -2.845938005322165   9.928223657521834E-1  -3.272713886262683   8.259589870279961E-2  -9.389164493876720E1  
 3.026999999000000E9     8.190768932420335E-2  -9.136178659878503E1   9.937991866090169E-1  -3.041641750119805   9.937099196461120E-1  -3.496897252070852   8.121501538584569E-2  -9.401405004449649E1  
 3.076999999000000E9     8.076015474180769E-2  -9.189459226159421E1   9.933747207899237E-1  -3.244582791952700   9.936641071645699E-1  -3.704354053953598   8.053197978390828E-2  -9.430953187816495E1  
 3.126999999000000E9     7.993737167459142E-2  -9.198395811637452E1   9.934230728049904E-1  -3.439529176102711   9.935978706240628E-1  -3.887572555596796   7.975270092849469E-2  -9.441819409926575E1  
 3.176999999000000E9     7.900977112868907E-2  -9.213014496984189E1   9.932733576794851E-1  -3.644589814557856   9.933743631099343E-1  -4.058398869118994   7.832853952089787E-2  -9.478060196938812E1  
 3.226999999000000E9     7.776605589140971E-2  -9.233849303613762E1   9.930258892624124E-1  -3.828065420074041   9.932553912412337E-1  -4.227446014624383   7.742051914473819E-2  -9.517053935281916E1  
 3.276999999000000E9     7.708623850228663E-2  -9.263540044909976E1   9.929041995381595E-1  -4.012542005450515   9.935203942524610E-1  -4.375379969927559   7.682311123751140E-2  -9.514213175676527E1  
 3.326999999000000E9     7.614403168867985E-2  -9.279515292053205E1   9.927342120078286E-1  -4.163678851042738   9.934591721730068E-1  -4.505116419564609   7.594686891516470E-2  -9.553482649070699E1  
 3.376999999000000E9     7.549254947283020E-2  -9.286360771306890E1   9.926627871039214E-1  -4.292003041230919   9.931884393607348E-1  -4.707797464124806   7.496426706911433E-2  -9.575143127062319E1  
 3.426999999000000E9     7.465514292377613E-2  -9.297537556434557E1   9.924922249835526E-1  -4.402692860135533   9.931507474263072E-1  -4.920000206264599   7.406897029650335E-2  -9.606640730455749E1  
 3.476999999000000E9     7.399419329764453E-2  -9.336299432200801E1   9.934192938661987E-1  -4.558804993421895   9.933258524477716E-1  -5.130569883951767   7.364142563868993E-2  -9.628000072955496E1  
 3.526999999000000E9     7.370925099453346E-2  -9.332721814221503E1   9.939977386532111E-1  -4.746692782667927   9.937287826391663E-1  -5.307346237835382   7.251308189430560E-2  -9.641172014133250E1  
 3.576999999000000E9     7.295141967746892E-2  -9.326853131089305E1   9.950173954424016E-1  -4.950749455101388   9.938713985243989E-1  -5.512766842051569   7.177949495134277E-2  -9.689392705988794E1  
 3.626999999000000E9     7.253346982906869E-2  -9.345520055750727E1   9.946386483004155E-1  -5.158400724698081   9.938149687335756E-1  -5.675023752548674   7.120458428176459E-2  -9.710937886979842E1  
 3.676999999000000E9     7.165521777930269E-2  -9.358095360403522E1   9.945571285115471E-1  -5.358359223245529   9.935919262519408E-1  -5.855928577085483   7.035788956645937E-2  -9.718104848823271E1  
 3.726999999000000E9     7.111839893977862E-2  -9.356651584222789E1   9.944275563408870E-1  -5.556798467707064   9.938151727269359E-1  -6.015723302933588   6.966506040142845E-2  -9.758858991764798E1  
 3.776999999000000E9     7.080289022900738E-2  -9.367583282574323E1   9.941139807285585E-1  -5.729892070070336   9.933492272618479E-1  -6.166409819617442   6.909709893879276E-2  -9.789000885480090E1  
 3.826999999000000E9     7.014264360115322E-2  -9.362685671219595E1   9.942270827804054E-1  -5.872118470274164   9.938107265815132E-1  -6.328899238096564   6.840380081123154E-2  -9.772364666342716E1  
 3.876999999000000E9     6.946033814990783E-2  -9.394320071119572E1   9.942898807024285E-1  -6.044313423718982   9.937740250575802E-1  -6.512118021009477   6.769932997219737E-2  -9.810325363963918E1  
 3.926999999000000E9     6.893334047024709E-2  -9.407107874412971E1   9.940687111642663E-1  -6.239730814767203   9.938115850591689E-1  -6.738508990760654   6.734810977746092E-2  -9.833206382431722E1  
 3.976999999000000E9     6.867248283121591E-2  -9.389803177496115E1   9.940232121477337E-1  -6.365079645230792   9.932465470973499E-1  -6.826452810279609   6.654430540982773E-2  -9.822948183956170E1  
 4.026999999000000E9     6.797928369028193E-2  -9.382564378841921E1   9.944961601788279E-1  -6.443395403557471   9.931725810165237E-1  -7.051666896681099   6.600061943182085E-2  -9.827450631871483E1  
 4.076999999000000E9     6.776430683742891E-2  -9.381387922025766E1   9.941123665062307E-1  -6.568932146379126   9.925193237059631E-1  -7.187040304096609   6.610991984686712E-2  -9.813644012062353E1  
 4.126999999000000E9     6.836320528478287E-2  -9.396736374379360E1   9.940706907206589E-1  -6.706933126771583   9.925345067233493E-1  -7.324151066823642   6.629266104452948E-2  -9.801493235206715E1  
 4.176999999000000E9     6.854696649374471E-2  -9.444585116486793E1   9.947725700700557E-1  -6.835340393327979   9.928841823115101E-1  -7.454865027623492   6.618483125063603E-2  -9.846062073077205E1  
 4.226999999000000E9     6.799743782036430E-2  -9.515441154627611E1   9.950812532881184E-1  -6.989048436351838   9.934426970770256E-1  -7.608477627681333   6.604475715590667E-2  -9.908648263581499E1  
 4.276999999000000E9     6.782947082543522E-2  -9.569859199391507E1   9.957185041253176E-1  -7.144880950923851   9.939281648078265E-1  -7.775417204301977   6.583439686083055E-2  -9.951985021498714E1  
 4.326999999000000E9     6.779159085859100E-2  -9.616332798966701E1   9.957495276704297E-1  -7.306885996675709   9.940456698585805E-1  -7.954559059700523   6.522266059681200E-2  -9.982360193655948E1  
 4.376999999000000E9     6.736165408863758E-2  -9.635487870237162E1   9.960228349489023E-1  -7.467506300484441   9.944028003592693E-1  -8.118579944438828   6.482621854233348E-2  -1.001603754558035E2  
 4.426999999000000E9     6.700662960830241E-2  -9.667264057886057E1   9.962558615154791E-1  -7.623725759063085   9.944986052887098E-1  -8.298776313503055   6.452832957038028E-2  -1.005204952683222E2  
 4.476999999000000E9     6.699693948573911E-2  -9.705487573262762E1   9.964477930589707E-1  -7.794638682227428   9.946434555249479E-1  -8.460278591419023   6.419008692058570E-2  -1.006222477949685E2  
 4.526999999000000E9     6.693666969675251E-2  -9.715935725850400E1   9.962919240778357E-1  -7.947578019497263   9.946174434888689E-1  -8.636007339128678   6.362725623796879E-2  -1.005454536658805E2  
 4.576999999000000E9     6.676984538367906E-2  -9.704829868300979E1   9.964927257264741E-1  -8.089351414019113   9.946736097474689E-1  -8.792836798721266   6.342311544255125E-2  -1.009683393986728E2  
 4.626999999000000E9     6.679831290114024E-2  -9.726735009399533E1   9.965810653160941E-1  -8.247073393517947   9.948259922933176E-1  -8.955451209879893   6.350372240923090E-2  -1.010907128672571E2  
 4.676999999000000E9     6.680244312866496E-2  -9.769584284900962E1   9.964347122519608E-1  -8.399054268393094   9.946982958451616E-1  -9.106974220178152   6.331143835990512E-2  -1.010444567588541E2  
 4.726999999000000E9     6.699381849026811E-2  -9.772654958301068E1   9.965220848799270E-1  -8.543177165397793   9.947935603085777E-1  -9.273559661337169   6.291991798335965E-2  -1.012694839556068E2  
 4.776999999000000E9     6.708761722013862E-2  -9.784165994376413E1   9.966911097402342E-1  -8.675938072297633   9.950668530617263E-1  -9.412938152758711   6.337616908887878E-2  -1.016096536497554E2  
 4.826999999000000E9     6.677858580881914E-2  -9.842470489676593E1   9.965637619707611E-1  -8.830437313770124   9.947464970209798E-1  -9.580188865925017   6.305357164479150E-2  -1.011212090352606E2  
