#  HZ   S   MA   R     50.00 
! Rohde & Schwarz ZVA67 4Ports - Version 4.11 - 1305.7002k04 SN: 101051
! Date: 2023-05-24 11:00:48
! Measurements: S11 S21 S12 S22 
! 
 2.699999900000000E7     1.507438903859163E-2  -9.051387060530381E1   9.994723766360681E-1  -1.094601333540353   9.965263245017159E-1  -1.586185766175679   1.846718872086643E-2  -9.431465532748210E1  
 7.699999900000000E7     4.482086199121872E-2  -9.294042469197892E1   9.994322204580455E-1  -3.378917299920086   9.979968993080851E-1  -3.697107484359160   4.998423136256176E-2  -9.374568544152703E1  
 1.269999990000000E8     7.417266336455268E-2  -9.556312087049959E1   9.958873363085156E-1  -5.764284809761240   9.945408276444261E-1  -5.793360253482531   8.163225959056569E-2  -9.636253091270541E1  
 1.769999990000000E8     1.032364789621132E-1  -9.741077638994905E1   9.938288376059212E-1  -8.029967249325310   9.926658886022743E-1  -8.161670854184335   1.134460116407187E-1  -9.803197643307665E1  
 2.269999990000000E8     1.310867899801760E-1  -9.988051069333834E1   9.903772882721378E-1  -1.021403954300972E1   9.896145435701829E-1  -1.035260727767920E1   1.445078967832611E-1  -1.000703208470790E2  
 2.769999990000000E8     1.592049238571329E-1  -1.020158063070064E2   9.858511377358740E-1  -1.246867634504109E1   9.850095059050127E-1  -1.257651101855472E1   1.747806834044207E-1  -1.022854310267300E2  
 3.269999990000000E8     1.866675767733845E-1  -1.040037642429372E2   9.803895099457008E-1  -1.463699437730912E1   9.794051046805523E-1  -1.481712368871653E1   2.049916740546745E-1  -1.044026544640079E2  
 3.769999990000000E8     2.140501098398289E-1  -1.060735801249718E2   9.742265744059561E-1  -1.692407536877741E1   9.729603082718135E-1  -1.697480782274297E1   2.349781509516828E-1  -1.066319635910754E2  
 4.269999990000000E8     2.402896788600577E-1  -1.082066005856214E2   9.676167277855652E-1  -1.906651531102305E1   9.663097435212309E-1  -1.917972947009047E1   2.641418848603270E-1  -1.087433964790798E2  
 4.769999990000000E8     2.667987658387175E-1  -1.102768602062715E2   9.596316122558249E-1  -2.112688526103365E1   9.586754085537967E-1  -2.125824942161045E1   2.928370203042783E-1  -1.108594317199673E2  
 5.269999990000000E8     2.920457162330503E-1  -1.121666947708638E2   9.525099499129727E-1  -2.320308765217503E1   9.514532446300226E-1  -2.336473065299588E1   3.199931586796749E-1  -1.129010903517823E2  
 5.769999990000000E8     3.162646903998824E-1  -1.142073024381696E2   9.443800716898815E-1  -2.525974085099620E1   9.433834847851291E-1  -2.543814134338398E1   3.467686022523814E-1  -1.149554558258714E2  
 6.269999990000000E8     3.389190798386658E-1  -1.162155954118557E2   9.349282402655165E-1  -2.724807872481501E1   9.340603376672438E-1  -2.743464732873151E1   3.720268041234072E-1  -1.168747349947110E2  
 6.769999990000000E8     3.623612195317468E-1  -1.181494138106030E2   9.267539508343282E-1  -2.919771907503244E1   9.256103796220487E-1  -2.942378836823235E1   3.961178098460383E-1  -1.187837046946894E2  
 7.269999990000000E8     3.842280995769665E-1  -1.199844482563060E2   9.172063668721630E-1  -3.119489699138917E1   9.164305392925668E-1  -3.143428792633209E1   4.203003447207131E-1  -1.207886943321169E2  
 7.769999990000000E8     4.048319497232409E-1  -1.218178256097852E2   9.077634610031965E-1  -3.307424909320194E1   9.064039454802692E-1  -3.328903212645405E1   4.434548184274861E-1  -1.226398366283408E2  
 8.269999990000000E8     4.258567701263727E-1  -1.237232142971467E2   8.973575624777935E-1  -3.493223476534838E1   8.961005413948781E-1  -3.519601649150315E1   4.655596780179999E-1  -1.245308814885812E2  
 8.769999990000000E8     4.439659147557669E-1  -1.253539585237222E2   8.887095973379118E-1  -3.676523627150591E1   8.872645580187365E-1  -3.705121657689262E1   4.868578575143228E-1  -1.263033348731801E2  
 9.269999990000000E8     4.633235021462868E-1  -1.271498264892712E2   8.770054408081082E-1  -3.853067361698438E1   8.757033724830948E-1  -3.883515009789689E1   5.067003691872524E-1  -1.280938999012416E2  
 9.769999990000000E8     4.804005617519073E-1  -1.287536509297947E2   8.682671240432192E-1  -4.029540671080373E1   8.667873042855155E-1  -4.061838510933256E1   5.260350242035117E-1  -1.297414422278310E2  
 1.026999999000000E9     4.969747587262008E-1  -1.304428991031872E2   8.591632517773948E-1  -4.196279718195437E1   8.573580260534987E-1  -4.229648677212170E1   5.436438024187210E-1  -1.314109149117562E2  
 1.076999999000000E9     5.127036785596848E-1  -1.320788286819010E2   8.468761497569509E-1  -4.363389402443323E1   8.456235710817527E-1  -4.396937825886720E1   5.605136766344822E-1  -1.330892637981850E2  
 1.126999999000000E9     5.284480780777618E-1  -1.336115279685890E2   8.392946002232140E-1  -4.528771185869491E1   8.377507541978002E-1  -4.562798480924509E1   5.770719445671032E-1  -1.345963298488683E2  
 1.176999999000000E9     5.426174394538057E-1  -1.352114943773117E2   8.278217492193934E-1  -4.688056140827651E1   8.264910022909865E-1  -4.727112673752897E1   5.933889444542927E-1  -1.362807304542899E2  
 1.226999999000000E9     5.564590192892067E-1  -1.367336438073482E2   8.179733416372145E-1  -4.843456630406192E1   8.163570258859415E-1  -4.879835074903684E1   6.089944407997823E-1  -1.377919119893699E2  
 1.276999999000000E9     5.708369606863665E-1  -1.382555796134880E2   8.082909704380855E-1  -4.993428280144669E1   8.071639079223323E-1  -5.032145566476721E1   6.226226056348078E-1  -1.393266315280415E2  
 1.326999999000000E9     5.817318126233630E-1  -1.395930826169939E2   7.998068076292088E-1  -5.147666262638597E1   7.984367356653291E-1  -5.182759957791259E1   6.363857552175745E-1  -1.407517906690547E2  
 1.376999999000000E9     5.939249621740547E-1  -1.410644467197888E2   7.888023532572303E-1  -5.282956142653507E1   7.874062908222772E-1  -5.322935447786792E1   6.468310058743105E-1  -1.421643017043062E2  
 1.426999999000000E9     6.046505067882082E-1  -1.424296954315258E2   7.818302492297570E-1  -5.431547678774780E1   7.809311873502532E-1  -5.473610479599340E1   6.590970758708358E-1  -1.435268499785661E2  
 1.476999999000000E9     6.157889708952256E-1  -1.437688905784918E2   7.726926923603426E-1  -5.562347665573833E1   7.712741875375537E-1  -5.604002187264844E1   6.709913448435164E-1  -1.449094862664985E2  
 1.526999999000000E9     6.251047219608393E-1  -1.450719682867843E2   7.621791684071776E-1  -5.701842758276788E1   7.612309469426813E-1  -5.743694296110145E1   6.812501002346669E-1  -1.462500778487854E2  
 1.576999999000000E9     6.341511005334366E-1  -1.463599117844463E2   7.559911181598872E-1  -5.834981063447656E1   7.546164835159592E-1  -5.877227647315936E1   6.915367687991360E-1  -1.475624833661191E2  
 1.626999999000000E9     6.431878067013551E-1  -1.476553966859450E2   7.461217561634141E-1  -5.959525918067858E1   7.448788673123791E-1  -6.001255572202506E1   7.015518656060590E-1  -1.488944473389761E2  
 1.676999999000000E9     6.516846892962336E-1  -1.488740431082021E2   7.388616254749670E-1  -6.095332011152230E1   7.372488415708746E-1  -6.136841582336014E1   7.104356847651540E-1  -1.501211004673290E2  
 1.726999999000000E9     6.589987015576019E-1  -1.500629567480663E2   7.317110233489387E-1  -6.213888304932659E1   7.305986777391419E-1  -6.258065870112158E1   7.173380015494977E-1  -1.513127941270348E2  
 1.776999999000000E9     6.655735161795960E-1  -1.512066061125560E2   7.255091814139431E-1  -6.339202141310314E1   7.241996153041967E-1  -6.381183606045963E1   7.259611636561931E-1  -1.524723774073588E2  
 1.826999999000000E9     6.729418910874548E-1  -1.524417362431979E2   7.172422536507757E-1  -6.451250094310097E1   7.156088043649372E-1  -6.502430123626471E1   7.312527718163362E-1  -1.536661819258235E2  
 1.876999999000000E9     6.782794384996492E-1  -1.534895366125922E2   7.114512831376226E-1  -6.573930323666919E1   7.105080633608645E-1  -6.621209285350953E1   7.386055476043346E-1  -1.547923568053441E2  
 1.926999999000000E9     5.377220352432127E-1  -1.520323975728160E2   8.339770648614695E-1  -6.068652687764252E1   8.326182012058815E-1  -6.116397660371924E1   5.408321850114631E-1  -1.510733039368128E2  
 1.976999999000000E9     5.441028418643572E-1  -1.533131293293053E2   8.289778674641076E-1  -6.195143535910064E1   8.281910467704347E-1  -6.247800403718612E1   5.470476780698923E-1  -1.522761516983933E2  
 2.026999999000000E9     5.491110938528340E-1  -1.544484395915542E2   8.273670839270443E-1  -6.319359223597018E1   8.254952405004878E-1  -6.369691389473209E1   5.520115529635263E-1  -1.534073795637914E2  
 2.076999999000000E9     5.550924911094087E-1  -1.557825590473561E2   8.217564302132349E-1  -6.438053730810768E1   8.205127889633468E-1  -6.487390449666074E1   5.579175435809494E-1  -1.546951058019320E2  
 2.126999999000000E9     5.603438747662752E-1  -1.569587074756953E2   8.183050225150759E-1  -6.570433765505501E1   8.169824096338575E-1  -6.621035179292578E1   5.629295763117489E-1  -1.558464960250155E2  
 2.176999999000000E9     5.642180130979385E-1  -1.582437420134648E2   8.155034837930226E-1  -6.679092696971843E1   8.147542098122894E-1  -6.733879977671258E1   5.671309633446680E-1  -1.570598389672353E2  
 2.226999999000000E9     5.691366881074068E-1  -1.593574099088588E2   8.117679959432486E-1  -6.807475967437659E1   8.106946621378940E-1  -6.859029428725931E1   5.722571715265756E-1  -1.582474543003147E2  
 2.276999999000000E9     5.731563757081427E-1  -1.606143701864866E2   8.086655052701908E-1  -6.920090804204840E1   8.072705262296235E-1  -6.977338517572403E1   5.757037453064352E-1  -1.594009621239088E2  
 2.326999999000000E9     5.769215702795409E-1  -1.617580973832203E2   8.059933053391809E-1  -7.039497477291265E1   8.047785694985288E-1  -7.093304277492922E1   5.797142721771510E-1  -1.605782395814866E2  
 2.376999999000000E9     5.801645250921844E-1  -1.629269693766148E2   8.033652652109330E-1  -7.155401598379122E1   8.020159163961175E-1  -7.211847387201730E1   5.835350288351443E-1  -1.617612913612981E2  
 2.426999999000000E9     5.844952433860501E-1  -1.641221214588712E2   8.001307175792758E-1  -7.272840686207945E1   7.987367581217134E-1  -7.328412966320141E1   5.871663313748365E-1  -1.628714279511468E2  
 2.476999999000000E9     5.869702491976070E-1  -1.652505468461500E2   7.988565490500337E-1  -7.384565664492415E1   7.971895989086877E-1  -7.444121093549221E1   5.902577472498802E-1  -1.639984283462058E2  
 2.526999999000000E9     5.900342900275956E-1  -1.664205450361298E2   7.954195086602401E-1  -7.501129075138277E1   7.939457316710590E-1  -7.555890105121239E1   5.930141529841229E-1  -1.651352055307339E2  
 2.576999999000000E9     5.927513432666680E-1  -1.675033594632264E2   7.936762538235130E-1  -7.618072398678366E1   7.924975337944276E-1  -7.677554657233262E1   5.961184591668824E-1  -1.662872103879346E2  
 2.626999999000000E9     5.948606861233596E-1  -1.686811337708485E2   7.922929547889798E-1  -7.726994510158184E1   7.907827114236874E-1  -7.783690020728083E1   5.982677489659403E-1  -1.673932412674799E2  
 2.676999999000000E9     5.968328063527525E-1  -1.697653714058921E2   7.904292725311328E-1  -7.845142583079245E1   7.890593184675049E-1  -7.900482654628488E1   6.006547490710964E-1  -1.685289705349706E2  
 2.726999999000000E9     5.987840403101459E-1  -1.709402180034258E2   7.895793835689798E-1  -7.956657971010591E1   7.877984628990568E-1  -8.015516938311623E1   6.025930850092324E-1  -1.696322087699197E2  
 2.776999999000000E9     6.012441628128027E-1  -1.720352488108096E2   7.881437038489424E-1  -8.070404496924219E1   7.863995269354741E-1  -8.127254652286699E1   6.047553909954343E-1  -1.708136815928312E2  
 2.826999999000000E9     6.019726725810708E-1  -1.731165065646264E2   7.874082549653545E-1  -8.183769883222226E1   7.857472857551467E-1  -8.240777732329856E1   6.060232012796474E-1  -1.719096097293765E2  
 2.876999999000000E9     6.039754951907060E-1  -1.742539971911584E2   7.855265050900548E-1  -8.294704660278804E1   7.844905220450700E-1  -8.358280079446074E1   6.073430905145643E-1  -1.730582370854306E2  
 2.926999999000000E9     6.048909347579723E-1  -1.752966406112295E2   7.860680058246117E-1  -8.407998738840300E1   7.844704016068704E-1  -8.472020294636099E1   6.082392183354615E-1  -1.741483564344174E2  
 2.976999999000000E9     6.055222573599250E-1  -1.764763221857580E2   7.844931142381930E-1  -8.513392509852406E1   7.833223022135391E-1  -8.585058124043904E1   6.086584948665649E-1  -1.753101869847715E2  
 3.026999999000000E9     6.061353466134696E-1  -1.775589822633826E2   7.839877747283831E-1  -8.631622997236185E1   7.834270134239199E-1  -8.703778523688139E1   6.090647728749201E-1  -1.764326929837085E2  
 3.076999999000000E9     6.060138101005339E-1  -1.787355994233423E2   7.836039200985009E-1  -8.739782735420751E1   7.836241723301168E-1  -8.814968173657691E1   6.085096007653691E-1  -1.775901165027011E2  
 3.126999999000000E9     6.069048022600397E-1  -1.797715189809058E2   7.829195449062639E-1  -8.855133415844394E1   7.825573441651169E-1  -8.928453797018685E1   6.093483450627250E-1  -1.786871056094697E2  
 3.176999999000000E9     6.055133352814829E-1   1.790961491530026E2   7.831230407926763E-1  -8.965994094920185E1   7.828123638471368E-1  -9.037421256677277E1   6.084398167725498E-1  -1.797714271240098E2  
 3.226999999000000E9     6.056768833261208E-1   1.780249158809999E2   7.829233112201357E-1  -9.076686333583153E1   7.831756862792002E-1  -9.143948929663078E1   6.079120066077082E-1   1.790743256564444E2  
 3.276999999000000E9     6.049430098527080E-1   1.770188998848347E2   7.829336115543867E-1  -9.190612818443704E1   7.836018325985918E-1  -9.253004356487845E1   6.078715753461187E-1   1.780067508864912E2  
 3.326999999000000E9     6.037663095334548E-1   1.759610413981488E2   7.833738052969564E-1  -9.295854357828884E1   7.845978795202883E-1  -9.356196405869611E1   6.073602389405991E-1   1.769815630821494E2  
 3.376999999000000E9     6.016517067039451E-1   1.748604366791034E2   7.844073280140645E-1  -9.401915616354599E1   7.848896743206603E-1  -9.473148088010785E1   6.060531718978194E-1   1.758642053177414E2  
 3.426999999000000E9     6.006220351801073E-1   1.737875741772286E2   7.852658599574082E-1  -9.505270125084975E1   7.859588131453394E-1  -9.590967458974679E1   6.052677266328070E-1   1.747308787497368E2  
 3.476999999000000E9     6.000113985732527E-1   1.728441708609232E2   7.873432585952003E-1  -9.617567424845097E1   7.867308916537972E-1  -9.710088389921639E1   6.042277503866276E-1   1.735468650739775E2  
 3.526999999000000E9     5.977920647353459E-1   1.716874353925866E2   7.897373108693252E-1  -9.721738390106538E1   7.889486946495147E-1  -9.820476791622892E1   6.025844017581857E-1   1.723822152271229E2  
 3.576999999000000E9     5.968093410153663E-1   1.705967080767967E2   7.915267670849786E-1  -9.849326698708521E1   7.898721660694138E-1  -9.943409222715633E1   6.008682361249189E-1   1.712279176849703E2  
 3.626999999000000E9     5.946334034706041E-1   1.694949555624420E2   7.933112720275732E-1  -9.967605892873837E1   7.918475279151386E-1  -1.005648252540606E2   5.982181604511236E-1   1.700865278650939E2  
 3.676999999000000E9     5.916312295963403E-1   1.683364310676353E2   7.948751205393299E-1  -1.008611641968010E2   7.933201838030237E-1  -1.016798338591011E2   5.955195591538199E-1   1.689238165728054E2  
 3.726999999000000E9     5.892630101394335E-1   1.672620792720308E2   7.963874926602705E-1  -1.021070996013724E2   7.949117005736632E-1  -1.028806718180891E2   5.928407623559393E-1   1.677470910937306E2  
 3.776999999000000E9     5.864239896639869E-1   1.661185758600647E2   7.976739624825430E-1  -1.031929949486756E2   7.968111628657227E-1  -1.039627677051449E2   5.898971487714160E-1   1.666502212061692E2  
 3.826999999000000E9     5.838416349009344E-1   1.651454293157407E2   8.008509958138503E-1  -1.043974605953193E2   7.995129544502383E-1  -1.051664150360125E2   5.865995185388960E-1   1.654900372076816E2  
 3.876999999000000E9     5.800540858663754E-1   1.639331428748964E2   8.021046279958470E-1  -1.055200872862841E2   8.010974763644552E-1  -1.063205238950186E2   5.834076676626461E-1   1.642937301337531E2  
 3.926999999000000E9     5.769354284475808E-1   1.627828130413344E2   8.046663807895964E-1  -1.067595464746349E2   8.040968437913747E-1  -1.075918631807009E2   5.802296726808268E-1   1.630861082247008E2  
 3.976999999000000E9     5.730809646901192E-1   1.617413407346606E2   8.077501738039110E-1  -1.078392820361815E2   8.066451921900606E-1  -1.086472343055861E2   5.761912803932933E-1   1.619761261038612E2  
 4.026999999000000E9     5.692797852069653E-1   1.606529593832121E2   8.104594717770591E-1  -1.089407346625700E2   8.084722109352158E-1  -1.099152744930699E2   5.718838624479250E-1   1.608452373433322E2  
 4.076999999000000E9     5.644927734787456E-1   1.594442613794746E2   8.143915555929611E-1  -1.101075911132512E2   8.123580109240824E-1  -1.110833349223076E2   5.674409508626399E-1   1.596704065517615E2  
 4.126999999000000E9     5.607908025585987E-1   1.583230100713010E2   8.169239001715796E-1  -1.113008814138507E2   8.149107896162943E-1  -1.122988350238403E2   5.630995606597249E-1   1.585066396884160E2  
 4.176999999000000E9     5.555075037190028E-1   1.571892438230766E2   8.202666551124002E-1  -1.125450407012602E2   8.181019508849723E-1  -1.135303871589689E2   5.581746450405208E-1   1.573369297810624E2  
 4.226999999000000E9     5.500299778575140E-1   1.559557589785951E2   8.237002616416744E-1  -1.137254245216024E2   8.217194715869282E-1  -1.147298871730609E2   5.528278845668144E-1   1.561007206274126E2  
 4.276999999000000E9     5.452754298188205E-1   1.548596303462842E2   8.275547684482764E-1  -1.150069351208771E2   8.253357144204021E-1  -1.160050150618388E2   5.478076866610508E-1   1.549439012128471E2  
 4.326999999000000E9     5.396219417247419E-1   1.536374509416237E2   8.308071629452631E-1  -1.162012059467372E2   8.285831114453738E-1  -1.172543820625253E2   5.421311056114633E-1   1.537304334741364E2  
 4.376999999000000E9     5.337113267840453E-1   1.524494384659554E2   8.349521137785094E-1  -1.174867391429653E2   8.329821004675351E-1  -1.185231057636103E2   5.359364733621782E-1   1.525101669325261E2  
 4.426999999000000E9     5.273091777108514E-1   1.512199916215939E2   8.385601830540694E-1  -1.187438046405590E2   8.363276274760645E-1  -1.198206859378429E2   5.299339888037197E-1   1.512939145593355E2  
 4.476999999000000E9     5.216849092264606E-1   1.500039094559659E2   8.419379702923452E-1  -1.200594656555226E2   8.399022307707438E-1  -1.211412226074785E2   5.236114977297105E-1   1.501261545060932E2  
 4.526999999000000E9     5.141478909665611E-1   1.487594525062064E2   8.460889052466586E-1  -1.213032865733278E2   8.439077414627565E-1  -1.223783141955789E2   5.163561238674963E-1   1.488464893492852E2  
 4.576999999000000E9     5.070412661537959E-1   1.474563340191138E2   8.503006736276241E-1  -1.226182941828017E2   8.481287947580646E-1  -1.237186382167692E2   5.093648961412244E-1   1.476670775832232E2  
 4.626999999000000E9     5.003190461145675E-1   1.462345010109798E2   8.540743881096427E-1  -1.239297202398343E2   8.516676023987153E-1  -1.250491879604314E2   5.018543443415431E-1   1.464818301057281E2  
 4.676999999000000E9     4.925290707984016E-1   1.449037475287128E2   8.582991380631831E-1  -1.252043438326461E2   8.562420602613690E-1  -1.263596708407148E2   4.942946502324049E-1   1.451921559188320E2  
 4.726999999000000E9     4.841733632137913E-1   1.436716915519709E2   8.625332734952087E-1  -1.265361946968109E2   8.604407159400939E-1  -1.277008533173522E2   4.858380862114608E-1   1.439807502466840E2  
 4.776999999000000E9     4.761763268126705E-1   1.422974018964226E2   8.672796260753893E-1  -1.278842130492386E2   8.651717262567090E-1  -1.290710112620059E2   4.776221236767058E-1   1.428197749270566E2  
