#  HZ   S   MA   R     50.00 
! Rohde & Schwarz ZVA67 4Ports - Version 4.11 - 1305.7002k04 SN: 101051
! Date: 2023-05-24 10:58:45
! Measurements: S11 S21 S12 S22 
! 
 2.699999900000000E7     1.409405316682582  -1.231462683379441   1.893011289309586E-3   2.546120831031225E1   1.666376585919377E-3   2.692973414624569E1   7.062794394288583E-1   3.242178999370394E-1  
 7.699999900000000E7     1.418471500956723  -5.841336376620537E-1   2.701587250006287E-3   5.678178942057354E1   2.635308642122609E-3   5.591075296341955E1   7.041479033197808E-1   9.567353848166708E-2  
 1.269999990000000E8     1.411035397913823  -1.004994446941080   4.020110530524623E-3   6.747068523215208E1   3.963532052696183E-3   6.731922319598870E1   7.031157153336954E-1  -1.129333575570881E-2  
 1.769999990000000E8     1.407412520237775  -1.434658562242824   5.315966140138085E-3   7.185805399208724E1   5.363367763452708E-3   7.186657414566629E1   7.065145136581743E-1  -4.467205268753013E-2  
 2.269999990000000E8     1.411691087161352  -1.775616922946896   6.817133612557510E-3   7.509981095117333E1   6.756338836263524E-3   7.519309915004669E1   7.055033955249397E-1   3.208140554441511E-2  
 2.769999990000000E8     1.396539414803652  -2.107171839908120   8.056792150804711E-3   7.722223411189654E1   8.066037377886979E-3   7.702231421683864E1   7.114473441153558E-1  -8.379424490217045E-2  
 3.269999990000000E8     1.390318685402447  -2.465182518663251   9.473714813324314E-3   7.816951909880869E1   9.459635744844539E-3   7.807210563069994E1   7.150871220124375E-1  -6.235550433712549E-2  
 3.769999990000000E8     1.383771200037473  -2.860468814255143   1.086174046922841E-2   7.892764726963225E1   1.083019265958854E-2   7.903399615535858E1   7.180730048239636E-1  -1.015055591366203E-1  
 4.269999990000000E8     1.377221785038240  -3.217443492620082   1.220772266555744E-2   7.957907125839046E1   1.219388977768287E-2   7.960326704847270E1   7.202180603847549E-1  -1.614408259446395E-1  
 4.769999990000000E8     1.382455333482958  -3.576957221995464   1.356769115986906E-2   8.014173905331985E1   1.356738187588387E-2   8.011884388393189E1   7.156506047015739E-1  -1.714825730913241E-1  
 5.269999990000000E8     1.384416867323445  -3.793304180505943   1.493041307336637E-2   8.066519747067555E1   1.493946007177796E-2   8.047150312825573E1   7.176417579488662E-1  -1.978504541336133E-1  
 5.769999990000000E8     1.381407814074678  -4.138696773650053   1.628005677161297E-2   8.090025031283366E1   1.628197958577575E-2   8.073446499596051E1   7.160797713103165E-1  -2.192956178621860E-1  
 6.269999990000000E8     1.373945074008124  -4.506104506886551   1.763594739379396E-2   8.108751422842182E1   1.760739598767901E-2   8.083098074182811E1   7.214786744076238E-1  -2.848223118911402E-1  
 6.769999990000000E8     1.374538050326029  -4.779822899606761   1.896744577480929E-2   8.122896626490679E1   1.894963859078508E-2   8.101719019934033E1   7.207408769488205E-1  -3.339334854245541E-1  
 7.269999990000000E8     1.366628000025454  -5.096115025115538   2.031838465585847E-2   8.125183061524668E1   2.029008855734624E-2   8.104714446022253E1   7.259421586251896E-1  -4.657535633294319E-1  
 7.769999990000000E8     1.369339714052194  -5.505247564286324   2.168224108358639E-2   8.141728248647951E1   2.164674724531241E-2   8.107824823433130E1   7.252845124461741E-1  -3.914060112665453E-1  
 8.269999990000000E8     1.376087299933148  -5.829669821974606   2.307023652462010E-2   8.144008008001397E1   2.307801203152671E-2   8.105580656031539E1   7.206960336805715E-1  -4.359670695670712E-1  
 8.769999990000000E8     1.369279794660799  -6.118283343006916   2.437169395660210E-2   8.154943543477366E1   2.437067353516196E-2   8.123507739816616E1   7.255537863658942E-1  -3.698389694042419E-1  
 9.269999990000000E8     1.372571781420358  -6.550801948420800   2.576087568882219E-2   8.143159633834448E1   2.575750246966263E-2   8.097102743414271E1   7.206741055535471E-1  -4.182421447383016E-1  
 9.769999990000000E8     1.368060860593873  -6.777089231358018   2.712913325370538E-2   8.145552879713122E1   2.705923359647280E-2   8.114806566377727E1   7.275781106222632E-1  -4.103867755510354E-1  
 1.026999999000000E9     1.363054652666533  -7.072603876687898   2.835896945683665E-2   8.146531330360421E1   2.833847622355655E-2   8.110251426102512E1   7.258561690466543E-1  -4.197105501856953E-1  
 1.076999999000000E9     1.357037190919953  -7.459685412137449   2.968872715405329E-2   8.132823235713615E1   2.965442340875633E-2   8.088032400618006E1   7.320165526957475E-1  -5.499941933257009E-1  
 1.126999999000000E9     1.357430448065883  -7.676532498453742   3.099720303783654E-2   8.135077532253337E1   3.092538989076948E-2   8.097208182481384E1   7.271025194427515E-1  -5.130336812715544E-1  
 1.176999999000000E9     1.354093460530386  -8.166720004815554   3.237373439393478E-2   8.122923505103184E1   3.225564873868120E-2   8.071367766828382E1   7.315552802930612E-1  -6.123514537388437E-1  
 1.226999999000000E9     1.362459816077818  -8.522729727126725   3.381920254385284E-2   8.106716229978247E1   3.366680558378295E-2   8.070645063281097E1   7.285415219614823E-1  -4.479037297776313E-1  
 1.276999999000000E9     1.359198283804526  -8.776587568781530   3.498157786078970E-2   8.095635472811432E1   3.492545607867557E-2   8.063656671587393E1   7.243555655588428E-1  -6.917806021430741E-1  
 1.326999999000000E9     1.349949200163318  -9.121669168480558   3.628069496346676E-2   8.100277062859007E1   3.615583412976116E-2   8.053175666284729E1   7.330225246927824E-1  -6.209531011430982E-1  
 1.376999999000000E9     1.355354481721260  -9.487873180825803   3.749310617334822E-2   8.071937087475153E1   3.748354886368342E-2   8.031179952952043E1   7.306781412153304E-1  -7.087926324579742E-1  
 1.426999999000000E9     1.339332149728963  -9.680790816061164   3.870546071741268E-2   8.082729379083629E1   3.858917355821512E-2   8.032939592644495E1   7.372406416768547E-1  -8.441748463756519E-1  
 1.476999999000000E9     1.340111456542795  -1.008660912527089E1   4.000899875905799E-2   8.057588953504155E1   3.994149084088877E-2   8.015905033539154E1   7.323517670347134E-1  -8.129583644272554E-1  
 1.526999999000000E9     1.345105768616771  -1.040825637524221E1   4.142531177149211E-2   8.043919133321838E1   4.138321156414436E-2   8.001436141742789E1   7.392695517070982E-1  -7.973379948297266E-1  
 1.576999999000000E9     1.344092031749007  -1.069521986029691E1   4.263819965754166E-2   8.045035713306346E1   4.253700334928626E-2   8.003220936792104E1   7.324744189792891E-1  -7.020647512892054E-1  
 1.626999999000000E9     1.338330918040107  -1.115756664268833E1   4.391901540403959E-2   8.019912918071861E1   4.381236162984718E-2   7.973858279942338E1   7.340028569288111E-1  -7.943499757442134E-1  
 1.676999999000000E9     1.346451284189408  -1.146966996533050E1   4.528164777049137E-2   8.009003490814328E1   4.519837395880440E-2   7.971284983998953E1   7.353757260768766E-1  -7.419417547738900E-1  
 1.726999999000000E9     1.338446804884037  -1.165091320510299E1   4.647908721276191E-2   8.004150316336650E1   4.631213085364359E-2   7.960951505098849E1   7.377063639523814E-1  -8.854811247871599E-1  
 1.776999999000000E9     1.327089595121012  -1.204896475712662E1   4.762730621382683E-2   7.995077615663843E1   4.748721566917003E-2   7.951437750030358E1   7.421241054125152E-1  -8.110517664087168E-1  
 1.826999999000000E9     1.333871972891976  -1.229558800197185E1   4.889805896967848E-2   7.979958742798866E1   4.874681233513984E-2   7.928459324367708E1   7.388180077918524E-1  -1.004870963551377  
 1.876999999000000E9     1.323171824605196  -1.249316839472353E1   5.010287259479698E-2   7.980729036302462E1   4.990107196834095E-2   7.935372718006923E1   7.461494804319644E-1  -9.266037054579791E-1  
 1.926999999000000E9     9.938148299188579E-1  -5.118328376480787   3.674373202971226E-2   8.067432737853488E1   3.663302209460437E-2   8.016036831608952E1   9.928340418676871E-1  -4.812265489667922  
 1.976999999000000E9     9.933505061834200E-1  -5.167687617148163   3.759694533728857E-2   8.060602650303092E1   3.755051477837436E-2   8.016117797217761E1   9.966423921640526E-1  -4.910251305074477  
 2.026999999000000E9     9.926364491967022E-1  -5.370215075901085   3.844328543460497E-2   8.061058737549560E1   3.830684487786704E-2   8.014697822556664E1   9.944118954928776E-1  -4.935296704250845  
 2.076999999000000E9     9.927463220933370E-1  -5.476901089431394   3.934247374478782E-2   8.037961693896800E1   3.920952803565821E-2   7.991382346128752E1   9.964636055063971E-1  -5.147475774626393  
 2.126999999000000E9     9.931132629329843E-1  -5.618793908061061   4.018654767572848E-2   8.040906252869819E1   4.010928374352447E-2   7.988728038614603E1   9.962793437799463E-1  -5.165899130367198  
 2.176999999000000E9     9.909654588075737E-1  -5.660314160807524   4.096372523372563E-2   8.023880654088714E1   4.090938961270484E-2   7.973364927056413E1   9.949618088962667E-1  -5.415712791327615  
 2.226999999000000E9     9.913760473570504E-1  -5.845172559340629   4.190425793762523E-2   8.026659752296396E1   4.177350417911168E-2   7.972435614803511E1   9.970738896650648E-1  -5.367108101933963  
 2.276999999000000E9     9.931980911475861E-1  -5.793417491876673   4.266222248276561E-2   8.011804774379884E1   4.263692588610787E-2   7.959373977383268E1   9.941301923711381E-1  -5.668059573018597  
 2.326999999000000E9     9.878869473607880E-1  -5.974501492820611   4.357456343699462E-2   8.003484864251989E1   4.348733365187132E-2   7.950717484695598E1   9.987153108701515E-1  -5.710982385478440  
 2.376999999000000E9     9.923373221956302E-1  -6.118431290644253   4.439722180363065E-2   7.999281826341124E1   4.432826464554337E-2   7.943440010243532E1   9.936845916427662E-1  -5.811517249313259  
 2.426999999000000E9     9.899791199570619E-1  -6.112644818577278   4.530833478065535E-2   7.987037130259790E1   4.518290674282978E-2   7.936617435115512E1   9.976555455765561E-1  -5.964155515895455  
 2.476999999000000E9     9.897645132872239E-1  -6.281727566304298   4.613616195620650E-2   7.985918972970468E1   4.601220509016518E-2   7.928019111500781E1   9.958726522110465E-1  -6.049127436756937  
 2.526999999000000E9     9.903152502107232E-1  -6.310448287211504   4.700913121512647E-2   7.983986398169095E1   4.691235537225749E-2   7.911708051900583E1   9.967158610080523E-1  -6.163855510875527  
 2.576999999000000E9     9.900675752857389E-1  -6.467571248099620   4.788156057338956E-2   7.981206537922833E1   4.773862258281508E-2   7.916441776123426E1   9.957967734914519E-1  -6.211468358664791  
 2.626999999000000E9     9.899102864968976E-1  -6.559656221542276   4.864302505011570E-2   7.958312271606319E1   4.852357060399567E-2   7.902967078447900E1   9.951884833781078E-1  -6.368220483410060  
 2.676999999000000E9     9.903960626877421E-1  -6.664100559925475   4.959398098795814E-2   7.955533373582104E1   4.943262945292847E-2   7.896423796669325E1   9.966704219368077E-1  -6.421669082826666  
 2.726999999000000E9     9.905045764266340E-1  -6.713423877170012   5.038420770503373E-2   7.939733024991595E1   5.024886391318022E-2   7.887532993581831E1   9.954974078253804E-1  -6.613182988278974  
 2.776999999000000E9     9.881632842910514E-1  -6.916249500479139   5.125306149809246E-2   7.928092050444660E1   5.114574245278714E-2   7.875777929400960E1   9.974415354419036E-1  -6.693445014556933  
 2.826999999000000E9     9.913380821325549E-1  -7.005694252656690   5.201505994449374E-2   7.924404533191441E1   5.197810004015134E-2   7.862657483107398E1   9.949461066943087E-1  -6.809791546389686  
 2.876999999000000E9     9.902130481683069E-1  -7.063115724063361   5.298513401802946E-2   7.911322060517648E1   5.279664811611905E-2   7.851127296124878E1   9.972382421312915E-1  -6.944477993920048  
 2.926999999000000E9     9.901126407466664E-1  -7.248857178298975   5.382186183209522E-2   7.907643173565862E1   5.365423650800808E-2   7.842586830396036E1   9.948212236057601E-1  -7.042500568555766  
 2.976999999000000E9     9.911822418783672E-1  -7.357585162581813   5.456906434194123E-2   7.892740973710036E1   5.449705936624722E-2   7.819272012385747E1   9.953276686769421E-1  -7.238362951355421  
 3.026999999000000E9     9.913714105349892E-1  -7.476007495079545   5.543966773482623E-2   7.886883806985281E1   5.535463937298635E-2   7.817010821933417E1   9.946800415606657E-1  -7.309469330866604  
 3.076999999000000E9     9.900432067001584E-1  -7.629139261006905   5.620293243943932E-2   7.872402201470415E1   5.613159464040198E-2   7.794690156940041E1   9.942627000621616E-1  -7.458072933750469  
 3.126999999000000E9     9.902184845527888E-1  -7.758577182775182   5.703810184373611E-2   7.871108265227458E1   5.703447298577537E-2   7.792291884584247E1   9.937295875937381E-1  -7.514770124657151  
 3.176999999000000E9     9.907577734654466E-1  -7.843446040624314   5.788675155502434E-2   7.848258329030506E1   5.782770615763890E-2   7.782777697261710E1   9.930361885835165E-1  -7.662880783395223  
 3.226999999000000E9     9.887602692154288E-1  -7.928908397916938   5.863876032800701E-2   7.838010353887059E1   5.863125002712018E-2   7.774515553103608E1   9.934790409070049E-1  -7.709694988255849  
 3.276999999000000E9     9.895166333514534E-1  -8.038796672171070   5.948011349659051E-2   7.836521284783844E1   5.957414291465598E-2   7.774383226354672E1   9.909037676647972E-1  -7.751218566177221  
 3.326999999000000E9     9.880985645555205E-1  -8.099210191807837   6.032306401989777E-2   7.830594614604819E1   6.035682914164820E-2   7.769692354696829E1   9.931645031204185E-1  -7.852674729011920  
 3.376999999000000E9     9.873574210722056E-1  -8.219737558444940   6.108916167745031E-2   7.824780035618366E1   6.112820379288901E-2   7.759589964831402E1   9.936911127843610E-1  -7.866577874087241  
 3.426999999000000E9     9.865340411244917E-1  -8.159296758489131   6.199571853453573E-2   7.829884341083491E1   6.196714078762965E-2   7.743317282296778E1   9.938903709959827E-1  -8.022885814841105  
 3.476999999000000E9     9.855321738984909E-1  -8.346689851581184   6.291396240468247E-2   7.820194947856714E1   6.284301967555628E-2   7.729208228475002E1   9.948001942351851E-1  -8.105256219650146  
 3.526999999000000E9     9.885665603659442E-1  -8.428616031018539   6.376546994938019E-2   7.802187685634853E1   6.366750697042402E-2   7.707024787669106E1   9.948490733363139E-1  -8.289026791829183  
 3.576999999000000E9     9.890653660828569E-1  -8.526452395905986   6.475591759460618E-2   7.796162014728579E1   6.457593754187400E-2   7.702182506835551E1   9.946394057757515E-1  -8.422359373730824  
 3.626999999000000E9     9.878802150845444E-1  -8.700864181906683   6.554433815555052E-2   7.776786658028284E1   6.535335730437145E-2   7.690953482438836E1   9.941519634695807E-1  -8.555335870478860  
 3.676999999000000E9     9.881248121540289E-1  -8.826588679093000   6.640173204389546E-2   7.755337628425710E1   6.622196706952424E-2   7.675319254738095E1   9.951182206110263E-1  -8.703973355061454  
 3.726999999000000E9     9.892788267595362E-1  -8.901278561101343   6.715161778398018E-2   7.749947243368328E1   6.706091598680576E-2   7.673840198140601E1   9.932619339512693E-1  -8.799949603420242  
 3.776999999000000E9     9.866595883406418E-1  -9.024773782789520   6.800312720772686E-2   7.731641454491070E1   6.789655135839971E-2   7.658371559452198E1   9.942743270739579E-1  -8.929209269532130  
 3.826999999000000E9     9.878230729238768E-1  -9.170532278574823   6.879946824191580E-2   7.724517555473766E1   6.878094954148077E-2   7.657902094484102E1   9.924889337344793E-1  -9.027898710997327  
 3.876999999000000E9     9.892314959849180E-1  -9.145857126794082   6.965706039629463E-2   7.716741599372477E1   6.959793430346378E-2   7.638509887486055E1   9.937780278228933E-1  -9.203906364539954  
 3.926999999000000E9     9.856133074922502E-1  -9.385704522115020   7.060106444964952E-2   7.699292220152915E1   7.045337146363870E-2   7.620298351194492E1   9.935909398804216E-1  -9.264791109773812  
 3.976999999000000E9     9.873665828693248E-1  -9.385583555632875   7.133374061034421E-2   7.680809153240774E1   7.125335898074986E-2   7.610468731541826E1   9.913482666602697E-1  -9.397771001008655  
 4.026999999000000E9     9.877207615818459E-1  -9.454421484381181   7.228954072981743E-2   7.685887808973628E1   7.211489179636858E-2   7.592745345019007E1   9.924703628398320E-1  -9.471012454419833  
 4.076999999000000E9     9.873998802921639E-1  -9.541899297903068   7.299069354403942E-2   7.667835733059151E1   7.275334603510630E-2   7.573767806312986E1   9.916221301648864E-1  -9.525733415053162  
 4.126999999000000E9     9.865845779241581E-1  -9.663493142723517   7.374948904968250E-2   7.655834731153678E1   7.353788748515068E-2   7.563692225029878E1   9.914969688277334E-1  -9.643482969313629  
 4.176999999000000E9     9.884884164274227E-1  -9.729744642921890   7.445964089848944E-2   7.658780196083221E1   7.424726503245781E-2   7.562846371387799E1   9.905679827074975E-1  -9.751334250838781  
 4.226999999000000E9     9.871900977292958E-1  -9.819973338647861   7.527405233793738E-2   7.646429944053378E1   7.504029111529577E-2   7.550682271122673E1   9.928263058555825E-1  -9.868288650957236  
 4.276999999000000E9     9.874899727103733E-1  -9.959140806730282   7.612853632044110E-2   7.646711752976601E1   7.592567276978299E-2   7.551602951281727E1   9.902432822764167E-1  -9.934599271984542  
 4.326999999000000E9     9.876182391823396E-1  -1.006326212997828E1   7.701306705882614E-2   7.637244113670080E1   7.673128711878047E-2   7.534973011669200E1   9.906144855479888E-1  -1.012542361687185E1  
 4.376999999000000E9     9.877256115652618E-1  -1.017646211097024E1   7.786974814571740E-2   7.627947721631509E1   7.766099750206505E-2   7.530039796604496E1   9.917175103897817E-1  -1.021663863549018E1  
 4.426999999000000E9     9.883741572993394E-1  -1.025397819480662E1   7.875475741836235E-2   7.618678684384064E1   7.851438302668359E-2   7.516897248408924E1   9.903610108763494E-1  -1.033798986542653E1  
 4.476999999000000E9     9.863478635756087E-1  -1.039128952966611E1   7.960384412179329E-2   7.608184614670802E1   7.942011216706059E-2   7.508397722061521E1   9.906743953370616E-1  -1.044439493049414E1  
 4.526999999000000E9     9.880408015268429E-1  -1.053597001504475E1   8.044374792305645E-2   7.599002911933307E1   8.022351293810830E-2   7.488156505821932E1   9.899272391879020E-1  -1.059038584736006E1  
 4.576999999000000E9     9.884359298074235E-1  -1.058491699345035E1   8.134997582829398E-2   7.588535477271321E1   8.111751597415907E-2   7.479036912735666E1   9.902521385460745E-1  -1.068296641021998E1  
 4.626999999000000E9     9.874061891550844E-1  -1.071747364660103E1   8.221291673643200E-2   7.578502729586406E1   8.197239407109933E-2   7.469564010859715E1   9.894318795688964E-1  -1.079362987995327E1  
 4.676999999000000E9     9.870089869260047E-1  -1.083977371072327E1   8.309586775244372E-2   7.558636208728922E1   8.287805850945740E-2   7.452525730484656E1   9.901803671052115E-1  -1.093362857380126E1  
 4.726999999000000E9     9.889352008338030E-1  -1.095203464634339E1   8.391395985760217E-2   7.555173514830804E1   8.369423725824837E-2   7.441128427834559E1   9.886059974745139E-1  -1.104224379189347E1  
 4.776999999000000E9     9.876319405332935E-1  -1.102217880519637E1   8.478790581983831E-2   7.540938766401294E1   8.458117160824771E-2   7.429197313535697E1   9.891774546471200E-1  -1.116812713110399E1  
 4.826999999000000E9     9.869889845847264E-1  -1.115704336575186E1   8.572548438892094E-2   7.522341799840207E1   8.546817576177915E-2   7.409123748834693E1   9.892470060841860E-1  -1.128815190912968E1  
 4.876999999000000E9     9.879930735082174E-1  -1.127971616901509E1   8.648577763256209E-2   7.513740815573303E1   8.626878920036164E-2   7.398086005452593E1   9.878991878823887E-1  -1.138681592966460E1  
