#  HZ   S   MA   R     50.00 
! Rohde & Schwarz ZVA67 4Ports - Version 4.11 - 1305.7002k04 SN: 101051
! Date: 2023-05-24 10:35:20
! Measurements: S11 S21 S12 S22 
! 
 2.699999900000000E7     1.368929857524653  -1.494258085340489E1   2.398625411603921E-1   7.562323563799387E1   2.406684276232580E-1   7.538844892777094E1   6.878536992015639E-1  -1.370727749943413E1  
 7.699999900000000E7     1.157634729522759  -3.580934691576195E1   5.780275532315821E-1   5.475407258774960E1   5.778838780070063E-1   5.447442823112360E1   5.764622366992264E-1  -3.497708314186951E1  
 1.269999990000000E8     9.197780533366428E-1  -5.028161831939978E1   7.582770719292821E-1   4.043451337048618E1   7.576384186215103E-1   4.039384952721556E1   4.590909739415139E-1  -4.907881746793196E1  
 1.769999990000000E8     7.397172883852976E-1  -5.950668911495622E1   8.514729887958510E-1   3.131094746633292E1   8.503641184224560E-1   3.124217652628484E1   3.724074755443494E-1  -5.791306697702017E1  
 2.269999990000000E8     6.106603409388418E-1  -6.584810582039189E1   9.017961607208014E-1   2.524537228610256E1   9.010166385981074E-1   2.516162370840418E1   3.066542091381887E-1  -6.377344226695178E1  
 2.769999990000000E8     5.137222766697169E-1  -7.017885462877686E1   9.305256136800255E-1   2.105681024165915E1   9.292573068539080E-1   2.098393598254050E1   2.628991978749902E-1  -6.788502019984945E1  
 3.269999990000000E8     4.411821341016734E-1  -7.352432749365181E1   9.488756313823712E-1   1.791459585537968E1   9.472602408938786E-1   1.783372607197357E1   2.290017430066468E-1  -7.080858049926495E1  
 3.769999990000000E8     3.846955097573142E-1  -7.614950026359016E1   9.603578273234341E-1   1.542959539415235E1   9.594012434085601E-1   1.542110550073589E1   2.023276650047093E-1  -7.303456303215228E1  
 4.269999990000000E8     3.412355733385055E-1  -7.820219846825404E1   9.691792791713333E-1   1.355351724302271E1   9.680556190113683E-1   1.347798575083892E1   1.813838078093559E-1  -7.483276360730018E1  
 4.769999990000000E8     3.078910122958951E-1  -7.986080624273289E1   9.740514577658912E-1   1.201612068689722E1   9.731364733946982E-1   1.193805063459561E1   1.629026593480617E-1  -7.630362193525762E1  
 5.269999990000000E8     2.790760010637108E-1  -8.112502827291868E1   9.794464215481746E-1   1.075133402652467E1   9.785569732017271E-1   1.064142046373006E1   1.484220310923726E-1  -7.725099797765753E1  
 5.769999990000000E8     2.549074122736324E-1  -8.241634959634916E1   9.824800346455174E-1   9.666957128361325   9.816388848056886E-1   9.546594383827612   1.365791716201659E-1  -7.826189459872431E1  
 6.269999990000000E8     2.339094489190503E-1  -8.344662188131595E1   9.842349834346452E-1   8.746526839272795   9.834896273656558E-1   8.634802886594727   1.276566335864462E-1  -7.905390807634379E1  
 6.769999990000000E8     2.163207890565117E-1  -8.429019652566001E1   9.871281255995685E-1   7.983495017881905   9.861589134445583E-1   7.819549882508500   1.186255721203249E-1  -7.959210077427410E1  
 7.269999990000000E8     2.005397918504739E-1  -8.495986726928267E1   9.887091153527547E-1   7.204703922689226   9.878781656846518E-1   7.059641164959141   1.119285553421921E-1  -8.025488799353852E1  
 7.769999990000000E8     1.869470389568964E-1  -8.570044764006676E1   9.901099820419381E-1   6.609779678511962   9.888675087561779E-1   6.455337540182667   1.051851808893283E-1  -8.070533221225439E1  
 8.269999990000000E8     1.758872462190509E-1  -8.631189690543259E1   9.909847512877932E-1   6.031221088842789   9.899677738274395E-1   5.850655260382102   9.863749296685546E-2  -8.117249135809004E1  
 8.769999990000000E8     1.641587092558038E-1  -8.670659225874417E1   9.928036780550406E-1   5.536651081332274   9.916385673458552E-1   5.338394564349882   9.360033979922122E-2  -8.159890284393471E1  
 9.269999990000000E8     1.551891837669724E-1  -8.739252128000631E1   9.925399282352448E-1   5.059053671402734   9.911203365294673E-1   4.845304515519649   8.890858245830789E-2  -8.210180494774028E1  
 9.769999990000000E8     1.462857477772775E-1  -8.767804701669024E1   9.943162331922760E-1   4.631409819159003   9.928268328900262E-1   4.410537403940670   8.523187988446088E-2  -8.213059413379015E1  
 1.026999999000000E9     1.384742939219277E-1  -8.821041446714628E1   9.945200218912500E-1   4.261096965660862   9.932145790317447E-1   4.019196637324398   8.123884264402287E-2  -8.278634461220926E1  
 1.076999999000000E9     1.309175846874727E-1  -8.857231224891960E1   9.939972729497708E-1   3.885364544036279   9.929778580898193E-1   3.635020654893812   7.834653760247409E-2  -8.355009750606317E1  
 1.126999999000000E9     1.243984498633446E-1  -8.889708143119083E1   9.955274256811449E-1   3.550031575183910   9.943735886457187E-1   3.308717470248598   7.485415878656156E-2  -8.346211850878136E1  
 1.176999999000000E9     1.187629224021231E-1  -8.914696416736950E1   9.954585381453557E-1   3.179102533123317   9.942458398832724E-1   2.916466231142710   7.240009143731295E-2  -8.397433395856652E1  
 1.226999999000000E9     1.132776322672594E-1  -8.946353491604371E1   9.959937927931869E-1   2.901317955941793   9.946838191893733E-1   2.628837709648003   6.934912945608647E-2  -8.422173569643536E1  
 1.276999999000000E9     1.085871209737161E-1  -8.962111015001321E1   9.958891707859324E-1   2.588693362944803   9.950198305843045E-1   2.337842825162905   6.696844356475190E-2  -8.481494128147159E1  
 1.326999999000000E9     1.030292887698150E-1  -8.955929815708144E1   9.970424312780235E-1   2.317210151025599   9.955773411484414E-1   2.056607475051252   6.503899181542089E-2  -8.481733407027647E1  
 1.376999999000000E9     9.863530321742774E-2  -8.986957713449763E1   9.963858308132637E-1   2.063326805558518   9.952292450963539E-1   1.798575546442918   6.255255561378603E-2  -8.535082706760298E1  
 1.426999999000000E9     9.433705767005812E-2  -8.965125592252396E1   9.974138685399923E-1   1.786298179139695   9.964513600624151E-1   1.504049324676246   6.131639591971953E-2  -8.556648335185042E1  
 1.476999999000000E9     9.050162109080327E-2  -8.966715427244097E1   9.970498721755905E-1   1.587460600247916   9.960996261103144E-1   1.304996754698390   5.922289363372612E-2  -8.601030067027003E1  
 1.526999999000000E9     8.623694131012201E-2  -8.943823471329833E1   9.972558744600470E-1   1.348712117737407   9.962876216384601E-1   1.060595282145196   5.733573233839671E-2  -8.623442142333366E1  
 1.576999999000000E9     8.275309204996896E-2  -8.940843383348989E1   9.978116017309677E-1   1.125850141494884   9.967294553752257E-1   8.426285374854792E-1   5.533755075899514E-2  -8.651608988439311E1  
 1.626999999000000E9     7.973875721150436E-2  -8.910426933579859E1   9.977686553893912E-1   8.943393607179869E-1   9.963703486435576E-1   6.164633368538014E-1   5.411445594630857E-2  -8.697112686596041E1  
 1.676999999000000E9     7.604669336662999E-2  -8.872113720423317E1   9.986233067844493E-1   6.883008820928619E-1   9.971858144120376E-1   4.068591689670416E-1   5.251977909371488E-2  -8.687749297156985E1  
 1.726999999000000E9     7.256669041868280E-2  -8.835903200916019E1   9.981544917721333E-1   5.057940771982286E-1   9.970782973132790E-1   2.124184447004799E-1   5.098120283572814E-2  -8.770515970963758E1  
 1.776999999000000E9     6.946016981324857E-2  -8.792464167540159E1   9.986890808081073E-1   3.088489614971637E-1   9.974664455290297E-1   1.919664419862711E-3   5.015835765479342E-2  -8.787461500679818E1  
 1.826999999000000E9     6.705341225128887E-2  -8.775549406765188E1   9.983410517978777E-1   1.259483433511294E-1   9.972693330593211E-1  -2.000759954219829E-1   4.866163361771092E-2  -8.841690848879313E1  
 1.876999999000000E9     6.370004313200567E-2  -8.711500901718536E1   9.987507958085639E-1  -4.350988804059715E-2   9.974983648696572E-1  -3.812697551733664E-1   4.735022450788507E-2  -8.901476953939282E1  
 1.926999999000000E9     5.440088105659476E-2  -8.287285892049347E1   9.959227169539471E-1   7.893272999700746E-1   9.949826318597987E-1   4.454663843620385E-1   5.329798662154572E-2  -9.009896608202243E1  
 1.976999999000000E9     5.165458795877041E-2  -8.259856112144396E1   9.961728335552808E-1   5.855581959085947E-1   9.952586273623360E-1   2.337577609951175E-1   5.049560140862986E-2  -9.046102078725282E1  
 2.026999999000000E9     4.877850499478287E-2  -8.251969525922205E1   9.965233877220644E-1   3.781463308722861E-1   9.951893491515835E-1   2.563852434116865E-2   4.749491486854613E-2  -9.125762737551071E1  
 2.076999999000000E9     4.629439597721031E-2  -8.212231015520361E1   9.964942792355577E-1   1.607087342077371E-1   9.951357698992238E-1  -1.940577040584308E-1   4.519284382350218E-2  -9.218330417886001E1  
 2.126999999000000E9     4.391568813202704E-2  -8.166582053610946E1   9.968911393142966E-1  -3.949117898393431E-2   9.958001123243607E-1  -4.094410538510649E-1   4.286940726387511E-2  -9.257103241126167E1  
 2.176999999000000E9     4.140125262744959E-2  -8.113795824373324E1   9.963760665205412E-1  -2.332212352221466E-1   9.957124809839958E-1  -6.092327452230456E-1   4.013183186258806E-2  -9.348394446891923E1  
 2.226999999000000E9     3.913748244204660E-2  -8.058103326280460E1   9.967665899021654E-1  -4.256096848751145E-1   9.957149623613052E-1  -7.925045038230978E-1   3.774021858311049E-2  -9.464932588490999E1  
 2.276999999000000E9     3.740151443674937E-2  -7.992299499222155E1   9.969401148161666E-1  -6.037680074095335E-1   9.954980249120110E-1  -9.858741091498017E-1   3.571034321519589E-2  -9.594176975304612E1  
 2.326999999000000E9     3.501693899353209E-2  -7.878305125685898E1   9.971017399554377E-1  -7.815434297061751E-1   9.958513968183211E-1  -1.161174436371391   3.356571718948804E-2  -9.667934365806906E1  
 2.376999999000000E9     3.286149675326978E-2  -7.786542004463730E1   9.971020760253848E-1  -9.525718154093021E-1   9.959861314037951E-1  -1.346984469842033   3.072380634591226E-2  -9.823818995574739E1  
 2.426999999000000E9     3.113462760955284E-2  -7.685885160799089E1   9.974199175205482E-1  -1.140376406487760   9.960844779933848E-1  -1.516519210199827   2.885770897770710E-2  -1.002588337485438E2  
 2.476999999000000E9     2.921363405539124E-2  -7.545964634821576E1   9.975412636281633E-1  -1.304754813348456   9.961143818277389E-1  -1.691486353899459   2.679159116685019E-2  -1.012135286237903E2  
 2.526999999000000E9     2.698441121558133E-2  -7.332136232671796E1   9.975038094393394E-1  -1.477876181316922   9.962562091445063E-1  -1.859483526343136   2.420845186906298E-2  -1.025210686354399E2  
 2.576999999000000E9     2.517297331922191E-2  -7.168657259804213E1   9.977642145496369E-1  -1.629658382697891   9.964688400722686E-1  -2.032615086871954   2.212565528110332E-2  -1.054668935558832E2  
 2.626999999000000E9     2.373436004470967E-2  -7.018561192940526E1   9.976392916979624E-1  -1.808359793666567   9.965358154732796E-1  -2.203323433901234   2.040280313746344E-2  -1.074087632611632E2  
 2.676999999000000E9     2.174465658993010E-2  -6.681937308325688E1   9.981687817691239E-1  -1.983733156631410   9.968354452501184E-1  -2.354880825342541   1.828057920404789E-2  -1.090389374016179E2  
 2.726999999000000E9     2.020066298601329E-2  -6.396570073540905E1   9.982211403253402E-1  -2.144625066210532   9.968502393281318E-1  -2.537333546742382   1.647201946208991E-2  -1.124712571646199E2  
 2.776999999000000E9     1.901811476029784E-2  -6.114146259703573E1   9.987181629711595E-1  -2.312988069073945   9.969844227124383E-1  -2.715109398494732   1.523861618008044E-2  -1.168270316467474E2  
 2.826999999000000E9     1.751327483585345E-2  -5.769211873100828E1   9.987824376689374E-1  -2.470266440398587   9.972766569166393E-1  -2.878925780696918   1.348015385911821E-2  -1.198848789237651E2  
 2.876999999000000E9     1.617750248009881E-2  -5.247655430819116E1   9.989458783369244E-1  -2.628482544328394   9.974098439001303E-1  -3.058401193550063   1.199028096896434E-2  -1.250484351879757E2  
 2.926999999000000E9     1.488197758170678E-2  -4.860521000042078E1   9.988641754185480E-1  -2.769393247712530   9.976984362446852E-1  -3.244983649939992   1.123271123000507E-2  -1.312164203751858E2  
 2.976999999000000E9     1.411216924377484E-2  -4.359000606998985E1   9.987319662173205E-1  -2.932700081735935   9.978910221164371E-1  -3.420350527917419   1.010738088009579E-2  -1.389692056489261E2  
 3.026999999000000E9     1.321130891358575E-2  -3.552485194328499E1   9.985887313834301E-1  -3.105048170038844   9.981841093779537E-1  -3.601281555652765   9.090660583683328E-3  -1.482204610005396E2  
 3.076999999000000E9     1.217370559470435E-2  -2.996529294028985E1   9.984550324337329E-1  -3.268478040188650   9.983076984636254E-1  -3.774834429563903   8.984375787153321E-3  -1.574208009473309E2  
 3.126999999000000E9     1.194816684427315E-2  -2.281294546441895E1   9.979484967779549E-1  -3.419234543194040   9.979621001575567E-1  -3.919900268218975   8.570532158621596E-3  -1.667140977662706E2  
 3.176999999000000E9     1.174705638172457E-2  -1.428096595372060E1   9.979733494239628E-1  -3.584518231645518   9.978981594120954E-1  -4.068125663239832   8.589966775424963E-3   1.793688530369476E2  
 3.226999999000000E9     1.149549275217403E-2  -5.486119247855195   9.975273786671278E-1  -3.732781269945563   9.980972867278436E-1  -4.187174844856560   9.257929125325942E-3   1.696828036244430E2  
 3.276999999000000E9     1.146673345842161E-2   7.020641346152068E-1   9.971617935638623E-1  -3.877817254990226   9.981306002759975E-1  -4.294033381099906   9.600247971173703E-3   1.621141871324390E2  
 3.326999999000000E9     1.188319572239182E-2   7.915858862030607   9.971701564389077E-1  -3.989002043854377   9.981221652138772E-1  -4.400151642179188   1.051772404912186E-2   1.540171458168467E2  
 3.376999999000000E9     1.241933839643267E-2   1.420547807278235E1   9.970529001535401E-1  -4.091265510086509   9.979492787891359E-1  -4.563069386757144   1.150635560695853E-2   1.462970266007916E2  
 3.426999999000000E9     1.297676545936149E-2   2.085767863094129E1   9.973589644085822E-1  -4.170355488048513   9.978856523302613E-1  -4.745851196427624   1.262632979433694E-2   1.407047210425635E2  
 3.476999999000000E9     1.346217731127461E-2   2.581380633503613E1   9.983120016544648E-1  -4.309351140330937   9.981915044360674E-1  -4.920289994551941   1.367282938644503E-2   1.368195691238304E2  
 3.526999999000000E9     1.447904901262169E-2   2.875451182488137E1   9.990312197161954E-1  -4.420575607289615   9.985504980354523E-1  -5.092483247348773   1.496156934825282E-2   1.310837345878021E2  
 3.576999999000000E9     1.577343590159545E-2   3.308359275600309E1   9.996856810250432E-1  -4.618795036640012   9.983207717244274E-1  -5.272412606596595   1.638800707798435E-2   1.282830668241215E2  
 3.626999999000000E9     1.653664597156908E-2   3.579885741149349E1   9.997662483063280E-1  -4.801591523323555   9.985020664904988E-1  -5.402888547470489   1.753664998904883E-2   1.257723355872289E2  
 3.676999999000000E9     1.774462822940369E-2   3.861385268793769E1   9.994581288143909E-1  -4.976623671175862   9.985792042973359E-1  -5.538430026256696   1.881356941507893E-2   1.226427555046781E2  
 3.726999999000000E9     1.896570556322895E-2   4.147781560322058E1   9.994567055436672E-1  -5.160308424134399   9.984809481108610E-1  -5.673137175577732   2.007160946955544E-2   1.208546530473360E2  
 3.776999999000000E9     1.989909911707594E-2   4.295536255237238E1   9.993959643044931E-1  -5.289691859271940   9.984500041182564E-1  -5.796683990726523   2.136086701579340E-2   1.194116359384009E2  
 3.826999999000000E9     2.132452136602248E-2   4.500225953654536E1   9.994296688480975E-1  -5.445703278857508   9.986509456814501E-1  -5.943439641005440   2.239584957748123E-2   1.165444414800849E2  
 3.876999999000000E9     2.249054450777900E-2   4.767921306598632E1   9.995966497453124E-1  -5.569677818411364   9.986997939249642E-1  -6.091535365179102   2.374037398226678E-2   1.153105885512525E2  
 3.926999999000000E9     2.377110458655077E-2   4.938825615176948E1   9.991595150465648E-1  -5.738105140251157   9.987333685098985E-1  -6.303782686024019   2.490224522939239E-2   1.141654381867407E2  
 3.976999999000000E9     2.490392188363065E-2   5.063519710900887E1   9.997514689203029E-1  -5.824395845511549   9.989438993234540E-1  -6.364448466237571   2.596261906007225E-2   1.121382833163765E2  
 4.026999999000000E9     2.644482689183738E-2   5.224121213213228E1   1.000095260398009  -5.887188357946929   9.983245327026092E-1  -6.567929726901717   2.738627478229259E-2   1.111070591177747E2  
 4.076999999000000E9     2.788899427609401E-2   5.345192693866467E1   1.000015970919164  -6.009308427148952   9.982598790265483E-1  -6.719252000105115   2.834949298093537E-2   1.103976227608673E2  
 4.126999999000000E9     2.901543590242337E-2   5.432963197836959E1   9.999880501470950E-1  -6.160732966092525   9.981968271966278E-1  -6.853861484527172   2.940084204119942E-2   1.088238578805764E2  
 4.176999999000000E9     3.045172599647422E-2   5.521602044726203E1   9.999201914303776E-1  -6.310099933946932   9.979130342042263E-1  -7.001647759062955   3.074189154517661E-2   1.073470453373155E2  
 4.226999999000000E9     3.216596186770030E-2   5.601015687781553E1   9.996579101641753E-1  -6.444301346104242   9.979438056408606E-1  -7.148524391042522   3.190376527409240E-2   1.062336546778389E2  
 4.276999999000000E9     3.359766278490781E-2   5.600072917503329E1   9.990838203981431E-1  -6.570383647050197   9.971533515566070E-1  -7.288551675107080   3.258560621751809E-2   1.044338547051194E2  
 4.326999999000000E9     3.396067616921362E-2   5.540045285761438E1   9.985570587266356E-1  -6.655894102304806   9.966822557009268E-1  -7.398759718522894   3.288781838085231E-2   1.030910827363828E2  
 4.376999999000000E9     3.423953258290929E-2   5.593048843329838E1   9.992043818519039E-1  -6.728601422276969   9.972986766063057E-1  -7.465412067074986   3.324565999928276E-2   1.039540584093804E2  
 4.426999999000000E9     3.482194103061486E-2   5.784939908716959E1   1.000071489085281  -6.834285163125877   9.982773915582663E-1  -7.598021574272316   3.437680121273382E-2   1.052997848675590E2  
 4.476999999000000E9     3.587816324588535E-2   5.994369613395756E1   1.000773842938357  -6.997040615116589   9.987885927418179E-1  -7.762940641378044   3.612673897149488E-2   1.053182645029762E2  
 4.526999999000000E9     3.725791503265583E-2   6.101891463769405E1   1.001060814869376  -7.140604034775150   9.991128416192842E-1  -7.925609393590128   3.784277307583749E-2   1.043955325467408E2  
 4.576999999000000E9     3.891891300955177E-2   6.136794946389684E1   1.001165455264161  -7.280562743493737   9.992397625152391E-1  -8.074085659390624   3.945248870516363E-2   1.038971001913598E2  
 4.626999999000000E9     4.016461771719815E-2   6.206826143881446E1   1.001156771281915  -7.417249613105818   9.992242495160570E-1  -8.225570228331421   4.061756655475188E-2   1.033471114984322E2  
 4.676999999000000E9     4.135957053060452E-2   6.298585428942985E1   1.001167420956991  -7.553024243769036   9.991336169868330E-1  -8.377931436939800   4.177764557907009E-2   1.021661941872802E2  
 4.726999999000000E9     4.252662302971048E-2   6.312976181960097E1   1.001158676960126  -7.690683735488582   9.992026056936901E-1  -8.510691413637426   4.327028092881565E-2   1.015187509570230E2  
 4.776999999000000E9     4.375856113379136E-2   6.331040840532016E1   1.001161126289146  -7.828594912138180   9.990969672029483E-1  -8.648719937393175   4.416213206956264E-2   1.012886974754318E2  
 4.826999999000000E9     4.511297799165432E-2   6.421041798715118E1   1.001178192901457  -7.950675701450805   9.990264489277175E-1  -8.781564511312778   4.525676551231071E-2   9.972255727744755E1  
 4.876999999000000E9     4.630153479642492E-2   6.403248686721167E1   1.001081040318549  -8.088434715911889   9.988236192822930E-1  -8.924041503277804   4.679925396696675E-2   9.915907115849458E1  
