#  HZ   S   MA   R     50.00 
! Rohde & Schwarz ZVA67 4Ports - Version 4.11 - 1305.7002k04 SN: 101051
! Date: 2023-05-24 10:44:31
! Measurements: S11 S21 S12 S22 
! 
 2.699999900000000E7     4.468942417028276E-2   8.329993760159172E1   9.975083669282426E-1  -1.993571227658619   9.996888522271642E-1  -2.275284024420897   1.956451503868700E-2   8.646358448160191E1  
 7.699999900000000E7     1.255871211999278E-1   8.224991241314481E1   9.934371515361501E-1  -5.117552801960650   9.932200404199227E-1  -5.503509420062526   6.076764806139687E-2   8.311177227022077E1  
 1.269999990000000E8     2.032624347882556E-1   7.924788255376225E1   9.850166111103988E-1  -8.573091866739656   9.847872069518979E-1  -8.618365104973858   9.963424167540180E-2   8.071310027779896E1  
 1.769999990000000E8     2.790329658214562E-1   7.588697878340108E1   9.752414027174744E-1  -1.190752434733616E1   9.750405190493564E-1  -1.202256441274311E1   1.377192551857051E-1   7.752801085538634E1  
 2.269999990000000E8     3.540777954151325E-1   7.276702368038069E1   9.635565022211764E-1  -1.505696311893775E1   9.625231793357131E-1  -1.515407846706490E1   1.740065557629716E-1   7.467135896225551E1  
 2.769999990000000E8     4.220698881523626E-1   6.938233012371082E1   9.478010447497632E-1  -1.834443746070801E1   9.473024337433207E-1  -1.842840622382912E1   2.115511262698410E-1   7.171611815947280E1  
 3.269999990000000E8     4.878755650961782E-1   6.613909076953257E1   9.309463607794348E-1  -2.141016680674971E1   9.299471970890988E-1  -2.151395467879560E1   2.467390958161412E-1   6.884338624068602E1  
 3.769999990000000E8     5.490150471286809E-1   6.293822684599937E1   9.126390677325649E-1  -2.446718710925287E1   9.114064023240216E-1  -2.444788665119042E1   2.803514587233096E-1   6.606100266592094E1  
 4.269999990000000E8     6.076266117513116E-1   5.989677992335385E1   8.915643119928440E-1  -2.731670077807641E1   8.901432505241623E-1  -2.740449698158582E1   3.120969391838012E-1   6.335912251115037E1  
 4.769999990000000E8     6.658023708903709E-1   5.707250856618915E1   8.713559595427171E-1  -3.004985719623956E1   8.701549052483555E-1  -3.013061967355736E1   3.385952730584124E-1   6.089476047162162E1  
 5.269999990000000E8     7.194153872203879E-1   5.422916963879546E1   8.491980199900197E-1  -3.265142861615685E1   8.487329179862707E-1  -3.275216668257888E1   3.670515427772820E-1   5.832888253698714E1  
 5.769999990000000E8     7.681580707985201E-1   5.150432247731754E1   8.259185499312812E-1  -3.524638706489619E1   8.250710944337646E-1  -3.536249629547262E1   3.925746650672815E-1   5.599302475545583E1  
 6.269999990000000E8     8.106662135897237E-1   4.880276212294432E1   8.038809435505954E-1  -3.774387746587403E1   8.025386622051559E-1  -3.790634310352728E1   4.181142659932571E-1   5.356119410667611E1  
 6.769999990000000E8     8.541661175739158E-1   4.635452380487190E1   7.793067598537040E-1  -4.008293883141479E1   7.786062571669894E-1  -4.022760472529154E1   4.408640732531424E-1   5.130741580220965E1  
 7.269999990000000E8     8.880891805809988E-1   4.385915401053039E1   7.567504147883143E-1  -4.240651801346294E1   7.554426065042272E-1  -4.261341720684300E1   4.653926551456991E-1   4.909828893795790E1  
 7.769999990000000E8     9.274845252472158E-1   4.145472195344055E1   7.351591098509591E-1  -4.451674060154506E1   7.340260351795018E-1  -4.470652094770605E1   4.820387241411475E-1   4.724830106145834E1  
 8.269999990000000E8     9.633476425841135E-1   3.938320404643709E1   7.128782648140487E-1  -4.654487097095805E1   7.115714210653364E-1  -4.673992735476806E1   4.978694886411812E-1   4.536331233874341E1  
 8.769999990000000E8     9.912454701573007E-1   3.714447252261979E1   6.893641849494132E-1  -4.846252634464928E1   6.882215963212909E-1  -4.871813008586646E1   5.171874212484974E-1   4.361399182339358E1  
 9.269999990000000E8     1.022914088111683   3.511639680868804E1   6.688780426858895E-1  -5.043143855112412E1   6.674952993969961E-1  -5.066740736626841E1   5.292357416879939E-1   4.197450998228685E1  
 9.769999990000000E8     1.044072596194733   3.310604920002811E1   6.470057587166305E-1  -5.215879046204893E1   6.453882250007333E-1  -5.242347609778847E1   5.471125835226355E-1   4.020662492882742E1  
 1.026999999000000E9     1.066793482053209   3.121404099620332E1   6.242045050521692E-1  -5.394854223257298E1   6.226437207866247E-1  -5.422749403535106E1   5.605005128493601E-1   3.865242179310586E1  
 1.076999999000000E9     1.084835153175737   2.932132189985516E1   6.045515061322415E-1  -5.569880809343403E1   6.033140364886739E-1  -5.599615154134372E1   5.762144278454765E-1   3.706125882335451E1  
 1.126999999000000E9     1.104565923507289   2.765121549374662E1   5.828391300832734E-1  -5.720223273374685E1   5.813993846400267E-1  -5.747631166148118E1   5.833537143409893E-1   3.563276009617892E1  
 1.176999999000000E9     1.120888051226591   2.578583793582097E1   5.641927020284860E-1  -5.885999801873776E1   5.627291677394145E-1  -5.916921462409663E1   5.977381607470405E-1   3.424898437345334E1  
 1.226999999000000E9     1.146749608503929   2.416841760097423E1   5.464529783297834E-1  -6.025968402792658E1   5.452935678322703E-1  -6.056729285080410E1   6.032986989598700E-1   3.314729514867923E1  
 1.276999999000000E9     1.158987221540090   2.272146716867982E1   5.270599870611696E-1  -6.173594709653529E1   5.258543228057017E-1  -6.203891418588137E1   6.105496963111105E-1   3.169345260400652E1  
 1.326999999000000E9     1.166188050231617   2.101120880909989E1   5.082453272085336E-1  -6.308035817332638E1   5.069387094912483E-1  -6.339086333062785E1   6.238766376687983E-1   3.051604000414143E1  
 1.376999999000000E9     1.185171495016838   1.959442966854930E1   4.912773101332353E-1  -6.448254109565039E1   4.904399657410351E-1  -6.479434931680120E1   6.307287481444618E-1   2.926888190097221E1  
 1.426999999000000E9     1.183810972027169   1.817044524526667E1   4.724178113451883E-1  -6.569431213198159E1   4.713732796060901E-1  -6.605114348456026E1   6.431373824404937E-1   2.795027031525278E1  
 1.476999999000000E9     1.197870430660610   1.676425432285035E1   4.568387282441905E-1  -6.695502575759767E1   4.556843063347555E-1  -6.728152097438566E1   6.454460110410629E-1   2.702909853130927E1  
 1.526999999000000E9     1.210843644614344   1.542727612185668E1   4.421724351836891E-1  -6.808142713054237E1   4.411062435877187E-1  -6.841419689227894E1   6.568579239187228E-1   2.599478859925355E1  
 1.576999999000000E9     1.221338876993901   1.412989954574928E1   4.256846872261830E-1  -6.918099248525761E1   4.246799576081828E-1  -6.951579102538868E1   6.571171591836618E-1   2.513191616425621E1  
 1.626999999000000E9     1.226580714452797   1.278292070725867E1   4.112941143114421E-1  -7.040300346348262E1   4.101888591589800E-1  -7.073519722286574E1   6.642546246201394E-1   2.415108650551975E1  
 1.676999999000000E9     1.241263863083190   1.157563993112141E1   3.973555358594821E-1  -7.135315178430064E1   3.963809269314592E-1  -7.169069115162128E1   6.685047283523011E-1   2.325582302597896E1  
 1.726999999000000E9     1.241623066685615   1.046698102370684E1   3.822188119574824E-1  -7.242343136151960E1   3.812785463760735E-1  -7.275323384544313E1   6.772181593997204E-1   2.220097600687232E1  
 1.776999999000000E9     1.240444786618146   9.160866966333071   3.677876306812403E-1  -7.341663472416003E1   3.668944383395892E-1  -7.377886684018041E1   6.844969612156462E-1   2.137863941988400E1  
 1.826999999000000E9     1.252972445188654   8.148155533658585   3.547735831592837E-1  -7.440997325630944E1   3.540205166114106E-1  -7.481839275741896E1   6.861028736523683E-1   2.035260425387634E1  
 1.876999999000000E9     1.248316885048353   7.082395920755014   3.410787681608793E-1  -7.528670003639344E1   3.402368458954485E-1  -7.568193505703032E1   6.963625060545975E-1   1.956070832718606E1  
 1.926999999000000E9     9.675096428794240E-1   8.637697957999052   2.404120223382475E-1  -8.042915616693203E1   2.397763675962293E-1  -8.085439488847439E1   9.667051814215290E-1   9.421747819176273  
 1.976999999000000E9     9.685286165857951E-1   8.040122456538635   2.310912440446373E-1  -8.102821152835871E1   2.305594915929647E-1  -8.145563176892675E1   9.720299334033862E-1   8.732873637729703  
 2.026999999000000E9     9.699328021208055E-1   7.270797582360959   2.214928077488939E-1  -8.164754324825199E1   2.208497007646411E-1  -8.201671577533662E1   9.718932213211012E-1   8.131328167425064  
 2.076999999000000E9     9.721943364397971E-1   6.641995867343669   2.127523883078628E-1  -8.237772027342565E1   2.122024812213597E-1  -8.275272317880862E1   9.763460286136192E-1   7.393582125803091  
 2.126999999000000E9     9.738827930808924E-1   5.986565862581063   2.042504332083897E-1  -8.287049318812665E1   2.038010834087883E-1  -8.329145516723881E1   9.770069524007941E-1   6.836717776031618  
 2.176999999000000E9     9.739709945968151E-1   5.455932477161686   1.955262583891595E-1  -8.355088670307447E1   1.952620342238039E-1  -8.399739710010790E1   9.784874165401060E-1   6.059261025511875  
 2.226999999000000E9     9.760682876169208E-1   4.793957458611013   1.877752015141454E-1  -8.402835003157303E1   1.873389825680535E-1  -8.448595195185268E1   9.812557947047692E-1   5.615505302130178  
 2.276999999000000E9     9.792975668552639E-1   4.360176715019366   1.797894662035294E-1  -8.463478468743443E1   1.794090910907147E-1  -8.508932152178379E1   9.800955495675946E-1   4.810393127613818  
 2.326999999000000E9     9.754240689799479E-1   3.723450218674868   1.721718813762359E-1  -8.516663562391258E1   1.718421920006268E-1  -8.559810711393870E1   9.856411906392824E-1   4.295220730384774  
 2.376999999000000E9     9.815295889491685E-1   3.155401968772548   1.647151100895400E-1  -8.566524114790911E1   1.644224630518590E-1  -8.614441215502680E1   9.819368742918805E-1   3.735325541592861  
 2.426999999000000E9     9.799522982345958E-1   2.736664145396951   1.576993971366140E-1  -8.614257418838440E1   1.573471041717319E-1  -8.660392916334217E1   9.873689362183007E-1   3.135259170803182  
 2.476999999000000E9     9.811211334880690E-1   2.141594729902244   1.506127909331929E-1  -8.665663108015794E1   1.502966889179132E-1  -8.711698319225579E1   9.863053265128136E-1   2.602902868894130  
 2.526999999000000E9     9.825792812778207E-1   1.718429572041853   1.439154488893169E-1  -8.710776873467388E1   1.436514811511602E-1  -8.757802466794261E1   9.881522439294810E-1   2.041507717047975  
 2.576999999000000E9     9.833892476114202E-1   1.167117138075848   1.372823359727242E-1  -8.752694791867062E1   1.370160228609768E-1  -8.797987104495041E1   9.882580712485574E-1   1.569353278672524  
 2.626999999000000E9     9.842947046337602E-1   6.992732741202749E-1   1.307527772684861E-1  -8.802977290537513E1   1.305441900404812E-1  -8.851753350154490E1   9.885621674407873E-1   9.600048587662478E-1  
 2.676999999000000E9     9.857147340214734E-1   2.099314971302092E-1   1.245933110292489E-1  -8.843508326622337E1   1.243509190321683E-1  -8.893432483668357E1   9.905511500099575E-1   4.887374407619944E-1  
 2.726999999000000E9     9.860203234043810E-1  -2.235771749932500E-1   1.183601103914448E-1  -8.888553481945711E1   1.181365599389769E-1  -8.932766076039403E1   9.903196187088991E-1  -8.923811152016720E-2  
 2.776999999000000E9     9.851451701465044E-1  -7.814690566851138E-1   1.124788173213041E-1  -8.932478126040651E1   1.121761917942910E-1  -8.980567114617399E1   9.929207830626485E-1  -5.857250138633138E-1  
 2.826999999000000E9     9.886849407473541E-1  -1.222374628691945   1.064818938114778E-1  -8.972731222223892E1   1.062854503952026E-1  -9.017907029117922E1   9.908530290968052E-1  -1.101208833267879  
 2.876999999000000E9     9.879690125149631E-1  -1.641074102619988   1.008751207878022E-1  -9.006795904725030E1   1.006453907324034E-1  -9.056452441836659E1   9.936449804845854E-1  -1.630947746700307  
 2.926999999000000E9     9.881658077886378E-1  -2.183039437346388   9.508297339828910E-2  -9.043135335306774E1   9.494444257045411E-2  -9.095128503452023E1   9.916220949780200E-1  -2.122603413862600  
 2.976999999000000E9     9.901912914199138E-1  -2.614073798984142   8.962210936345534E-2  -9.083745829280197E1   8.945088562404453E-2  -9.140910277130011E1   9.925790232723848E-1  -2.710939407188325  
 3.026999999000000E9     9.906707450619037E-1  -3.068188526927880   8.418648588903208E-2  -9.110462239074951E1   8.412278334120053E-2  -9.169988631919370E1   9.923925975174379E-1  -3.174520487992597  
 3.076999999000000E9     9.897554005151038E-1  -3.562175936047408   7.870768552812001E-2  -9.144528100997732E1   7.870846395259053E-2  -9.210713827112282E1   9.924572352142461E-1  -3.701655566628828  
 3.126999999000000E9     9.906181674837647E-1  -4.013219839836229   7.355847555711070E-2  -9.169471562300508E1   7.351710523307452E-2  -9.229285419547470E1   9.918864114060439E-1  -4.125941732757919  
 3.176999999000000E9     9.916500905078028E-1  -4.393397571079837   6.842018682298166E-2  -9.201919184253845E1   6.835599360970814E-2  -9.255354358058824E1   9.918710730708716E-1  -4.668782399141470  
 3.226999999000000E9     9.902502591357975E-1  -4.799468677108874   6.332769106598254E-2  -9.219979380924161E1   6.335255729110492E-2  -9.276080581793781E1   9.929057484260714E-1  -5.077839822273692  
 3.276999999000000E9     9.913493218334253E-1  -5.236388165536278   5.841717857557456E-2  -9.235186481782122E1   5.845319149054339E-2  -9.284805020023212E1   9.904030624346186E-1  -5.500697492813508  
 3.326999999000000E9     9.907497019828057E-1  -5.595175930680778   5.352482425360522E-2  -9.248399494183965E1   5.357763660669974E-2  -9.302056530777556E1   9.929861812005904E-1  -5.974873595200923  
 3.376999999000000E9     9.903803112215048E-1  -6.021870732611171   4.878143579070821E-2  -9.250067594545810E1   4.881730909473533E-2  -9.305707242045280E1   9.934102959469652E-1  -6.358668762699455  
 3.426999999000000E9     9.900649930118469E-1  -6.286452798636328   4.404967547086151E-2  -9.235640091052730E1   4.402412957341913E-2  -9.312181636620504E1   9.935887119816873E-1  -6.844094806915694  
 3.476999999000000E9     9.893272565859760E-1  -6.767166035953109   3.948663659381613E-2  -9.227115659346306E1   3.948664727307259E-2  -9.302476460685256E1   9.947851137866496E-1  -7.289542244436862  
 3.526999999000000E9     9.922141429733459E-1  -7.129869936944370   3.498778344179260E-2  -9.212513866035955E1   3.489789482468131E-2  -9.287236131975436E1   9.949378998015530E-1  -7.834229420598937  
 3.576999999000000E9     9.926131456814259E-1  -7.515666839330309   3.046176654063222E-2  -9.163453340407816E1   3.040482047495529E-2  -9.237685860661878E1   9.948941575257290E-1  -8.305569968273396  
 3.626999999000000E9     9.919558141656858E-1  -7.969034864359081   2.604899816049992E-2  -9.095667099660327E1   2.599293991697321E-2  -9.170804568957411E1   9.942561186462450E-1  -8.786227691393771  
 3.676999999000000E9     9.923649525513250E-1  -8.369743405884243   2.170686529772843E-2  -8.974373096535331E1   2.166876695823057E-2  -9.049587264777554E1   9.954958422102977E-1  -9.285034206375926  
 3.726999999000000E9     9.935243759668068E-1  -8.716382108454843   1.743823751552560E-2  -8.787710270871094E1   1.742066381986219E-2  -8.850780083276990E1   9.934548493920454E-1  -9.728471043598640  
 3.776999999000000E9     9.913167246380437E-1  -9.112344358084728   1.330428882479867E-2  -8.451746362511908E1   1.327416691423675E-2  -8.487418112655534E1   9.947184861324028E-1  -1.019849959294258E1  
 3.826999999000000E9     9.926224466406313E-1  -9.523947791653844   9.306011637273530E-3  -7.771259083096761E1   9.284593061728550E-3  -7.834555330087243E1   9.930879008593783E-1  -1.062658420263958E1  
 3.876999999000000E9     9.943619446184576E-1  -9.774918806866721   5.718696622859623E-3  -6.156096669295184E1   5.696240428827916E-3  -6.215540881477181E1   9.943465241575747E-1  -1.114073923344490E1  
 3.926999999000000E9     9.906843188081066E-1  -1.026940158493380E1   3.642716743890806E-3  -1.569565010051086E1   3.639585024864305E-3  -1.666865979034413E1   9.939699677607859E-1  -1.153873246474742E1  
 3.976999999000000E9     9.927972025854092E-1  -1.055684580550358E1   5.266587974501288E-3   3.416331970599796E1   5.262365031497223E-3   3.350683034306559E1   9.916330871292551E-1  -1.200118546133009E1  
 4.026999999000000E9     9.931695009086026E-1  -1.088458962814913E1   8.655259007989300E-3   5.278141857904787E1   8.635962276240012E-3   5.195243554490455E1   9.928268421768484E-1  -1.240218708712816E1  
 4.076999999000000E9     9.927985798372541E-1  -1.125171434596229E1   1.239157733381027E-2   6.007429420884950E1   1.235537050914116E-2   5.926460520333199E1   9.918892151930659E-1  -1.281013709330812E1  
 4.126999999000000E9     9.922688024196898E-1  -1.163124415801115E1   1.620763215679305E-2   6.363397887346516E1   1.618998632649205E-2   6.282082732251106E1   9.916382903018272E-1  -1.324675980873903E1  
 4.176999999000000E9     9.942778278853314E-1  -1.196735085969014E1   2.006844513927934E-2   6.561365514961317E1   2.004817021630341E-2   6.474370543608457E1   9.906993938094679E-1  -1.367722613198883E1  
 4.226999999000000E9     9.925519194937479E-1  -1.231776881844724E1   2.387723051522160E-2   6.645959717591649E1   2.385587498544475E-2   6.562174248443003E1   9.923147393894872E-1  -1.411458063704770E1  
 4.276999999000000E9     9.927885707513241E-1  -1.270380275926716E1   2.753858224488952E-2   6.670371417070179E1   2.744716701906903E-2   6.585514954676727E1   9.894000706013556E-1  -1.448488743010453E1  
 4.326999999000000E9     9.930795693870504E-1  -1.301763375388770E1   3.061950866786304E-2   6.738155468844613E1   3.058904222053369E-2   6.648036408055117E1   9.899151390752333E-1  -1.494616903150463E1  
 4.376999999000000E9     9.936304283001495E-1  -1.336197473960976E1   3.417743471627266E-2   6.851971095602995E1   3.408501460480013E-2   6.768392681407657E1   9.913779679734885E-1  -1.533664570855054E1  
 4.426999999000000E9     9.945390913374688E-1  -1.370294630993051E1   3.795303269116417E-2   6.914970290007564E1   3.782318040701850E-2   6.828349490812994E1   9.900464779677881E-1  -1.576563191927870E1  
 4.476999999000000E9     9.927679041136206E-1  -1.409407408800725E1   4.167828752208306E-2   6.942830463653579E1   4.159230398395409E-2   6.853116600568281E1   9.905607655529378E-1  -1.618367471463906E1  
 4.526999999000000E9     9.945584096735010E-1  -1.447669894312741E1   4.534358027319878E-2   6.936635794703841E1   4.521232015068053E-2   6.849829534513167E1   9.896475189738349E-1  -1.662872132770087E1  
 4.576999999000000E9     9.948055073222639E-1  -1.477635598655416E1   4.900684883550596E-2   6.941026738261098E1   4.886715604643226E-2   6.849326245482892E1   9.896621628474187E-1  -1.702631005489033E1  
 4.626999999000000E9     9.939555619017536E-1  -1.514834756247428E1   5.262936722560471E-2   6.934711509877759E1   5.247336685142733E-2   6.842098249457638E1   9.889718477935584E-1  -1.742331023620729E1  
 4.676999999000000E9     9.932674690125215E-1  -1.550375875803874E1   5.614272616889780E-2   6.912122027156025E1   5.599236673655766E-2   6.816720274557851E1   9.894575958375205E-1  -1.786197434369887E1  
 4.726999999000000E9     9.953159006629857E-1  -1.585409804713758E1   5.965664393309676E-2   6.901773704421026E1   5.952553216120788E-2   6.805264465783519E1   9.877898708186549E-1  -1.825255705136418E1  
 4.776999999000000E9     9.941140483373445E-1  -1.615365822465561E1   6.317046898417017E-2   6.878816267041749E1   6.302857657614133E-2   6.786881470797314E1   9.881926940684981E-1  -1.866264718919201E1  
 4.826999999000000E9     9.933035169760951E-1  -1.652775905168420E1   6.663308320359354E-2   6.857934039858237E1   6.646855967455186E-2   6.757995815242521E1   9.883433045072173E-1  -1.907688453913012E1  
