#  HZ   S   MA   R     50.00 
! Rohde & Schwarz ZVA67 4Ports - Version 4.11 - 1305.7002k04 SN: 101051
! Date: 2023-05-24 10:49:18
! Measurements: S11 S21 S12 S22 
! 
 2.699999900000000E7     2.130727233756964E-2   3.087780975787930   9.841653964502433E-1  -1.170172482784019E-1   9.820289878407142E-1  -3.639801008296781E-1   9.002558306797803E-3   7.680016145661830E-1  
 7.699999900000000E7     2.181410383616212E-2   5.586858989100076   9.861201386480260E-1  -6.162039233219995E-2   9.851522311177939E-1  -4.054232919482420E-1   1.048653879956987E-2  -8.150682183921184E-1  
 1.269999990000000E8     2.134194274594570E-2   7.601099548375436   9.846193680190861E-1  -2.407381810400228E-1   9.837391652176384E-1  -3.669388813647646E-1   1.008373008989962E-2   5.148115657798924  
 1.769999990000000E8     2.185794593622296E-2   9.200970636211936   9.841068055280796E-1  -4.975169339084990E-1   9.831548970964728E-1  -5.575879939920568E-1   1.024774343734231E-2   4.199272353755557  
 2.269999990000000E8     2.204217164531851E-2   1.361166705110588E1   9.844879761680360E-1  -5.299162391742890E-1   9.837514143535038E-1  -6.379232911357599E-1   1.051062613146639E-2   8.571426592040710  
 2.769999990000000E8     2.242312995665197E-2   1.575159758638767E1   9.849258484896065E-1  -6.987185258684385E-1   9.832867690894128E-1  -7.797110179268895E-1   1.068464620253091E-2   8.804667021597108  
 3.269999990000000E8     2.291181362518587E-2   1.869662137997178E1   9.847290685062448E-1  -8.191166036891405E-1   9.835152944209066E-1  -9.269831996403130E-1   1.120703197189223E-2   9.402728551585126  
 3.769999990000000E8     2.367840045579927E-2   2.042590644008892E1   9.841427366236103E-1  -1.033929062372723   9.829118668052154E-1  -1.013861912135867   1.105647791799651E-2   1.117346000488148E1  
 4.269999990000000E8     2.397279706849107E-2   2.265640758774477E1   9.840562948130597E-1  -1.138460543948574   9.827455242800254E-1  -1.219406913717927   1.092609849065962E-2   1.118848944959336E1  
 4.769999990000000E8     2.442688199404949E-2   2.417838015763855E1   9.839222678911124E-1  -1.215324376983702   9.826602586489485E-1  -1.292317010242688   1.073580363023359E-2   1.225829865854540E1  
 5.269999990000000E8     2.550122102523301E-2   2.609628240587451E1   9.840781504120751E-1  -1.318250053903315   9.831929446487583E-1  -1.430713262042096   1.112698299927953E-2   1.466064480517275E1  
 5.769999990000000E8     2.611138152700251E-2   2.768273950886657E1   9.837554990081535E-1  -1.432818635273835   9.829253329029205E-1  -1.581870007022002   1.084067186138431E-2   1.570015676143123E1  
 6.269999990000000E8     2.683427432797937E-2   2.952965395811160E1   9.839039653496964E-1  -1.551204101144097   9.827323511270859E-1  -1.720390482024744   1.131523557351633E-2   1.591139668775158E1  
 6.769999990000000E8     2.721892025701942E-2   3.125784393574008E1   9.834871891681452E-1  -1.664349765461799   9.826657090209260E-1  -1.862299468685267   1.132999037906492E-2   1.842384990499760E1  
 7.269999990000000E8     2.820150341331225E-2   3.170266799884555E1   9.840689439771904E-1  -1.848035642235336   9.828083769070444E-1  -2.057025886525383   1.153848762517906E-2   1.818042518622757E1  
 7.769999990000000E8     2.932600187654685E-2   3.362433059910905E1   9.839541948269023E-1  -1.925189303264256   9.827546579335353E-1  -2.121868745908271   1.171251411851767E-2   1.975945050424117E1  
 8.269999990000000E8     2.998642252533664E-2   3.423982051741711E1   9.841420510715031E-1  -2.049172443623369   9.828572656701049E-1  -2.274712158344981   1.163506344548515E-2   2.134977779612432E1  
 8.769999990000000E8     3.110951774998155E-2   3.604199538868643E1   9.839768584491377E-1  -2.161070576327835   9.828509301747674E-1  -2.414663275825542   1.138205365225906E-2   2.256817981480584E1  
 9.269999990000000E8     3.191165848004189E-2   3.667950309264650E1   9.842329631181825E-1  -2.294227039631308   9.825946424352576E-1  -2.551289778296139   1.159706596404571E-2   2.258118057311898E1  
 9.769999990000000E8     3.304406344741522E-2   3.750924517821650E1   9.844079937469145E-1  -2.387918452389287   9.826013819441815E-1  -2.686380004534744   1.207694523145195E-2   2.526422065632043E1  
 1.026999999000000E9     3.344369792275084E-2   3.844745891568048E1   9.839000512076587E-1  -2.522070141064495   9.821821104873899E-1  -2.829850824728807   1.163906301489858E-2   2.719887264170260E1  
 1.076999999000000E9     3.442813970276445E-2   3.900971514412266E1   9.841077480362508E-1  -2.662047685965387   9.825971280887946E-1  -2.959604250818921   1.180512916654429E-2   2.720753792507333E1  
 1.126999999000000E9     3.510363950878393E-2   4.014597231436088E1   9.836088062250903E-1  -2.781532129448070   9.822379561670033E-1  -3.071894305983633   1.187575317623991E-2   2.961472792831179E1  
 1.176999999000000E9     3.599833884839887E-2   3.983009283640768E1   9.839577693736595E-1  -2.944867908218968   9.824050300635830E-1  -3.275887565700124   1.177377981925495E-2   2.933194928820881E1  
 1.226999999000000E9     3.698019323559517E-2   4.109750059533284E1   9.839379485778147E-1  -3.026622318749160   9.823694941509006E-1  -3.358245774745229   1.179829501504345E-2   3.077976036443192E1  
 1.276999999000000E9     3.736407195006555E-2   4.102953624137228E1   9.836732959710581E-1  -3.187213740309182   9.824641365770434E-1  -3.503522174319536   1.134140454017746E-2   3.146892508976815E1  
 1.326999999000000E9     3.848204631705804E-2   4.130458972305629E1   9.838354494084620E-1  -3.320129790417593   9.822738972980232E-1  -3.650759459415542   1.170702050522505E-2   3.169224290649515E1  
 1.376999999000000E9     3.922562604051661E-2   4.147713530356624E1   9.841415302237393E-1  -3.454250139405105   9.826732229875531E-1  -3.778796664095697   1.210623316796336E-2   3.265444947256543E1  
 1.426999999000000E9     3.984167183088958E-2   4.137087975191130E1   9.835015057459966E-1  -3.612608387779686   9.824481370008003E-1  -3.985745896012756   1.181986543923803E-2   3.448641790233143E1  
 1.476999999000000E9     4.073058582045420E-2   4.171016877705399E1   9.834011244569996E-1  -3.707602670146908   9.822276712820613E-1  -4.070147104127737   1.160625251061763E-2   3.617629114427080E1  
 1.526999999000000E9     4.225730528705889E-2   4.156303691094225E1   9.842149304772542E-1  -3.818826562950076   9.825195500499676E-1  -4.198087505156074   1.227116771790820E-2   3.665242907284969E1  
 1.576999999000000E9     4.312355017576032E-2   4.209451885049315E1   9.834183939597818E-1  -3.969367166199044   9.819867681160073E-1  -4.331802534798401   1.172872502886065E-2   3.948883923377183E1  
 1.626999999000000E9     4.382349310013724E-2   4.171794077593175E1   9.839633921876377E-1  -4.111507468543365   9.822959923080764E-1  -4.474453217674446   1.153780568720771E-2   3.896885566467091E1  
 1.676999999000000E9     4.512357398229620E-2   4.220423613328148E1   9.837361542794785E-1  -4.247658500550829   9.823923820824161E-1  -4.603695079926241   1.185531085009887E-2   3.975760316708279E1  
 1.726999999000000E9     4.617406009175248E-2   4.235267618491128E1   9.836058689686238E-1  -4.376364669788734   9.821948107554760E-1  -4.744376329969303   1.205075054048873E-2   4.240877410976892E1  
 1.776999999000000E9     4.716944514818513E-2   4.242902053217122E1   9.836356769230218E-1  -4.495439749285953   9.821640976253259E-1  -4.903177412568382   1.216975827941963E-2   4.213353189377182E1  
 1.826999999000000E9     4.751190449912519E-2   4.266011499259413E1   9.833914244618898E-1  -4.630016226800281   9.820490212327775E-1  -5.044024440556392   1.226652381388583E-2   4.294114423443747E1  
 1.876999999000000E9     4.873437377594632E-2   4.282849639552170E1   9.830572729127377E-1  -4.760650707626946   9.815865896792670E-1  -5.184673134328293   1.227748129139113E-2   4.544780535505105E1  
 1.926999999000000E9     5.778824423944759E-2   5.889253375966104E1   9.751772176609277E-1  -5.599657661935005   9.740298767450362E-1  -6.022503001333870   5.696275114097375E-2   6.239225886718509E1  
 1.976999999000000E9     5.872888615625121E-2   5.917625150074252E1   9.747317444426794E-1  -5.717095580083894   9.739312821366838E-1  -6.170778088408514   5.830096242463672E-2   6.255495014856216E1  
 2.026999999000000E9     5.990680891303269E-2   5.958386938231581E1   9.747961858958871E-1  -5.880783899429101   9.729984142624568E-1  -6.324707128950919   5.931400466974179E-2   6.317202961647698E1  
 2.076999999000000E9     6.081472519018428E-2   5.966863904216570E1   9.748802622794923E-1  -6.047903645267359   9.732075367211803E-1  -6.488960226189115   6.008833277342079E-2   6.345827386351900E1  
 2.126999999000000E9     6.194607301814024E-2   5.960236397992060E1   9.744233442590519E-1  -6.192409274629914   9.731313103009390E-1  -6.645796665263959   6.111782697598678E-2   6.343652625700726E1  
 2.176999999000000E9     6.309809456012509E-2   6.001638013165618E1   9.739988475821392E-1  -6.340770370599381   9.730100322071837E-1  -6.824105229746781   6.234902807666620E-2   6.378839498639119E1  
 2.226999999000000E9     6.401138630721986E-2   5.989405943407690E1   9.736920279597026E-1  -6.473154610099339   9.727418870103249E-1  -6.940975322185083   6.322830570499502E-2   6.434987163236498E1  
 2.276999999000000E9     6.487481569186084E-2   6.008748557517755E1   9.739574382380336E-1  -6.627441039794215   9.724719628337347E-1  -7.095904288737243   6.395027710491769E-2   6.463524075644665E1  
 2.326999999000000E9     6.608442357951626E-2   5.994937446073267E1   9.735869340193371E-1  -6.757424619001507   9.723814074312632E-1  -7.251108431433683   6.533480517601110E-2   6.484603691593523E1  
 2.376999999000000E9     6.760978692756843E-2   6.011714075185805E1   9.733447635823498E-1  -6.925001974390512   9.721801000969829E-1  -7.395122507107510   6.646945812254861E-2   6.540644157939276E1  
 2.426999999000000E9     6.825541165266513E-2   6.023239402864935E1   9.735319562636594E-1  -7.052423985250488   9.718570027778534E-1  -7.535074234166324   6.747516144069128E-2   6.594915394666880E1  
 2.476999999000000E9     6.947614165348752E-2   6.032391901162682E1   9.734869459368001E-1  -7.202124338684381   9.718640694290247E-1  -7.699788171072344   6.855391240257812E-2   6.586524563065133E1  
 2.526999999000000E9     7.092970258828057E-2   6.035210510259221E1   9.730462333911799E-1  -7.340287171063171   9.716651809541753E-1  -7.833218952141642   7.008145247405088E-2   6.588631695319326E1  
 2.576999999000000E9     7.197991558584045E-2   6.040702758912891E1   9.727998881974076E-1  -7.471585339476792   9.714360044594653E-1  -7.982367971640018   7.115566979451533E-2   6.658722309506531E1  
 2.626999999000000E9     7.292851185376632E-2   6.058961090500154E1   9.730520229529523E-1  -7.631084469716413   9.714519368003063E-1  -8.147713262702963   7.197677136663562E-2   6.661549927877675E1  
 2.676999999000000E9     7.453062537816266E-2   6.051278223918368E1   9.729390322506167E-1  -7.797603941503694   9.712186731911517E-1  -8.277781155124394   7.347084225308931E-2   6.644452342638266E1  
 2.726999999000000E9     7.557666712791332E-2   6.059014754659039E1   9.730612116511650E-1  -7.940692210979563   9.712270528369027E-1  -8.448345070850190   7.455113371005996E-2   6.658061992411348E1  
 2.776999999000000E9     7.632547206711113E-2   6.044517334840553E1   9.733268814514942E-1  -8.110240605064110   9.710710502722105E-1  -8.592145934975358   7.533826572431594E-2   6.701022105605880E1  
 2.826999999000000E9     7.767822832103072E-2   6.055536492166642E1   9.731136500312799E-1  -8.249804663519253   9.712162652850337E-1  -8.751016218970031   7.637024473699300E-2   6.682236525086960E1  
 2.876999999000000E9     7.887525667659076E-2   6.041028671606257E1   9.727182570132547E-1  -8.381476297636416   9.709527089861195E-1  -8.931159044982797   7.766439845987037E-2   6.685089910874328E1  
 2.926999999000000E9     8.006166306405692E-2   6.051143176524041E1   9.724664074812427E-1  -8.530729665086200   9.712208652761520E-1  -9.112797074131315   7.813368455754255E-2   6.696363071535947E1  
 2.976999999000000E9     8.076759391207870E-2   6.043425737083418E1   9.724290315593106E-1  -8.691351234846323   9.711816633492563E-1  -9.302441218773652   7.907940216622623E-2   6.698768621795911E1  
 3.026999999000000E9     8.226574363587746E-2   6.020818028833554E1   9.718194752729789E-1  -8.849975156350117   9.709063829863629E-1  -9.498504052459579   8.013820988963955E-2   6.712776211670784E1  
 3.076999999000000E9     8.312467980350452E-2   6.045907771773427E1   9.713322536494027E-1  -9.016529686451385   9.710321222941485E-1  -9.675815049582726   8.088709974682799E-2   6.738857955991028E1  
 3.126999999000000E9     8.413708986354031E-2   6.024395527132047E1   9.705920734473281E-1  -9.146852996562492   9.706053599917350E-1  -9.794937866565228   8.163789347520424E-2   6.733993991338609E1  
 3.176999999000000E9     8.541927424857233E-2   6.031973545211008E1   9.705397975973051E-1  -9.337963032372675   9.700567052235494E-1  -9.942712488729672   8.288591334628749E-2   6.748268379929861E1  
 3.226999999000000E9     8.639015545429306E-2   6.036734041246876E1   9.698431180768368E-1  -9.481224602926307   9.702715207828239E-1  -1.006083915188568E1   8.367630270509684E-2   6.784391774774716E1  
 3.276999999000000E9     8.723619720849829E-2   6.034959525032657E1   9.689336838714702E-1  -9.629609709606470   9.697451622642112E-1  -1.016175714023234E1   8.446149906791689E-2   6.772885958054830E1  
 3.326999999000000E9     8.824670504304551E-2   6.030805448117938E1   9.685985730517192E-1  -9.740831728774458   9.697805845281374E-1  -1.025656832323384E1   8.556329502166725E-2   6.804690998999857E1  
 3.376999999000000E9     8.922970855954179E-2   6.017784511303258E1   9.682477487983902E-1  -9.852766973035603   9.690650917711947E-1  -1.043141904826285E1   8.658725513142233E-2   6.811030623438653E1  
 3.426999999000000E9     9.015261006706611E-2   6.024869455285921E1   9.683893588535216E-1  -9.903701538110088   9.687694132670670E-1  -1.063548230968177E1   8.761206215601713E-2   6.817162266664266E1  
 3.476999999000000E9     9.092361692067807E-2   6.017782653215418E1   9.689300465734175E-1  -1.005159195549788E1   9.687140297430743E-1  -1.081806850526286E1   8.844954972710969E-2   6.823083094480961E1  
 3.526999999000000E9     9.191019664629756E-2   5.991811347319682E1   9.700491228378839E-1  -1.016248780159203E1   9.691741918291090E-1  -1.100980065726554E1   8.965723032703760E-2   6.820067269879195E1  
 3.576999999000000E9     9.348905467780359E-2   5.971060773079030E1   9.699764461565656E-1  -1.036707703985038E1   9.685231961478442E-1  -1.117901011986163E1   9.047623765714860E-2   6.839104587996258E1  
 3.626999999000000E9     9.406213317718265E-2   5.962096066360808E1   9.700182251089703E-1  -1.056932709041748E1   9.681510545997253E-1  -1.133096853284133E1   9.128586354177500E-2   6.842737950843346E1  
 3.676999999000000E9     9.516914730823949E-2   5.933278184200385E1   9.698695385572483E-1  -1.075956103134841E1   9.681512549901206E-1  -1.148020330137054E1   9.229502169100597E-2   6.833533129130386E1  
 3.726999999000000E9     9.661378517082361E-2   5.920303029834146E1   9.689327465917756E-1  -1.094857727861311E1   9.677011225473858E-1  -1.161873246971551E1   9.324601255599324E-2   6.840715374865751E1  
 3.776999999000000E9     9.710223735581361E-2   5.908955697322684E1   9.687043313816757E-1  -1.109318879966511E1   9.676004600965205E-1  -1.174056133686500E1   9.409771096015224E-2   6.851161356871734E1  
 3.826999999000000E9     9.841419513013545E-2   5.887420621363086E1   9.680650784381881E-1  -1.123853464510073E1   9.671899454052767E-1  -1.189294649528420E1   9.504997628499227E-2   6.827722052845630E1  
 3.876999999000000E9     9.958903980760579E-2   5.885427890915715E1   9.681734076385578E-1  -1.137309385480607E1   9.674094881854916E-1  -1.205214875551562E1   9.609680903683919E-2   6.832129092870045E1  
 3.926999999000000E9     1.007314708473094E-1   5.870190935944508E1   9.673902934823038E-1  -1.156354624347971E1   9.666892027382377E-1  -1.228781468411338E1   9.695238748037915E-2   6.844234957890716E1  
 3.976999999000000E9     1.015731055436331E-1   5.868704618080955E1   9.675378459732495E-1  -1.164974403441918E1   9.665501172164720E-1  -1.233995213581353E1   9.773818557786035E-2   6.814763891238314E1  
 4.026999999000000E9     1.028630806745554E-1   5.846006398845072E1   9.675652409358544E-1  -1.170838405759799E1   9.656954071945476E-1  -1.254042243548758E1   9.878098903498241E-2   6.823342706818676E1  
 4.076999999000000E9     1.042372609906083E-1   5.825734064329235E1   9.673353466186255E-1  -1.183201304085482E1   9.652866720940631E-1  -1.269931233071325E1   9.944350336656382E-2   6.814258030596530E1  
 4.126999999000000E9     1.049723117737269E-1   5.797488564317528E1   9.667909986749528E-1  -1.196854763823882E1   9.647045967374792E-1  -1.283459998623610E1   1.003045875594416E-1   6.770284699574394E1  
 4.176999999000000E9     1.053941921360968E-1   5.764499856702362E1   9.661311826602131E-1  -1.208265602446496E1   9.639109744580152E-1  -1.294216446621691E1   1.006764800481308E-1   6.745646850190616E1  
 4.226999999000000E9     1.057231148419398E-1   5.753627015714883E1   9.664773084507853E-1  -1.218376734818769E1   9.643648774534257E-1  -1.304642119775483E1   1.004278779620010E-1   6.755663306800211E1  
 4.276999999000000E9     1.062614067659791E-1   5.776307645402809E1   9.667257135170048E-1  -1.229616974997476E1   9.644053680374526E-1  -1.319325004334972E1   1.006219779968809E-1   6.778251581099993E1  
 4.326999999000000E9     1.066996830145154E-1   5.798398663550466E1   9.673204777181474E-1  -1.243927054568521E1   9.649162946350811E-1  -1.335140076751900E1   1.015177100244915E-1   6.806685617739528E1  
 4.376999999000000E9     1.076814624663801E-1   5.789102744316755E1   9.672679935889151E-1  -1.260138744263833E1   9.650711744853947E-1  -1.351141264139262E1   1.022565616168488E-1   6.829117030245517E1  
 4.426999999000000E9     1.088553527004261E-1   5.789213581682606E1   9.673402337603955E-1  -1.273469443100120E1   9.649840166981167E-1  -1.368033319492130E1   1.029076413240815E-1   6.836397421427030E1  
 4.476999999000000E9     1.094911382610223E-1   5.784711187776222E1   9.668803089886945E-1  -1.290101239801913E1   9.647593578178654E-1  -1.384193888554107E1   1.039261750561919E-1   6.841041408078388E1  
 4.526999999000000E9     1.102683586926722E-1   5.762366403510440E1   9.671107403559827E-1  -1.303151775861305E1   9.648541975206604E-1  -1.398643601141889E1   1.046801252143951E-1   6.836310528616950E1  
 4.576999999000000E9     1.113851184683766E-1   5.735626179314995E1   9.668784654821950E-1  -1.315862604839135E1   9.645920480345142E-1  -1.414802218584700E1   1.054119655150024E-1   6.859219283799190E1  
 4.626999999000000E9     1.120879028147048E-1   5.724176847056264E1   9.668407353910219E-1  -1.330318014642993E1   9.643482038759216E-1  -1.429773756277976E1   1.060285139093413E-1   6.861268174529151E1  
 4.676999999000000E9     1.125804093617324E-1   5.719238907280627E1   9.666100058574123E-1  -1.343940701485073E1   9.645533487478438E-1  -1.445838760171220E1   1.067885304097186E-1   6.852851937948050E1  
 4.726999999000000E9     1.134566710048911E-1   5.689464695310533E1   9.666703052472275E-1  -1.356166503088610E1   9.644810850910740E-1  -1.458151160968362E1   1.076365402162042E-1   6.871696922348951E1  
 4.776999999000000E9     1.142628002989606E-1   5.673675860233947E1   9.664962320742196E-1  -1.371243317178570E1   9.642818345529836E-1  -1.473524769341657E1   1.080754487098964E-1   6.876138352646188E1  
 4.826999999000000E9     1.151031222911701E-1   5.684007722805334E1   9.666145127366821E-1  -1.384681821060468E1   9.641778976313158E-1  -1.488974643967170E1   1.090629265879795E-1   6.847255723375051E1  
