#  HZ   S   MA   R     50.00 
! Rohde & Schwarz ZVA67 4Ports - Version 4.11 - 1305.7002k04 SN: 101051
! Date: 2023-05-24 10:38:19
! Measurements: S11 S21 S12 S22 
! 
 2.699999900000000E7     6.702055787726207E-3   7.612598207765785E1   9.988937266485493E-1  -1.734745010938274E-1   9.970333650186707E-1  -4.833123602319469E-1   2.704794758580637E-3   9.612126208075263E1  
 7.699999900000000E7     1.651520531325402E-2   8.455579822370588E1   9.981655685227436E-1  -6.465884512525240E-1   9.983924192602911E-1  -8.942837697307271E-1   6.938770678856999E-3   8.924854025545727E1  
 1.269999990000000E8     2.552887174067787E-2   8.569053685757434E1   9.969641210943540E-1  -1.202459773984429   9.974029779703892E-1  -1.250007226307738   1.204233628119491E-2   8.991531470399021E1  
 1.769999990000000E8     3.526418799175785E-2   8.449942734337566E1   9.978912370529252E-1  -1.717340073852327   9.964707909927678E-1  -1.845509337511448   1.613392444352896E-2   8.714532820308115E1  
 2.269999990000000E8     4.572603371339765E-2   8.474024789745248E1   9.978832822429176E-1  -2.148522191220451   9.968176891773515E-1  -2.260379808576885   2.100585339993337E-2   8.700326897257607E1  
 2.769999990000000E8     5.481339010595942E-2   8.405597887375144E1   9.971485877527663E-1  -2.668887958846358   9.965239049764150E-1  -2.745360051152607   2.571087788899483E-2   8.712643952874761E1  
 3.269999990000000E8     6.444240884152756E-2   8.344187835642700E1   9.966874237010230E-1  -3.126367449901889   9.960737846148114E-1  -3.221859027479901   3.074005124282498E-2   8.637638089301051E1  
 3.769999990000000E8     7.372450613540972E-2   8.268770097637680E1   9.960044909919610E-1  -3.672485643045945   9.950503963005549E-1  -3.683657519324459   3.543256795554667E-2   8.642908600065610E1  
 4.269999990000000E8     8.289858754995047E-2   8.240295444646834E1   9.952948987169411E-1  -4.151364364246566   9.941957012169804E-1  -4.206277681197719   3.976407676959264E-2   8.663760151900355E1  
 4.769999990000000E8     9.243027039288300E-2   8.176493934138355E1   9.950672948423724E-1  -4.577652732336578   9.938281597562293E-1  -4.637841045409641   4.403462927984093E-2   8.647655595475676E1  
 5.269999990000000E8     1.023315325004647E-1   8.100235297783122E1   9.942062387040869E-1  -5.012176601639044   9.933329252973198E-1  -5.109967488742168   4.930228526244302E-2   8.605330063349362E1  
 5.769999990000000E8     1.118035927966371E-1   8.039818228483563E1   9.933119471946241E-1  -5.492630655943000   9.925761149957508E-1  -5.620917851845292   5.373173424395840E-2   8.602435282599450E1  
 6.269999990000000E8     1.210339802241103E-1   7.976969149290638E1   9.932263701309488E-1  -5.963294940936317   9.920175769452556E-1  -6.104045251159188   5.861936798390162E-2   8.508429008623088E1  
 6.769999990000000E8     1.303734697634457E-1   7.923455596612047E1   9.917840886887147E-1  -6.441290495551549   9.909432838973989E-1  -6.591747979178771   6.381041235157453E-2   8.507524255313111E1  
 7.269999990000000E8     1.394438510504283E-1   7.838030696064864E1   9.915148639968262E-1  -6.935786527987212   9.904591737019401E-1  -7.131208165049864   6.900407675935424E-2   8.458115127951221E1  
 7.769999990000000E8     1.495830353233986E-1   7.766107511809524E1   9.911054896928774E-1  -7.371480705797334   9.901384154809904E-1  -7.521798033155871   7.364784222502070E-2   8.403515754249878E1  
 8.269999990000000E8     1.589993343767054E-1   7.708098921068331E1   9.907319907099454E-1  -7.827048010017970   9.891654608898228E-1  -8.003444754217142   7.791571202227168E-2   8.390134416500671E1  
 8.769999990000000E8     1.682149234721972E-1   7.646219102534130E1   9.886771486755213E-1  -8.292883586199439   9.877662003003644E-1  -8.518975901375034   8.300867712685045E-2   8.407913021142134E1  
 9.269999990000000E8     1.780533264555504E-1   7.564307890863880E1   9.892727038034290E-1  -8.760002123591825   9.877716433392003E-1  -8.969308969523352   8.739619786127668E-2   8.342824155039448E1  
 9.769999990000000E8     1.874129324601294E-1   7.499008020034816E1   9.877947809099197E-1  -9.196211660425583   9.861538321051865E-1  -9.435288568394759   9.327534148872257E-2   8.305965665307957E1  
 1.026999999000000E9     1.962613134826112E-1   7.449516470810731E1   9.860920787979370E-1  -9.698287902801267   9.845821792491539E-1  -9.945643022084195   9.786969718537641E-2   8.313881397734710E1  
 1.076999999000000E9     2.048536368889020E-1   7.365429187869373E1   9.866538097295701E-1  -1.018041934623800E1   9.853496107606179E-1  -1.043709104028179E1   1.030375232743745E-1   8.242824788198443E1  
 1.126999999000000E9     2.142850180611881E-1   7.322407968517696E1   9.833653449689063E-1  -1.064983725377991E1   9.819807968009923E-1  -1.089662390633504E1   1.081529095806813E-1   8.256923133684283E1  
 1.176999999000000E9     2.235558722943157E-1   7.243567999684785E1   9.839029051194387E-1  -1.113800802627936E1   9.822160163754734E-1  -1.143067097376264E1   1.126945455247296E-1   8.211233614835274E1  
 1.226999999000000E9     2.338942681059650E-1   7.197491330684015E1   9.824884191277689E-1  -1.155477200268501E1   9.813175651192352E-1  -1.183349832271267E1   1.168128254293692E-1   8.195902609136893E1  
 1.276999999000000E9     2.421463962878769E-1   7.139635927157958E1   9.813062312617533E-1  -1.208817343626590E1   9.800434210700458E-1  -1.234187548253841E1   1.212849963885476E-1   8.179881452718199E1  
 1.326999999000000E9     2.511059527418380E-1   7.066789264562333E1   9.793000860391474E-1  -1.253351955361285E1   9.780212458523907E-1  -1.283175965501503E1   1.270763374849417E-1   8.146704095483642E1  
 1.376999999000000E9     2.603472275806249E-1   7.007611717718935E1   9.798548080861594E-1  -1.304638739455641E1   9.784672337780822E-1  -1.331144498811620E1   1.314023532470078E-1   8.076495980684449E1  
 1.426999999000000E9     2.678581565996031E-1   6.942749620424668E1   9.761870315614134E-1  -1.356177593979136E1   9.750826394311791E-1  -1.387998219871458E1   1.378761171381273E-1   8.078544127328385E1  
 1.476999999000000E9     2.775092919017515E-1   6.880262968109484E1   9.756802468362732E-1  -1.400370491197016E1   9.744811360035048E-1  -1.430322332442852E1   1.422794836543286E-1   8.064199046996704E1  
 1.526999999000000E9     2.866070792227465E-1   6.794177794184354E1   9.756479598708233E-1  -1.443618644825175E1   9.741498952120035E-1  -1.474797226598306E1   1.474467624026992E-1   7.991507004668239E1  
 1.576999999000000E9     2.965301191175654E-1   6.746617175460925E1   9.716690154006843E-1  -1.492882908988276E1   9.707094131574031E-1  -1.523063171988253E1   1.519502896528261E-1   8.030144820077362E1  
 1.626999999000000E9     3.045975082732300E-1   6.669820355614621E1   9.726755722427387E-1  -1.542521534432188E1   9.708385390692934E-1  -1.573025052887132E1   1.560830885894243E-1   7.998166193295106E1  
 1.676999999000000E9     3.146960312907474E-1   6.605311719047063E1   9.696282132409726E-1  -1.586631459229277E1   9.685992093148963E-1  -1.616224291329336E1   1.613920649914663E-1   7.960066231619479E1  
 1.726999999000000E9     3.227785560306582E-1   6.538432192134177E1   9.685675892559765E-1  -1.637563207618057E1   9.668821899665834E-1  -1.667377585401978E1   1.676672030665491E-1   7.916176488533448E1  
 1.776999999000000E9     3.313022543352339E-1   6.461390137881107E1   9.664199623359132E-1  -1.685572000107286E1   9.651576683289833E-1  -1.721334231666728E1   1.727817490476256E-1   7.883665824046555E1  
 1.826999999000000E9     3.395857156376756E-1   6.413873744648603E1   9.650897347612961E-1  -1.735146951923801E1   9.637250199818007E-1  -1.766736092134768E1   1.774789984088652E-1   7.835926277824933E1  
 1.876999999000000E9     3.477207088926339E-1   6.345806524203000E1   9.615475586998876E-1  -1.781029199407968E1   9.601996759799065E-1  -1.818664096285407E1   1.842353493984970E-1   7.826389186020471E1  
 1.926999999000000E9     3.690468831385977E-1   6.462994870676465E1   9.267559042639976E-1  -2.397367246642797E1   9.258056137590045E-1  -2.434467703380885E1   3.698493773186714E-1   6.621251971743416E1  
 1.976999999000000E9     3.769648414776249E-1   6.406261518932767E1   9.230580301183585E-1  -2.452854470020267E1   9.220735748465195E-1  -2.491432121657342E1   3.794237529448271E-1   6.559835423943991E1  
 2.026999999000000E9     3.858623990007931E-1   6.339572220421601E1   9.180790168412251E-1  -2.517150517819265E1   9.166361399420195E-1  -2.552135274211859E1   3.877376057748792E-1   6.513006266185131E1  
 2.076999999000000E9     3.939885580028732E-1   6.281124873883704E1   9.163253808183546E-1  -2.577439767282287E1   9.146057759516701E-1  -2.614558167194029E1   3.964562151974577E-1   6.449534346336910E1  
 2.126999999000000E9     4.024614163084752E-1   6.214506099303501E1   9.107798842151365E-1  -2.632327325620783E1   9.098684614001824E-1  -2.670387230224631E1   4.047789624079042E-1   6.393677170942208E1  
 2.176999999000000E9     4.112649206120096E-1   6.165632210392900E1   9.079211146053029E-1  -2.699376603313696E1   9.068290802444886E-1  -2.738867264355038E1   4.136845170385696E-1   6.328802630398033E1  
 2.226999999000000E9     4.188511510884496E-1   6.092458006045583E1   9.031111162931403E-1  -2.750674253583001E1   9.024383789540196E-1  -2.792703466445250E1   4.217557887054511E-1   6.284314706024841E1  
 2.276999999000000E9     4.278492661997725E-1   6.051097188049180E1   9.003151989335793E-1  -2.813221656760284E1   8.986384230895855E-1  -2.851956913873885E1   4.294998913408409E-1   6.212675164960594E1  
 2.326999999000000E9     4.348315382645623E-1   5.980901521487652E1   8.954955781105375E-1  -2.869753169139906E1   8.942299128936890E-1  -2.912948413826400E1   4.389898292685198E-1   6.162163619771700E1  
 2.376999999000000E9     4.447351817295849E-1   5.921589996840874E1   8.914945117975346E-1  -2.930114435034430E1   8.903656195041064E-1  -2.970523096384099E1   4.457345974996032E-1   6.107608233186725E1  
 2.426999999000000E9     4.509839388932549E-1   5.869100252036319E1   8.876982300614608E-1  -2.981947836625723E1   8.861084494438624E-1  -3.025350012179676E1   4.552928919538706E-1   6.054215220195597E1  
 2.476999999000000E9     4.599846579182240E-1   5.805989099853456E1   8.833672467323863E-1  -3.044417304455720E1   8.820599583186247E-1  -3.086879184465961E1   4.627054919042872E-1   5.997189510110353E1  
 2.526999999000000E9     4.677850223000874E-1   5.756197754879887E1   8.792910963786282E-1  -3.099943878578394E1   8.782004394389789E-1  -3.140786813747499E1   4.708122786616789E-1   5.936967900701136E1  
 2.576999999000000E9     4.754303597697752E-1   5.692049538224818E1   8.741707063230391E-1  -3.152914178741168E1   8.728252806539708E-1  -3.196635701153488E1   4.783251663766671E-1   5.890145038456741E1  
 2.626999999000000E9     4.834943677391386E-1   5.637645896728120E1   8.708744568461967E-1  -3.214776062145065E1   8.695917264127293E-1  -3.257172524547873E1   4.862574290570868E-1   5.832677334236440E1  
 2.676999999000000E9     4.917619785582512E-1   5.576625999107942E1   8.662646131109476E-1  -3.266897409058818E1   8.649360799482134E-1  -3.309101279726229E1   4.943906827989094E-1   5.775432646825476E1  
 2.726999999000000E9     4.992938765791095E-1   5.529423546819248E1   8.619824651914999E-1  -3.326970758187551E1   8.605077180379772E-1  -3.367333440215840E1   5.020521334197462E-1   5.714280694702495E1  
 2.776999999000000E9     5.056515995831050E-1   5.464434097166246E1   8.581632644305870E-1  -3.383347916605572E1   8.561989138652371E-1  -3.423944804574325E1   5.099036656045709E-1   5.670601857277081E1  
 2.826999999000000E9     5.149044606529284E-1   5.406474674633178E1   8.534853012418756E-1  -3.439236916802313E1   8.519121465679395E-1  -3.482195739036519E1   5.166004560367972E-1   5.609162768354566E1  
 2.876999999000000E9     5.213431850099037E-1   5.355695121434537E1   8.492856394719193E-1  -3.488814800253111E1   8.476921637607106E-1  -3.536646370088889E1   5.249833077528016E-1   5.553110412313838E1  
 2.926999999000000E9     5.291186930811522E-1   5.293080456399497E1   8.437274691362643E-1  -3.546124933851183E1   8.429123550285230E-1  -3.597428813156527E1   5.312269091545634E-1   5.501717289820779E1  
 2.976999999000000E9     5.362479814301495E-1   5.241382756178317E1   8.399843077523445E-1  -3.604795792230953E1   8.391525291168019E-1  -3.655116646778593E1   5.385527158592034E-1   5.444433784379410E1  
 3.026999999000000E9     5.439641640852049E-1   5.176196546221783E1   8.344869370978298E-1  -3.658383760040108E1   8.340243648724328E-1  -3.710888082266453E1   5.457176706792231E-1   5.391880958864710E1  
 3.076999999000000E9     5.510599177414963E-1   5.128755522378507E1   8.302353178687478E-1  -3.713954883032985E1   8.296928504029419E-1  -3.771778653529655E1   5.530107664154429E-1   5.341460315333899E1  
 3.126999999000000E9     5.573876798971009E-1   5.066818728726289E1   8.251887113184827E-1  -3.765335183310060E1   8.252337099248791E-1  -3.819890445952137E1   5.589239473134167E-1   5.290111140802327E1  
 3.176999999000000E9     5.649462355551310E-1   5.017356390824543E1   8.202974671669090E-1  -3.823364462333493E1   8.199525251600851E-1  -3.872647804842818E1   5.664616411722491E-1   5.237986796925750E1  
 3.226999999000000E9     5.711957619957675E-1   4.963706161789505E1   8.155431899071514E-1  -3.875610736996066E1   8.157450675596160E-1  -3.926902896188602E1   5.734663678633366E-1   5.190267893777072E1  
 3.276999999000000E9     5.781517598683338E-1   4.909511439207514E1   8.100399777555574E-1  -3.928094152779859E1   8.106750948000931E-1  -3.971605095104363E1   5.794442764352104E-1   5.142176231146647E1  
 3.326999999000000E9     5.840451382484216E-1   4.862551637122756E1   8.056780635379138E-1  -3.976906010638009E1   8.061909929852803E-1  -4.022612939672755E1   5.866091347288557E-1   5.091983960774134E1  
 3.376999999000000E9     5.906344961444950E-1   4.808183142973516E1   8.003435979932473E-1  -4.024907242873631E1   8.009496688984839E-1  -4.075881236351727E1   5.935021653832526E-1   5.046554365950925E1  
 3.426999999000000E9     5.967100424045199E-1   4.766297063498594E1   7.960987231603736E-1  -4.068299822983580E1   7.961167400639958E-1  -4.132691013267132E1   6.003392696126783E-1   4.991204003023541E1  
 3.476999999000000E9     6.026585771261349E-1   4.710932218842635E1   7.913026546239528E-1  -4.116193531502141E1   7.910460301438839E-1  -4.183004544214344E1   6.067839614600258E-1   4.948773955396451E1  
 3.526999999000000E9     6.104340612676189E-1   4.664393964616248E1   7.881847019996008E-1  -4.170553340187161E1   7.875196010438171E-1  -4.243025184654632E1   6.133426112258529E-1   4.889134387566772E1  
 3.576999999000000E9     6.168457102572679E-1   4.604457148221171E1   7.829649776214344E-1  -4.220656987138308E1   7.820574400303356E-1  -4.290863222526753E1   6.197678718581009E-1   4.839311448744329E1  
 3.626999999000000E9     6.227355759113508E-1   4.550261236469495E1   7.783541821177197E-1  -4.278558280867009E1   7.771406546155280E-1  -4.341865967772237E1   6.255228145592281E-1   4.787731943054523E1  
 3.676999999000000E9     6.289463576013813E-1   4.499707238488644E1   7.739894903892165E-1  -4.332358878564848E1   7.728336558275991E-1  -4.392023432258392E1   6.316808511993705E-1   4.737789494378638E1  
 3.726999999000000E9     6.357182174791964E-1   4.451968282981803E1   7.681613846756336E-1  -4.382443470548984E1   7.672601075681349E-1  -4.439738141210312E1   6.368098990212732E-1   4.684557937705131E1  
 3.776999999000000E9     6.402605155378182E-1   4.403677786498926E1   7.645113081865399E-1  -4.434498877743107E1   7.631738392704939E-1  -4.488142459238033E1   6.436875326203372E-1   4.639291749623798E1  
 3.826999999000000E9     6.474841211631577E-1   4.349167023940304E1   7.587259700248433E-1  -4.481671136969450E1   7.577548065589481E-1  -4.534436784886236E1   6.482687073422864E-1   4.590496521883881E1  
 3.876999999000000E9     6.529229836277787E-1   4.314053683364498E1   7.543965920533674E-1  -4.528006772160850E1   7.540482658747560E-1  -4.584099603477467E1   6.545895963470144E-1   4.534924413294937E1  
 3.926999999000000E9     6.577416060319827E-1   4.250585768659389E1   7.487714709875046E-1  -4.581448852991258E1   7.482386828097853E-1  -4.640149228694841E1   6.602118236729749E-1   4.496650672002794E1  
 3.976999999000000E9     6.639380545560908E-1   4.213533983532019E1   7.447378195235685E-1  -4.626026321443375E1   7.438288851448506E-1  -4.681163812497139E1   6.648693788334962E-1   4.443611385290743E1  
 4.026999999000000E9     6.691843122938704E-1   4.165252165289865E1   7.401169711886876E-1  -4.658590553348593E1   7.385872976736898E-1  -4.730910918398517E1   6.704793724548703E-1   4.398454616765431E1  
 4.076999999000000E9     6.751366637543586E-1   4.120816791233310E1   7.353078655330357E-1  -4.709082373281668E1   7.336196927546171E-1  -4.783143692200672E1   6.758176322778711E-1   4.357221474952358E1  
 4.126999999000000E9     6.798021333537005E-1   4.072740300918382E1   7.306053749139301E-1  -4.754551291448854E1   7.288902354913709E-1  -4.826286169585833E1   6.808665409774556E-1   4.310748758953867E1  
 4.176999999000000E9     6.855195808729042E-1   4.026599339578642E1   7.252739910247068E-1  -4.798572732057582E1   7.235362694513906E-1  -4.872146317832708E1   6.856720590028879E-1   4.258718530984618E1  
 4.226999999000000E9     6.902183564837776E-1   3.981848576297470E1   7.210482677093109E-1  -4.845768064380001E1   7.194320515469492E-1  -4.919336784910395E1   6.913058823876310E-1   4.218261923182261E1  
 4.276999999000000E9     6.956769292705206E-1   3.935519080621990E1   7.157638961008470E-1  -4.887739481811890E1   7.141204841870468E-1  -4.962902779031941E1   6.951951531632014E-1   4.173696163455439E1  
 4.326999999000000E9     6.999686537570302E-1   3.890852309042832E1   7.116474285907025E-1  -4.934383873473335E1   7.100146234859437E-1  -5.011989763076528E1   7.004614720206562E-1   4.124810772184186E1  
 4.376999999000000E9     7.053802596737044E-1   3.843315934851757E1   7.066919475504196E-1  -4.978490293922205E1   7.050919163713306E-1  -5.056967846439490E1   7.056459959585593E-1   4.083681494998449E1  
 4.426999999000000E9     7.109156962612788E-1   3.802104648080317E1   7.020408073883078E-1  -5.022794135889078E1   7.004851183469179E-1  -5.102034722248327E1   7.096177368883871E-1   4.037079303202016E1  
 4.476999999000000E9     7.140596766520490E-1   3.756485513552040E1   6.968603431387586E-1  -5.065307138693581E1   6.952965879442472E-1  -5.146001051022115E1   7.147932583630786E-1   3.994238693679196E1  
 4.526999999000000E9     7.196179891732041E-1   3.709580232451393E1   6.926917581796602E-1  -5.110083637314338E1   6.912452441151357E-1  -5.191656248848695E1   7.182838563768380E-1   3.949206982323152E1  
 4.576999999000000E9     7.244828017661390E-1   3.667901513544444E1   6.875775556668031E-1  -5.149906058059397E1   6.861686465010830E-1  -5.234577963600160E1   7.231038477278884E-1   3.907358412324253E1  
 4.626999999000000E9     7.288032992830278E-1   3.624588175185832E1   6.828503958304993E-1  -5.191738761744887E1   6.812015863038738E-1  -5.275835663695022E1   7.273820949873796E-1   3.864619338928245E1  
 4.676999999000000E9     7.325843395783223E-1   3.584528809739308E1   6.786017085316847E-1  -5.234760463056509E1   6.772401211586506E-1  -5.321507934711480E1   7.315555638736101E-1   3.821046624579858E1  
 4.726999999000000E9     7.379031100804794E-1   3.538663470861621E1   6.739119552886393E-1  -5.275019819495191E1   6.724913891037276E-1  -5.363212852377388E1   7.349785513885756E-1   3.778825249776723E1  
 4.776999999000000E9     7.414873113862956E-1   3.496703542640363E1   6.689911966420425E-1  -5.317342307134035E1   6.673772614604161E-1  -5.402852284335526E1   7.396241863024645E-1   3.737161011194576E1  
 4.826999999000000E9     7.456691486870108E-1   3.457273513219055E1   6.648955390261907E-1  -5.357939959089823E1   6.634405361959845E-1  -5.447195809435614E1   7.432075298803371E-1   3.690662424743499E1  
