#  HZ   S   MA   R     50.00 
! Rohde & Schwarz ZVA67 4Ports - Version 4.11 - 1305.7002k04 SN: 101051
! Date: 2023-05-24 10:55:58
! Measurements: S11 S21 S12 S22 
! 
 2.699999900000000E7     3.669186026301877E-1  -5.342919348518334E-1   7.412699440408286E-1   3.221246098648466E-2   7.418473555489170E-1  -3.275022812849716E-1   1.831145719994861E-1   3.160105481728789E-1  
 7.699999900000000E7     3.678102023196229E-1  -2.930444461534957E-1   7.420093536535172E-1   1.027722829902031E-2   7.407571856412225E-1  -4.684094082266058E-1   1.822378802745141E-1  -5.733372715423284E-2  
 1.269999990000000E8     3.658255999151835E-1  -6.163437876082194E-1   7.402962359799461E-1  -2.028702927350494E-1   7.390866192249751E-1  -3.503785151295016E-1   1.816455546042032E-1   2.047300201369134E-1  
 1.769999990000000E8     3.661867773828563E-1  -8.696469901803430E-1   7.407257525022724E-1  -4.275180288834835E-1   7.400864440367813E-1  -5.509895423194541E-1   1.838111252775162E-1   2.428552783670194E-1  
 2.269999990000000E8     3.662496836832506E-1  -9.893609610995481E-1   7.408909012274891E-1  -4.819159908065170E-1   7.401041457874458E-1  -5.948179173921327E-1   1.832098094889528E-1   5.435149687254006E-1  
 2.769999990000000E8     3.639722128539428E-1  -1.216548063134451   7.402013384136247E-1  -6.333603818708380E-1   7.389046967696578E-1  -7.320024548484766E-1   1.852912845000381E-1   5.579625188784552E-1  
 3.269999990000000E8     3.625308708207523E-1  -1.370230396906530   7.398806229520006E-1  -6.991035753116269E-1   7.389554804131227E-1  -8.248495184593615E-1   1.867627623994940E-1   6.986694335893848E-1  
 3.769999990000000E8     3.610762228685326E-1  -1.658683285419053   7.397058935928735E-1  -9.341919644523936E-1   7.387842641855495E-1  -9.408817660454274E-1   1.873830008294297E-1   7.702574632328738E-1  
 4.269999990000000E8     3.605129605444918E-1  -1.811360198463972   7.398000494937533E-1  -1.001546726441520   7.385472240445540E-1  -1.113129937300887   1.880959580639855E-1   7.629385002431544E-1  
 4.769999990000000E8     3.616942306249587E-1  -2.055013120512450   7.398353164563480E-1  -1.111352689964959   7.389680558149144E-1  -1.194612574668832   1.867519679441801E-1   8.540907261820305E-1  
 5.269999990000000E8     3.628616965993021E-1  -2.125389688505219   7.403257324308011E-1  -1.154804384881569   7.396588469071619E-1  -1.305112892504404   1.875365414225517E-1   1.064795395976660  
 5.769999990000000E8     3.625588789466135E-1  -2.293265385034939   7.397762178646716E-1  -1.269074584750611   7.392709755228231E-1  -1.441812725976473   1.874250247784751E-1   1.142495120270633  
 6.269999990000000E8     3.618571408306973E-1  -2.500802263378617   7.400295002669911E-1  -1.390063243451394   7.389003599408389E-1  -1.562593076600704   1.891549572052943E-1   1.034561335235972  
 6.769999990000000E8     3.614516794629595E-1  -2.653045466885286   7.393527277812154E-1  -1.470556816851886   7.386586548674913E-1  -1.653596328708652   1.894999139782376E-1   1.303507480178551  
 7.269999990000000E8     3.617485631275594E-1  -2.938259473961205   7.402345282898560E-1  -1.642005960818219   7.390378696919246E-1  -1.861021418807413   1.907928262054736E-1   1.277562369968771  
 7.769999990000000E8     3.625588661277605E-1  -2.975284564629666   7.409871195720573E-1  -1.697399036354145   7.396677498505474E-1  -1.919951821217119   1.911758680298069E-1   1.334983178595802  
 8.269999990000000E8     3.632208438340689E-1  -3.282699520207704   7.408078946437394E-1  -1.833049149496174   7.394948064079485E-1  -2.067191361766668   1.899277446995082E-1   1.549085023046233  
 8.769999990000000E8     3.632134646589631E-1  -3.302736551709969   7.407231142129932E-1  -1.884552911809743   7.394057889582510E-1  -2.163112807766524   1.904428543004404E-1   1.733437564941921  
 9.269999990000000E8     3.638485450852250E-1  -3.647603686443776   7.411250362950727E-1  -2.053852466879111   7.395677839676711E-1  -2.337164766001418   1.903621679609472E-1   1.704990501792835  
 9.769999990000000E8     3.639930534143284E-1  -3.643551194616388   7.419701091814823E-1  -2.076823564756856   7.399639410373228E-1  -2.398590483926071   1.922967451305634E-1   1.952733435489569  
 1.026999999000000E9     3.626571959845434E-1  -3.837105375781427   7.406134371424621E-1  -2.191216753698704   7.388047391499953E-1  -2.503845389928820   1.917162984883033E-1   2.141780850675853  
 1.076999999000000E9     3.625175956257706E-1  -4.132188660706284   7.411691574406315E-1  -2.368171471860634   7.395158970177218E-1  -2.702900084332616   1.934711076643783E-1   1.836387062561149  
 1.126999999000000E9     3.619355304049163E-1  -4.125498711768941   7.402158680419717E-1  -2.388529946392212   7.386439375387024E-1  -2.703412066536871   1.929761250074328E-1   2.326157060788251  
 1.176999999000000E9     3.629137828852081E-1  -4.564195205360660   7.409705501063654E-1  -2.598341987945994   7.389644096770687E-1  -2.962753006908577   1.930688716324396E-1   2.184106368650504  
 1.226999999000000E9     3.640477837303456E-1  -4.582377621970844   7.416723974377617E-1  -2.657289162223432   7.397648179133480E-1  -3.030194374645494   1.929131080558211E-1   2.276615296393079  
 1.276999999000000E9     3.635529975706491E-1  -4.954099875070017   7.406794974474491E-1  -2.842094845684644   7.391813515741350E-1  -3.154107379262621   1.919099964732967E-1   2.427454927042501  
 1.326999999000000E9     3.636323432310546E-1  -4.989343996813162   7.409116674920022E-1  -2.891618461336079   7.389103303966723E-1  -3.258791495837335   1.933023389104283E-1   2.500568726955722  
 1.376999999000000E9     3.633123229476655E-1  -5.368078261814948   7.402762093933669E-1  -3.098604159433767   7.389961595649158E-1  -3.455499649327689   1.938980356384056E-1   2.366851584845573  
 1.426999999000000E9     3.621585898434421E-1  -5.449903892133020   7.398505020149204E-1  -3.151461561736311   7.382405809447781E-1  -3.550034020949520   1.950830819055019E-1   2.565122852620272  
 1.476999999000000E9     3.625659061560846E-1  -5.664068198361675   7.397578185315153E-1  -3.268724657285781   7.383274423351538E-1  -3.661856544927910   1.942307126101510E-1   2.670108581629703  
 1.526999999000000E9     3.641155030191704E-1  -5.879917634078478   7.411341938934497E-1  -3.391222889993502   7.393326656298067E-1  -3.789206827217310   1.957912474269493E-1   2.731008703555872  
 1.576999999000000E9     3.640083789345174E-1  -5.930002437076654   7.397206959931532E-1  -3.452097391037123   7.381630968012056E-1  -3.865639843069599   1.937795446690607E-1   3.139144290633734  
 1.626999999000000E9     3.644601784434858E-1  -6.341545425004228   7.402203982382885E-1  -3.679202239893965   7.381988767312234E-1  -4.059377930471250   1.935150851825554E-1   2.972976597407253  
 1.676999999000000E9     3.654470099453329E-1  -6.303527419113292   7.406343292543756E-1  -3.708924169402354   7.390090092320364E-1  -4.122964049928109   1.946262954059142E-1   3.232384403321862  
 1.726999999000000E9     3.647205152779487E-1  -6.568712153250639   7.397131129661850E-1  -3.863502084810564   7.380024139224881E-1  -4.249046246556955   1.948534110014732E-1   3.373995028635900  
 1.776999999000000E9     3.638307407954548E-1  -6.655451730857104   7.391948801995601E-1  -3.950177376497922   7.373724195657292E-1  -4.395094549371649   1.955122488269477E-1   3.261507584630844  
 1.826999999000000E9     3.635529364239059E-1  -6.924487638557729   7.386237408705488E-1  -4.088284689250173   7.372959022263357E-1  -4.539892920287858   1.959650816064658E-1   3.351909844971450  
 1.876999999000000E9     3.633539435072736E-1  -6.929654746961228   7.384217240576366E-1  -4.153246333885631   7.364804876442818E-1  -4.604493039277941   1.961328206505864E-1   3.655251991512432  
 1.926999999000000E9     3.398078033638875E-1   5.156903887122717E-1   6.662222433088789E-1  -4.541649378926213   6.651123509917079E-1  -5.020649314320810   3.356871148933439E-1   2.110473665684510  
 1.976999999000000E9     3.399813132985483E-1   5.411718856577800E-1   6.664300630023270E-1  -4.635027313985689   6.652065020394321E-1  -5.112990534573978   3.364907901644008E-1   2.236721447780162  
 2.026999999000000E9     3.400601997107561E-1   5.210590265814743E-1   6.653691935467004E-1  -4.729516556377517   6.639578983618477E-1  -5.193576840166409   3.358064559231784E-1   2.340505984080250  
 2.076999999000000E9     3.405456912097926E-1   4.473161122227079E-1   6.654273764910110E-1  -4.910841925827823   6.637938160511741E-1  -5.368668858390914   3.362242202116173E-1   2.216881836979716  
 2.126999999000000E9     3.406822472738375E-1   4.440437562213765E-1   6.651981794099913E-1  -4.970798501654097   6.641709309989022E-1  -5.460496747491797   3.369087464704237E-1   2.311393079987524  
 2.176999999000000E9     3.408952860972310E-1   4.600317886608151E-1   6.641056634323864E-1  -5.148497502016796   6.630687298683055E-1  -5.632721622470845   3.363428545493198E-1   2.247995262709349  
 2.226999999000000E9     3.410545400383130E-1   4.287252486633408E-1   6.642952283506902E-1  -5.193362356924890   6.631270581746875E-1  -5.728035405753642   3.366598588525138E-1   2.331865990011651  
 2.276999999000000E9     3.418083380048091E-1   4.581305445115259E-1   6.636899575451054E-1  -5.348954574757620   6.626641230714886E-1  -5.858182207633786   3.364613649505043E-1   2.227131127941187  
 2.326999999000000E9     3.413016082962828E-1   4.584532888371676E-1   6.632283058422710E-1  -5.438219293380096   6.620764747995338E-1  -5.975044652970893   3.370752396985320E-1   2.300318258194575  
 2.376999999000000E9     3.425557818947123E-1   4.437233980826286E-1   6.628916761275621E-1  -5.548792435919255   6.616699146317160E-1  -6.084326300477908   3.361484605452426E-1   2.349221421532813  
 2.426999999000000E9     3.423161200123323E-1   4.561249405258891E-1   6.633264135877738E-1  -5.657078173611723   6.618795657349276E-1  -6.176394442695564   3.368274430217840E-1   2.364350688144374  
 2.476999999000000E9     3.428064411126524E-1   4.375544415616993E-1   6.625345831784906E-1  -5.792977238617849   6.611327537471119E-1  -6.325890409162926   3.364922015990216E-1   2.340830437351578  
 2.526999999000000E9     3.431586426414606E-1   5.293070730276048E-1   6.623217914090355E-1  -5.896683686847160   6.613812832881090E-1  -6.436013806896075   3.370744621455240E-1   2.380203248625336  
 2.576999999000000E9     3.433529292487128E-1   4.777533684060396E-1   6.620532893315464E-1  -5.981093416334584   6.609584232220211E-1  -6.525795019029411   3.365765240435124E-1   2.470169621541719  
 2.626999999000000E9     3.440011946186130E-1   4.297540935543180E-1   6.618349005499933E-1  -6.135734276499508   6.606143577192466E-1  -6.673639355085765   3.364272697081264E-1   2.402774165724906  
 2.676999999000000E9     3.445481604656702E-1   4.818430863436140E-1   6.618468999332029E-1  -6.245936083680908   6.605687985419252E-1  -6.766323249483976   3.373485949066213E-1   2.480404302293165  
 2.726999999000000E9     3.447947841210984E-1   5.241653725992579E-1   6.616394685134226E-1  -6.374447287495602   6.600809052417499E-1  -6.901955420107917   3.372176561516236E-1   2.426050887676605  
 2.776999999000000E9     3.446593876576282E-1   4.029407149722215E-1   6.617782256447516E-1  -6.516156616323912   6.599252354331135E-1  -7.048849362308354   3.372665322162199E-1   2.427430581313086  
 2.826999999000000E9     3.458892624013211E-1   3.796112348417817E-1   6.612341248680389E-1  -6.618953686048638   6.599449112937742E-1  -7.186651334096863   3.372923850090391E-1   2.394176866154700  
 2.876999999000000E9     3.461400782590912E-1   4.074771379681945E-1   6.614810335951915E-1  -6.732461517168909   6.601528386079881E-1  -7.313928897788399   3.379711595694376E-1   2.408648100078642  
 2.926999999000000E9     3.464960925547105E-1   3.529337764345422E-1   6.607855244113289E-1  -6.828969660729039   6.596633479408585E-1  -7.459836325664705   3.373770072949779E-1   2.352249827593052  
 2.976999999000000E9     3.471361790473038E-1   2.987264631799799E-1   6.605568938258151E-1  -7.006227519893058   6.597854722371439E-1  -7.644486485109397   3.375467370691658E-1   2.288450175173665  
 3.026999999000000E9     3.478968216305270E-1   2.664673095318527E-1   6.601629278751712E-1  -7.108278392902774   6.596617927997329E-1  -7.814142071873886   3.375443929345933E-1   2.300505398096627  
 3.076999999000000E9     3.479078899565732E-1   2.245285647593421E-1   6.596069606999739E-1  -7.267549676858701   6.593076395521378E-1  -7.975338960762565   3.376974773751431E-1   2.253611115681139  
 3.126999999000000E9     3.481372732872106E-1   1.391762756907564E-1   6.592054732493623E-1  -7.371334907550238   6.591485831774532E-1  -8.079787619095450   3.376623988315313E-1   2.227855590157131  
 3.176999999000000E9     3.487803916648799E-1   1.515425032304151E-1   6.587823703619797E-1  -7.533571034776474   6.585337789325120E-1  -8.184187984037614   3.376016431265074E-1   2.259240844997544  
 3.226999999000000E9     3.487186381662746E-1   1.705383597961168E-1   6.581670382997638E-1  -7.650081929766783   6.583555028884864E-1  -8.291152495531740   3.375979866115471E-1   2.273872047088252  
 3.276999999000000E9     3.490680706119980E-1   9.999759134993033E-2   6.578086401672195E-1  -7.760613914219963   6.582839560173868E-1  -8.352060519530324   3.377141394536227E-1   2.308321609326772  
 3.326999999000000E9     3.493460118247520E-1   1.183285725422373E-1   6.575959579817586E-1  -7.861018397360113   6.579866960406887E-1  -8.415342690249087   3.378514824667623E-1   2.298730637153700  
 3.376999999000000E9     3.493269133726510E-1   1.163322122067461E-1   6.570299257185611E-1  -7.923356932490680   6.576016010505668E-1  -8.559004301177012   3.384051418825963E-1   2.350946670204360  
 3.426999999000000E9     3.493873179802078E-1   1.848350345941025E-1   6.569978212239190E-1  -7.946157411318420   6.570680740384663E-1  -8.754745707628251   3.387669387629054E-1   2.296580351708721  
 3.476999999000000E9     3.494907278732946E-1   1.314511551040161E-1   6.576540707296313E-1  -8.026861652725257   6.572595529899471E-1  -8.887534740766434   3.393138035285159E-1   2.305354096512590  
 3.526999999000000E9     3.509839810858718E-1   8.554457557153693E-2   6.580016044366228E-1  -8.188872479696185   6.571871468478867E-1  -9.094387502381558   3.395504143231397E-1   2.169313133900452  
 3.576999999000000E9     3.517669764834823E-1   5.322191263392546E-2   6.583972696609797E-1  -8.328062581737196   6.569462233194329E-1  -9.228182707569735   3.395794117624906E-1   2.132643865868405  
 3.626999999000000E9     3.518946529170282E-1  -4.219866981625081E-2   6.578817877838362E-1  -8.507311410139728   6.566319677980160E-1  -9.341166281703362   3.396829319900869E-1   2.056888905160936  
 3.676999999000000E9     3.525516497729632E-1  -8.282079704196359E-2   6.576035924949064E-1  -8.700595894631487   6.565598199966108E-1  -9.480170507653956   3.400783683142890E-1   1.980355498142495  
 3.726999999000000E9     3.530778908619910E-1  -5.804517045217632E-2   6.571088042312804E-1  -8.833522514255941   6.561624068930578E-1  -9.574741254929192   3.397640082035586E-1   1.955641458933236  
 3.776999999000000E9     3.531752340794402E-1  -1.275745375503866E-1   6.571598027530113E-1  -9.010527006726965   6.560181937771249E-1  -9.690078487960108   3.401021992327392E-1   1.882660408933528  
 3.826999999000000E9     3.537437969022609E-1  -1.698887221351357E-1   6.564699692326498E-1  -9.105341187650836   6.558565371515347E-1  -9.797931026771826   3.402307266513819E-1   1.851907450909491  
 3.876999999000000E9     3.544884638658728E-1  -9.702749657107496E-2   6.566373324963086E-1  -9.220257827553255   6.560767069246832E-1  -9.968247945642561   3.406556879540566E-1   1.772801792103244  
 3.926999999000000E9     3.540621200349571E-1  -1.825961252883507E-1   6.560316786386455E-1  -9.375656494394240   6.555275823104161E-1  -1.015983160745225E1   3.405110431100821E-1   1.749607707255723  
 3.976999999000000E9     3.549500268435691E-1  -1.531346468775143E-1   6.559366709057936E-1  -9.457354584669353   6.551453155039381E-1  -1.020365728603952E1   3.406164157857763E-1   1.678216904647336  
 4.026999999000000E9     3.555222454659593E-1  -1.075330896587426E-1   6.564365931457062E-1  -9.459168785036432   6.549601832117260E-1  -1.035916690948692E1   3.410358178292700E-1   1.737976234156162  
 4.076999999000000E9     3.560919193661913E-1  -1.174269299670410E-1   6.558757112792140E-1  -9.585661782756803   6.541952099836604E-1  -1.052995964417351E1   3.410045380829756E-1   1.657855555022155  
 4.126999999000000E9     3.562245505608159E-1  -1.335258154866519E-1   6.557727068219911E-1  -9.728867322317386   6.542360487281226E-1  -1.065139424411439E1   3.416779783437243E-1   1.631992804853064  
 4.176999999000000E9     3.569600439419194E-1  -1.471864653843713E-1   6.553533439352585E-1  -9.852866249514115   6.537055600647165E-1  -1.077706671667274E1   3.419052316858967E-1   1.635892311323509  
 4.226999999000000E9     3.575391561816537E-1  -1.389982925865094E-1   6.549352890555089E-1  -9.994970176206625   6.533016995372893E-1  -1.092696699661774E1   3.424023830627181E-1   1.528766563098453  
 4.276999999000000E9     3.579945139278264E-1  -2.150022959324935E-1   6.542682516946236E-1  -1.006954378973908E1   6.525529284433831E-1  -1.102212425399343E1   3.427607346426803E-1   1.470130092563740  
 4.326999999000000E9     3.582873293150795E-1  -3.352739172845271E-1   6.541804942595735E-1  -1.017124889855121E1   6.524916590115153E-1  -1.114209817246102E1   3.429733371624265E-1   1.316224895852781  
 4.376999999000000E9     3.582758439531200E-1  -3.742400469317118E-1   6.540623238363938E-1  -1.026647624376363E1   6.524330696499185E-1  -1.125456061640310E1   3.428160210177478E-1   1.243696876998378  
 4.426999999000000E9     3.587954578967751E-1  -3.785712694236714E-1   6.541125435263523E-1  -1.038951557067829E1   6.524437634905950E-1  -1.139028977190845E1   3.426127451488963E-1   1.156804464228403  
 4.476999999000000E9     3.582595600922252E-1  -3.582962669211089E-1   6.539529607952190E-1  -1.050470225598753E1   6.523805970052259E-1  -1.151491678124410E1   3.428814173220792E-1   1.170367142499567  
 4.526999999000000E9     3.590343312598613E-1  -4.234764085542707E-1   6.538106897758258E-1  -1.065519793934226E1   6.523084412277910E-1  -1.167851941322516E1   3.429475920319446E-1   1.105169828325757  
 4.576999999000000E9     3.597462131549435E-1  -3.866433542493016E-1   6.535971391035519E-1  -1.074799709998260E1   6.518308332178315E-1  -1.180001075681392E1   3.428090896831249E-1   1.114555313041574  
 4.626999999000000E9     3.595909570672527E-1  -3.849428705650898E-1   6.531926802569817E-1  -1.086432049031754E1   6.517513936841848E-1  -1.192484730016969E1   3.433247647390174E-1   1.064306980856482  
 4.676999999000000E9     3.598228110585141E-1  -3.724158153452343E-1   6.531565548796650E-1  -1.099809672192021E1   6.517013900576945E-1  -1.207547106402796E1   3.436245928524321E-1   9.936990212117066E-1  
 4.726999999000000E9     3.606150757782008E-1  -4.308034622927516E-1   6.529509006713795E-1  -1.111406577931955E1   6.514057460946097E-1  -1.220174386773968E1   3.434838002462601E-1   9.805680124227623E-1  
 4.776999999000000E9     3.607635432941954E-1  -4.059130027490238E-1   6.526334089076812E-1  -1.122162852169286E1   6.510797354873873E-1  -1.230903691785561E1   3.437253040135438E-1   9.272547414437333E-1  
 4.826999999000000E9     3.607553185375830E-1  -3.614009911518855E-1   6.525047274828039E-1  -1.135186911083429E1   6.510716885344280E-1  -1.246830021267833E1   3.446043367108912E-1   8.467800998293972E-1  
 4.876999999000000E9     3.614615538900766E-1  -4.427568947075307E-1   6.520947878478475E-1  -1.145667216934034E1   6.505011600671194E-1  -1.256861928636615E1   3.444173450810928E-1   9.039871896005173E-1  
