#  HZ   S   MA   R     50.00 
! Rohde & Schwarz ZVA67 4Ports - Version 4.11 - 1305.7002k04 SN: 101051
! Date: 2023-05-31 14:00:24
! Measurements: S11 S21 S12 S22 
! 
 5.000000000000000E7     1.460426680144175E-2   1.722125559265052E2   6.472752153682934E-5   8.401374678300863E1   7.287135529909929E-5  -5.027489684331415E1   1.975958567165591E-2   1.796996250790157E2  
 1.000000000000000E8     1.447515542029456E-2   1.714085106912434E2   1.737041362464446E-4   1.484984140686134E1   4.993363831928672E-5   4.901490029451440E1   1.668359064551422E-2   1.759456335061859E2  
 1.500000000000000E8     1.171483270800533E-2   1.609260564908241E2   1.015986286981400E-4  -6.804171528886324E1   7.203950271127966E-5  -1.239052521021097E2   1.434634273176072E-2   1.732558928287074E2  
 2.000000000000000E8     1.215520192152539E-2   1.492790792833434E2   1.464040739843305E-5   8.947212991458368E1   1.025333759836631E-4   7.488581234935663E1   1.485437760624898E-2   1.671463840214846E2  
 2.500000000000000E8     1.050322977550695E-2   1.393037016616875E2   9.664777178115506E-5   6.048580860412099E1   7.613031750280984E-5  -1.651855077771175   1.286543224820600E-2   1.638943035743349E2  
 3.000000000000000E8     9.866902513596431E-3   1.285498060669382E2   6.971160147042584E-5   5.708025846143755E1   6.167119566158055E-5   6.903910573694658E1   1.234870356949868E-2   1.556361378690907E2  
 3.500000000000000E8     8.520609651631055E-3   1.088474654575834E2   9.510881170612235E-5   2.577419478721215E1   7.318317096369087E-5   4.286261013574804E1   1.066723348902610E-2   1.485150188984385E2  
 4.000000000000000E8     8.542165964124488E-3   9.009595746290505E1   5.072726111059019E-5   8.012635469908318E1   7.278602970166912E-5   5.656058289768203E1   1.020703405371270E-2   1.442075182415257E2  
 4.500000000000000E8     1.094746104621583E-2   7.012671208622614E1   9.951741568644576E-5   4.368732839539872E1   6.882437670895052E-5   1.117237583462747E1   8.925048279546131E-3   1.288443967428860E2  
 5.000000000000000E8     1.234513064988137E-2   6.610139922291120E1   8.569283979086243E-5   1.126968776546252E1   6.378655368580927E-5   2.757680801683944E1   1.015824864194839E-2   1.199589219112446E2  
 5.500000000000000E8     1.515142173842878E-2   5.448789939883506E1   8.214963847383129E-5   4.201054437362082E1   6.922679248906542E-5   4.556065940871237   1.052991268876083E-2   1.139391192019925E2  
 6.000000000000000E8     1.633361764791274E-2   5.474949740523691E1   9.241796580202843E-5   1.508228936694349E1   9.953145294612881E-5   2.707930475885681E1   1.116510895871726E-2   1.099716953348036E2  
 6.500000000000000E8     1.913802109977547E-2   4.504464999963227E1   1.275696115898180E-4  -2.453596075543850   1.040024663109386E-4  -2.047067098622156   1.143042903138293E-2   1.041257895399608E2  
 7.000000000000000E8     2.074886471443738E-2   4.789866411356803E1   1.081702881298279E-4  -1.096962138927805E1   1.330772805609073E-4  -8.048901200878246   1.236278391293956E-2   1.029873716390870E2  
 7.500000000000000E8     2.294427580802137E-2   4.281500614216446E1   1.447936117400302E-4  -1.002405364200489E1   1.095020711932026E-4  -8.838190397014355   1.325069482938807E-2   9.474113147220261E1  
 8.000000000000000E8     2.444102188851988E-2   4.521767809208684E1   1.272008012686989E-4  -1.900237505465616E1   1.189030800680345E-4  -2.325092154005414E1   1.560759749954341E-2   9.568013178430039E1  
 8.500000000000000E8     2.569973647465098E-2   3.951668150407355E1   1.113656081400503E-4  -2.295566074071936E1   1.346450412005958E-4  -2.940835033681278E1   1.642452817186316E-2   9.523584203107583E1  
 9.000000000000000E8     2.742296984713739E-2   4.133889852902222E1   1.461690941606645E-4  -2.943044888520875E1   1.453643540698182E-4  -3.273945376948463E1   1.681881590192061E-2   9.871681429670470E1  
 9.500000000000000E8     2.741859843011507E-2   3.788503348506437E1   1.460966040317034E-4  -4.514377777503956E1   1.629975434789768E-4  -3.984730080103046E1   1.606237300932348E-2   9.689421031374224E1  
 1.000000000000000E9     2.770242098375424E-2   3.925777866797353E1   1.737830026981367E-4  -4.354196790644915E1   1.501384694718448E-4  -4.901252420866318E1   1.669764532780262E-2   9.867735425498384E1  
 1.050000000000000E9     2.686490457728045E-2   3.591695440301943E1   1.616439769479924E-4  -4.911731094354164E1   1.847663279769603E-4  -5.500652510772370E1   1.579081827643319E-2   9.700859238124622E1  
 1.100000000000000E9     2.697495545235695E-2   3.544484605009968E1   1.801137686107087E-4  -5.633125193234084E1   1.941958890228688E-4  -6.405472977265227E1   1.630292604502483E-2   9.634752338713507E1  
 1.150000000000000E9     2.629257505516953E-2   3.299168832018935E1   1.998753710928440E-4  -6.123636002265099E1   1.748898202824716E-4  -6.410503758794725E1   1.631899049957395E-2   9.395725512241734E1  
 1.200000000000000E9     2.524516508019511E-2   3.439140155004538E1   2.029946485106337E-4  -7.264240906886155E1   2.021533088088640E-4  -8.294049483632820E1   1.707454888132588E-2   9.637146376558209E1  
 1.250000000000000E9     2.329630603409260E-2   3.123962262559019E1   2.180999430003515E-4  -7.852827550197574E1   2.088946645235812E-4  -8.140247186180105E1   1.655647964926599E-2   9.548987265735028E1  
 1.300000000000000E9     2.181319504381339E-2   2.996436169999468E1   2.046936464354816E-4  -8.550934751695183E1   2.336636182552216E-4  -9.087246308528236E1   1.726021010014631E-2   9.743130797311797E1  
 1.350000000000000E9     2.039732632903641E-2   2.716061644977469E1   2.282685105070164E-4  -9.809309585542812E1   2.366559305363133E-4  -9.084955574449558E1   1.601577643926109E-2   9.638237389267765E1  
 1.400000000000000E9     1.775167453274695E-2   2.677797912855024E1   2.450392086944851E-4  -9.869322985040998E1   2.552391576123778E-4  -1.034565879975151E2   1.716283363132682E-2   9.666349735540925E1  
 1.450000000000000E9     1.614796158951875E-2   2.100868350466255E1   2.307646727590784E-4  -1.019320476496910E2   2.585506295500086E-4  -1.084165467767403E2   1.626231470997560E-2   9.693284996917753E1  
 1.500000000000000E9     1.297083580127608E-2   2.273524280036200E1   2.671055892196269E-4  -1.117245655725442E2   2.800714372676388E-4  -1.162803935473402E2   1.676352049694619E-2   9.786193477419967E1  
 1.550000000000000E9     1.062267034939790E-2   9.205452922734271   2.809367525492417E-4  -1.198876698204860E2   2.687103382799925E-4  -1.252553432220042E2   1.525108188826148E-2   9.819256030530532E1  
 1.600000000000000E9     8.180685303947308E-3   8.557261852567208   3.001884807523576E-4  -1.266576665325068E2   2.936681331593096E-4  -1.281728370887147E2   1.602791403352519E-2   9.513541946838622E1  
 1.650000000000000E9     5.989746996554137E-3  -1.503042510615246E1   3.170118808474134E-4  -1.355588905141946E2   3.323341272261080E-4  -1.382970664302184E2   1.522006287762462E-2   9.581688765119500E1  
 1.700000000000000E9     3.690033261830183E-3  -4.111469135368290E1   3.802747970930344E-4  -1.485934578325119E2   3.657340006234862E-4  -1.466710054241541E2   1.532453877076736E-2   9.392607117196373E1  
 1.750000000000000E9     6.001539106188921E-3  -9.302825966911155E1   3.636570183201426E-4  -1.606498137762381E2   3.745187304226700E-4  -1.605394623261530E2   1.394281795812774E-2   9.512960453619979E1  
 1.800000000000000E9     8.020770017367958E-3  -1.097444310626492E2   3.492560548806514E-4  -1.710159921079174E2   3.634110971353433E-4  -1.696338884094033E2   1.334065928644702E-2   9.026467424755039E1  
 1.850000000000000E9     1.167036686125080E-2  -1.151058878205304E2   3.748988862199616E-4  -1.754519829852089E2   3.797728060964758E-4   1.798807627354422E2   1.251442062485150E-2   8.939108587602171E1  
 1.900000000000000E9     1.342137748867593E-2  -1.223157109640622E2   3.519683551581038E-4   1.702944925129755E2   3.767356760762895E-4   1.681868397396571E2   1.221274598214545E-2   8.701047265190961E1  
 1.950000000000000E9     1.698354750872687E-2  -1.261452504344388E2   3.379936518551131E-4   1.573960459233472E2   3.556072331288438E-4   1.621833019346711E2   1.130034321073988E-2   8.064830680034498E1  
 2.000000000000000E9     1.946867632027775E-2  -1.304417243981943E2   3.592983019419247E-4   1.539614250093174E2   3.424510809285856E-4   1.543634090620841E2   1.248815412011990E-2   7.484294189439994E1  
 2.050000000000000E9     2.239308252066842E-2  -1.291399423855247E2   3.554656348839817E-4   1.417955912204024E2   3.404079602207395E-4   1.395498381119381E2   1.260525106099726E-2   7.087555615323907E1  
 2.100000000000000E9     2.364138002948930E-2  -1.329687570789926E2   3.124622326296766E-4   1.404199674656418E2   3.179761645433789E-4   1.412695624177425E2   1.303644452033923E-2   7.005945010239576E1  
 2.150000000000000E9     2.666249808475744E-2  -1.333744202021643E2   3.630113498422139E-4   1.349643449315317E2   3.545914143528109E-4   1.349735007603530E2   1.271911113463095E-2   6.290772504044026E1  
 2.200000000000000E9     2.795499782547105E-2  -1.354493014771179E2   3.345683383010727E-4   1.257467603530028E2   3.355355461830055E-4   1.214124112317868E2   1.392689313063837E-2   6.033231722115838E1  
 2.250000000000000E9     2.981265422866581E-2  -1.340446548840067E2   3.358673384705574E-4   1.193725077767264E2   3.351795937731482E-4   1.162743780599992E2   1.415679616585343E-2   5.320069410148575E1  
 2.300000000000000E9     2.924019194927502E-2  -1.360569569287060E2   2.883499315612589E-4   1.110446505102683E2   2.992227303326464E-4   1.051347971872313E2   1.681641231768572E-2   5.247561312570674E1  
 2.350000000000000E9     3.035058423188874E-2  -1.365078986574919E2   2.662290663223363E-4   9.961305984045900E1   2.720083512717492E-4   9.376393934401716E1   1.738279557522189E-2   5.053745581363830E1  
 2.400000000000000E9     2.929353153242990E-2  -1.394382611405621E2   2.405595555327435E-4   9.539749703474367E1   2.525366080904996E-4   9.413230973516778E1   1.965317768079246E-2   5.042958915649313E1  
 2.450000000000000E9     3.017463240231458E-2  -1.402455682618199E2   2.406861774482802E-4   1.006617740750003E2   2.241602000442900E-4   9.622842034014890E1   1.983885568110659E-2   4.918415803515879E1  
 2.500000000000000E9     2.771890297071203E-2  -1.426720669014629E2   2.864728646657389E-4   9.192928373435237E1   2.870418049889966E-4   9.322168497321482E1   2.218611422285133E-2   4.990355097508496E1  
 2.550000000000000E9     2.756674557085136E-2  -1.452284544824276E2   3.015488538550885E-4   9.218506834708657E1   2.851330526749728E-4   8.617520831972030E1   2.178597013505747E-2   5.069377922897811E1  
 2.600000000000000E9     2.476190571083602E-2  -1.500772572527032E2   3.160631274168056E-4   8.722373149677298E1   2.894785120165078E-4   8.347100834924355E1   2.336006464056130E-2   5.002634578289146E1  
 2.650000000000000E9     2.398052932754763E-2  -1.538009494804558E2   2.693626387298774E-4   8.476060334369424E1   3.036770967225506E-4   7.594783762638259E1   2.200921858512796E-2   4.905530933511268E1  
 2.700000000000000E9     2.095512790452422E-2  -1.609343649585171E2   3.153457356624506E-4   8.446914209602494E1   3.252163631459758E-4   8.529548807282244E1   2.416544770035231E-2   4.536298003637722E1  
 2.750000000000000E9     2.000656972383033E-2  -1.672427618867826E2   3.323932564898354E-4   6.905168824280182E1   3.619713395676260E-4   6.971535201298292E1   2.365822783566326E-2   4.602485175355540E1  
 2.800000000000000E9     1.736242750060807E-2  -1.775543651160972E2   3.394092699972036E-4   6.583326487708807E1   3.653322007084214E-4   6.378105592419966E1   2.497608324194108E-2   4.338461080966719E1  
 2.850000000000000E9     1.680265845388932E-2   1.707370237486625E2   3.904127664574448E-4   4.934494454452567E1   3.991856255687472E-4   4.673309461692853E1   2.450092802392633E-2   4.372071946882764E1  
 2.900000000000000E9     1.678765792479824E-2   1.527991929183054E2   3.792116308585632E-4   4.476681947691513E1   4.057940649705621E-4   4.338059848531820E1   2.491970105261161E-2   4.026624772634543E1  
 2.950000000000000E9     1.768216601792944E-2   1.436105841252041E2   4.080219048618331E-4   4.494961846387654E1   3.994161838324268E-4   3.619791209286606E1   2.541367318234656E-2   3.919482769125376E1  
 3.000000000000000E9     1.907149239818531E-2   1.291105527089627E2   4.311728507981452E-4   2.028338121778845E1   4.578837516288069E-4   2.623902103921238E1   2.608582015628512E-2   3.778879901266208E1  
 3.050000000000000E9     2.053559404180354E-2   1.230076143201877E2   3.801408556767593E-4   8.143096320729033   3.810985818804183E-4   9.846473482443658   2.551282581724404E-2   3.582362332288264E1  
 3.100000000000000E9     2.343698206785291E-2   1.090449729447849E2   3.303803998414641E-4   1.859076350979443   3.694036722777355E-4   3.980276508479200   2.705574630388180E-2   3.325136003117637E1  
 3.150000000000000E9     2.609763467474345E-2   1.045378850074224E2   3.503542046488159E-4  -5.796578613637921   3.020979029983866E-4   3.013204436282833   2.771382498466042E-2   3.288593254236159E1  
 3.200000000000000E9     2.905372417468010E-2   9.666877444453269E1   4.150942634882306E-4   5.441828942830672   3.557408379789255E-4   1.315198762708940   2.850575873391338E-2   3.177729014501115E1  
 3.250000000000000E9     3.174380045265010E-2   9.344044360641615E1   4.047436158476072E-4  -7.195225624461676   3.583396767037953E-4  -7.563681696854633   2.814142337061549E-2   3.124467015241707E1  
 3.300000000000000E9     3.515961807456237E-2   8.840123062415668E1   3.369362613807547E-4  -1.043101693589729E1   3.385582529337367E-4  -1.403787765215943E1   2.909231441109897E-2   2.948985692546673E1  
 3.350000000000000E9     3.711331527491094E-2   8.600457936135551E1   3.543299785902287E-4  -1.714249389539702E1   3.358650465226476E-4  -2.466567565558332E1   2.852183834400908E-2   2.871744404126648E1  
 3.400000000000000E9     4.020611368903682E-2   8.145274060763029E1   3.037481963567602E-4  -3.339652769128571E1   3.191602914710859E-4  -2.559229239374123E1   2.965575020723397E-2   2.564082089934349E1  
 3.450000000000000E9     4.182755132533104E-2   7.960590054673833E1   3.126389416369959E-4  -3.105628963308626E1   2.952427246591841E-4  -2.728411556683411E1   2.935136998059273E-2   2.494954907325849E1  
 3.500000000000000E9     4.530683838646812E-2   7.564516578557114E1   3.208201185739283E-4  -3.486395751196294E1   2.916287571017561E-4  -2.990511450883790E1   3.024135320758440E-2   2.193045265356642E1  
 3.550000000000000E9     4.604495746645464E-2   7.454467786302858E1   3.391486158254849E-4  -3.296760852217472E1   3.325080967067885E-4  -3.279832429272420E1   3.082067889398518E-2   2.242917639834127E1  
 3.600000000000000E9     4.839026413937302E-2   7.008091368096652E1   3.571208278870892E-4  -3.928012656414018E1   3.746507748407350E-4  -4.681281592671779E1   3.072626273961090E-2   2.315760122531682E1  
 3.650000000000000E9     4.955592832731686E-2   6.843623945660440E1   3.953062264454464E-4  -4.452205146792255E1   3.428822325631829E-4  -4.656080868553084E1   2.874737390608465E-2   2.193792380551755E1  
 3.700000000000000E9     5.220578053325999E-2   6.465391108346078E1   3.665134411958995E-4  -5.593113319852507E1   4.127016266227969E-4  -5.529062860950405E1   2.799495197406522E-2   1.909797760989845E1  
 3.750000000000000E9     5.231580187791643E-2   6.339920696207670E1   4.494680212806357E-4  -6.033946471030420E1   3.843110721434109E-4  -6.441911358114943E1   2.706277130919804E-2   1.306362063980404E1  
 3.800000000000000E9     5.399226319280812E-2   5.961751782487774E1   3.848842255473547E-4  -7.254897949427583E1   3.824663831986289E-4  -7.007016906149509E1   2.901722328879127E-2   1.068780121308747E1  
 3.850000000000000E9     5.399956635193706E-2   5.884573875071017E1   4.228819858903571E-4  -7.959106991099590E1   4.127693047660512E-4  -7.858767418911209E1   2.787860561560267E-2   1.027898370387768E1  
 3.900000000000000E9     5.491994756923121E-2   5.530611332417426E1   4.002255217283583E-4  -7.716148605927701E1   4.035959567984582E-4  -8.283468087801640E1   2.829880420294642E-2   6.240325229250200  
 3.950000000000000E9     5.416683778874663E-2   5.474906434614976E1   4.083181563099822E-4  -9.098401387466882E1   4.091043864650932E-4  -9.108765879159712E1   2.797835474149886E-2   4.161712781253590  
 4.000000000000000E9     5.426145402251670E-2   5.070924887604636E1   3.852100903098610E-4  -9.455841571888878E1   4.333167042570903E-4  -9.430800086717774E1   2.803472435124907E-2   2.604950408870380  
 4.050000000000000E9     5.283345192177205E-2   4.977951090584270E1   3.981615961484992E-4  -9.968682505065141E1   4.038295736801139E-4  -1.002693942505048E2   2.705256017122076E-2  -3.735366000565036E-1  
 4.100000000000000E9     5.184120429884288E-2   4.502177972236449E1   4.305445189890985E-4  -1.080915033572591E2   4.093737165278363E-4  -1.084529662567257E2   2.854549382521646E-2  -3.739798334588108  
 4.150000000000000E9     5.071475253996621E-2   4.327844134776949E1   4.200448314355153E-4  -1.082185430574496E2   4.128049433829013E-4  -1.156758189944185E2   2.827180025877836E-2  -5.528216752343037  
 4.200000000000000E9     4.928294104831701E-2   3.868688700537089E1   4.343071922992876E-4  -1.202641814380511E2   4.148817941138645E-4  -1.213356863525932E2   2.973028250089888E-2  -8.052968586345221  
 4.250000000000000E9     4.749105658159221E-2   3.554763540338747E1   4.062442412931250E-4  -1.272066170854411E2   4.209226552516208E-4  -1.280746887918863E2   2.964346642758105E-2  -7.991198529318921  
 4.300000000000000E9     4.672550122595420E-2   3.010443553924667E1   4.072942370240767E-4  -1.339895180253394E2   4.370356649408295E-4  -1.330065927355477E2   2.995719487673040E-2  -8.068246841990810  
 4.350000000000000E9     4.506442437782769E-2   2.640940462098806E1   4.017777187905653E-4  -1.415733249019248E2   4.233084343221337E-4  -1.392508555914612E2   2.899971201628915E-2  -8.926074572055120  
 4.400000000000000E9     4.519790616423992E-2   2.104029208192065E1   4.153877072407271E-4  -1.394759360563368E2   4.248623752356551E-4  -1.393536425455574E2   2.924259051601684E-2  -1.062399534779752E1  
 4.450000000000000E9     4.284087685713137E-2   1.759226245157117E1   4.695760274290061E-4  -1.490176974631334E2   4.528442564016181E-4  -1.477268676897677E2   2.824461205623197E-2  -1.232323785359554E1  
 4.500000000000000E9     4.356121007461860E-2   1.070958160652156E1   4.829603923051064E-4  -1.538212029372786E2   4.672992400610293E-4  -1.534831675073433E2   2.959869663242397E-2  -1.427971231949317E1  
 4.550000000000000E9     4.208047634481566E-2   7.485878043905345   4.775762200109735E-4  -1.598071326848239E2   4.799390629425553E-4  -1.603167151950251E2   2.851230599599164E-2  -1.359988485171581E1  
 4.600000000000000E9     4.228530786127786E-2   1.081991102482232   4.651413213595695E-4  -1.673171676981819E2   4.965326429984819E-4  -1.687965127714079E2   2.916911824859660E-2  -1.752575401962161E1  
 4.650000000000000E9     4.136146957470033E-2  -3.131120747721053   4.889528889668427E-4   1.799464446406199E2   5.128150799489470E-4  -1.764435277503643E2   2.885721099576449E-2  -1.511974280933900E1  
 4.700000000000000E9     4.253939307168871E-2  -8.961800302380260   5.128174631319708E-4   1.771269530311702E2   4.945990040413999E-4   1.739676436763330E2   2.787826484375270E-2  -1.620630918140757E1  
 4.750000000000000E9     4.161056929871856E-2  -1.259817382462848E1   4.881288911752022E-4   1.748801392153359E2   5.253807394653026E-4   1.698653990869671E2   2.607512884558409E-2  -1.734199222547904E1  
 4.800000000000000E9     4.341184040491081E-2  -1.738939268577113E1   5.038419598497469E-4   1.619168253138478E2   5.144773831842712E-4   1.634318010284419E2   2.596754252110550E-2  -2.270174475111636E1  
