#  HZ   S   MA   R     50.00 
! Rohde & Schwarz ZVA67 4Ports - Version 4.11 - 1305.7002k04 SN: 101051
! Date: 2023-05-31 14:28:34
! Measurements: S11 S21 S12 S22 
! 
 5.000000000000000E7     1.005038474097126  -6.448281296229112   7.359318514185401E-5   9.888858959814144E1   1.703431521434645E-4   1.736917764379247E1   9.917046400329100E-1  -6.753826558241099  
 1.000000000000000E8     1.001615115274254  -1.327013989659565E1   7.328769024092971E-5   1.064511571017485E2   8.394205356516076E-5  -4.117977133273834E1   1.005929840211448  -1.376585783918327E1  
 1.500000000000000E8     1.004875895913561  -1.971345181333627E1   1.082604838105781E-4   1.473171348167029E2   2.115456250817778E-5  -1.288760007529668E1   1.008242516237060  -2.025833489120729E1  
 2.000000000000000E8     1.003876100901297  -2.627596650688718E1   4.365481122990356E-5   1.369676396904484E2   5.548442276337078E-5   1.700655627704988E2   1.009456359885447  -2.740143077590793E1  
 2.500000000000000E8     1.004493059090302  -3.282830845074549E1   1.939622256194453E-5  -6.085690891624827E1   6.067494407754780E-5  -1.479595238081685E2   1.011568324773376  -3.415208101281558E1  
 3.000000000000000E8     1.008287042864627  -3.936633774927238E1   9.003040988432748E-5  -3.405879754901108E1   2.082828216957155E-5   1.000293453454681E2   1.012102444655380  -4.106338024835512E1  
 3.500000000000000E8     1.010527193238209  -4.582318702307825E1   4.458275022299667E-5   1.747663127082436E2   2.774056259113268E-5   1.671436034551409E2   1.012875153641433  -4.793918403430497E1  
 4.000000000000000E8     1.014250112861348  -5.215203652155939E1   6.076605331985137E-5   1.473894565809260E2   6.708673512097081E-5   5.505723066262389E1   1.016414708371793  -5.491176828721982E1  
 4.500000000000000E8     1.015184024755824  -5.859709164653809E1   8.081429661821566E-5   1.177985566725648E2   6.545528835217291E-6   1.608637884318893E2   1.017742859836194  -6.164705633183279E1  
 5.000000000000000E8     1.018040222126672  -6.523826349897827E1   3.680858202563544E-5   9.252077034970183   1.462389070199578E-5  -1.135004322588385E2   1.017149660990312  -6.868912836910330E1  
 5.500000000000000E8     1.018835280275146  -7.164209868995937E1   3.659861268821221E-5  -4.925990457276996E1   4.572448163527024E-5   4.276157974967977E1   1.015580946550270  -7.566395725393707E1  
 6.000000000000000E8     1.018985345115880  -7.844873557500833E1   1.683680959841435E-5   1.055554149731952E2   1.393536181274402E-5   9.234839112896052E1   1.014068302504184  -8.274095336437028E1  
 6.500000000000000E8     1.020910526593164  -8.497156065881123E1   2.424741074313934E-5  -8.699175641128711E1   1.439676560301343E-5  -5.146653090838021E1   1.013358723234331  -8.968301558184434E1  
 7.000000000000000E8     1.016372493088075  -9.184362638038219E1   4.070536441323466E-5  -7.626330683698757E1   4.701091941380057E-5   1.947548360921271E1   1.010889856253659  -9.675629374847534E1  
 7.500000000000000E8     1.015324132486538  -9.859376629691580E1   3.294008865488867E-5   1.211841889890328E2   1.111626085916754E-5  -2.500608809285727E1   1.005604028810690  -1.036707819218347E2  
 8.000000000000000E8     1.009488833262911  -1.054755310060576E2   2.912827827517247E-5  -5.054267288377177E1   2.031661382536872E-5  -5.936279774109238E1   1.000495762123373  -1.107491656100642E2  
 8.500000000000000E8     1.008561520257068  -1.122762334614938E2   1.974216554492984E-6  -1.455137937115681E1   1.211623606313378E-5  -6.955675164453797E1   9.975870779208307E-1  -1.177240246163894E2  
 9.000000000000000E8     1.003011986290441  -1.191655281663117E2   1.372392401169925E-5   1.191107224604291E2   2.518827334932028E-5  -9.846085963089108E1   9.956155507831770E-1  -1.246928242388107E2  
 9.500000000000000E8     9.998021369800779E-1  -1.260211897510881E2   4.752425530311590E-5  -3.341608082861603E1   1.823060291709234E-5  -5.715964668560824E1   9.939836873192874E-1  -1.315307621601497E2  
 1.000000000000000E9     9.947763710044946E-1  -1.330260770768058E2   1.878237117337178E-5  -3.143920920027478E1   2.056080964136252E-5  -5.454884625687976E1   9.938100337713307E-1  -1.384091829614281E2  
 1.050000000000000E9     9.930473186704473E-1  -1.397365279051281E2   3.938704484370514E-5  -1.459083581794005E1   1.141087136553632E-5   1.123565262671255E1   9.925640425126594E-1  -1.451754618446018E2  
 1.100000000000000E9     9.889362826871105E-1  -1.466681209697133E2   8.356733456912338E-6  -8.986473318633054E1   1.262216226527400E-5  -9.314432618832568E1   9.920949954630889E-1  -1.520042129301021E2  
 1.150000000000000E9     9.860998701119993E-1  -1.533537604206944E2   2.009243565334777E-5  -1.153162782091205E2   7.936272435992739E-6  -4.239855780083030E1   9.909018308129488E-1  -1.587788517374403E2  
 1.200000000000000E9     9.828630949086945E-1  -1.602775015172713E2   2.777629493056993E-5  -8.539567336604701E1   2.770054329690277E-5  -1.065483710001658E2   9.908282212455822E-1  -1.655991640054414E2  
 1.250000000000000E9     9.823343502759945E-1  -1.667706972116037E2   3.472587838813929E-5  -4.451018375471666E1   3.872276326055041E-5  -1.098572098587552E2   9.910820614222523E-1  -1.723122747946363E2  
 1.300000000000000E9     9.813886189506152E-1  -1.734509193220994E2   3.431174244221012E-5  -1.141085383295770E2   3.877617507829523E-5  -9.329071803183828E1   9.926582026683156E-1  -1.790712171205267E2  
 1.350000000000000E9     9.796625024175955E-1   1.799762658480383E2   3.787778477420126E-5  -1.119551742709108E2   3.171485418405674E-5  -9.228845895150164E1   9.927509617305702E-1   1.742975800335561E2  
 1.400000000000000E9     9.803793886946637E-1   1.734617579458254E2   2.159809735043869E-5  -9.412431016306454E1   3.021543166419075E-5  -7.063269954731919E1   9.932991647551849E-1   1.675755916406246E2  
 1.450000000000000E9     9.798146925924791E-1   1.670526856265816E2   2.158347646454550E-5  -1.243347851840829E2   1.012289621806336E-5  -7.578591660481135E1   9.948452409728371E-1   1.609574632938100E2  
 1.500000000000000E9     9.825439094073254E-1   1.606272696727208E2   2.840620290011806E-5   1.628679502640842E2   6.522128157929198E-5  -1.287847515761962E2   9.962525653832381E-1   1.542869861225843E2  
 1.550000000000000E9     9.823391345283062E-1   1.543556712371103E2   2.590119695634408E-5  -1.728362335325100E2   2.801031483428286E-5  -1.140679181440468E2   9.953811970596415E-1   1.476388076380560E2  
 1.600000000000000E9     9.842021018729905E-1   1.479935089484201E2   4.959020147729412E-5  -1.374909092708016E2   5.122003786441003E-5  -1.435231638378237E2   9.957199671284259E-1   1.409034174953422E2  
 1.650000000000000E9     9.850615583195815E-1   1.417385307857201E2   4.839832842339884E-5  -1.582364434128074E2   4.472866270392084E-5  -1.684507137198268E2   9.960686888350465E-1   1.343138027457111E2  
 1.700000000000000E9     9.883131982620476E-1   1.354666466021800E2   4.022476224971329E-5  -1.707975875219283E2   4.214788122499903E-5   1.732052180681867E2   9.958471565293817E-1   1.276215391394852E2  
 1.750000000000000E9     9.880986662419258E-1   1.292553296482559E2   4.679524707365289E-5  -1.688981610250875E2   4.583120846835234E-5  -1.639066604069519E2   9.942866619480055E-1   1.210544689882904E2  
 1.800000000000000E9     9.886339437660600E-1   1.229817261915259E2   4.045602331220285E-5   1.404400187443578E2   3.451030267682865E-5   1.716784318319338E2   9.920848728747462E-1   1.143077610494119E2  
 1.850000000000000E9     9.875996246684603E-1   1.166315115702942E2   1.948368959426320E-5  -1.396472962987700E2   1.343630685492737E-5   1.127283211499202E2   9.901976734789461E-1   1.076318073941654E2  
 1.900000000000000E9     9.873922489595403E-1   1.103214549504105E2   3.107599561281180E-5   1.546470298388914E2   4.262573515825772E-5   1.628641108191614E2   9.884713005594707E-1   1.009962778690425E2  
 1.950000000000000E9     9.863734091066522E-1   1.039401612847715E2   3.761355162773955E-5   1.577626100768044E2   4.843710066199625E-5   9.085281797107518E1   9.856531117112869E-1   9.430189763764403E1  
 2.000000000000000E9     9.853376579471979E-1   9.756919460096019E1   6.999905837626699E-5   1.381223287826942E2   3.019950333685032E-5   1.507513116308644E2   9.843175845816061E-1   8.758060383841109E1  
 2.050000000000000E9     9.832871780610120E-1   9.098875874549309E1   5.318163939190088E-5   1.156385394114143E2   3.277036277786383E-5   1.119587778202369E2   9.831308565543012E-1   8.096487727053611E1  
 2.100000000000000E9     9.821430760593021E-1   8.442802735616279E1   5.656132547305107E-5   1.070479043952748E2   4.647797591110464E-5   9.876069760705960E1   9.829340510458705E-1   7.435785204052139E1  
 2.150000000000000E9     9.793463869652875E-1   7.792938403987979E1   2.847061092186992E-5   1.222886197927608E2   6.506718234421207E-5   1.209298569236393E2   9.794632533466219E-1   6.769717184621504E1  
 2.200000000000000E9     9.779892704262165E-1   7.135047385998786E1   5.554144585913233E-5   7.131847337510139E1   7.150358509657375E-5   9.527227573182924E1   9.797705085961522E-1   6.109338275025732E1  
 2.250000000000000E9     9.750318895416242E-1   6.461371897455196E1   7.874794798732338E-5   1.122148924814718E2   6.291069468004868E-5   7.865740024808169E1   9.787705993642109E-1   5.446861642499675E1  
 2.300000000000000E9     9.748298182119128E-1   5.799575199710376E1   7.336054320818591E-5   9.677477320100577E1   5.929412570140530E-5   7.014239207578832E1   9.798940333074934E-1   4.791009078764518E1  
 2.350000000000000E9     9.728374548629907E-1   5.129856773528004E1   6.649875947095830E-5   8.184563681080567E1   5.440269715139627E-5   5.962272032723249E1   9.799735247203603E-1   4.135640507289816E1  
 2.400000000000000E9     9.751531816818814E-1   4.476015331162908E1   4.392825652548350E-5   5.706725584074880E1   4.173279717094208E-5   9.284248115985827E1   9.812574939445700E-1   3.482240875202852E1  
 2.450000000000000E9     9.736669462367569E-1   3.796444852344845E1   2.900630699627517E-5   3.093105855298705E1   4.215753001945889E-5   4.977684887569300E1   9.806424800548019E-1   2.829419824293455E1  
 2.500000000000000E9     9.778937073036085E-1   3.142218254926275E1   7.306131504440057E-5   5.339935749208857E1   5.936652270595555E-5   2.043850155184767E1   9.811115164842622E-1   2.182872599240854E1  
 2.550000000000000E9     9.783584132955959E-1   2.468632783359840E1   1.020900101476472E-4   7.574489337842632   2.205184896428218E-5   6.717398455863335   9.802979609968513E-1   1.529730875587356E1  
 2.600000000000000E9     9.819273272042711E-1   1.819433236101038E1   7.654548505848492E-5   8.113977657454372   6.292889247242657E-5   1.770318973729129E1   9.807709500449148E-1   8.859156254874765  
 2.650000000000000E9     9.833551281372646E-1   1.161021412879921E1   3.775880736157581E-5  -3.553028897523237E1   5.006721233771634E-5  -1.259816940887450E1   9.779464001189488E-1   2.219336992025127  
 2.700000000000000E9     9.877935262280065E-1   5.097751729168023   5.815335597656330E-5  -4.727350952834533E1   3.105510086776514E-5  -4.980000803423854E1   9.791640354582730E-1  -4.250589899455132  
 2.750000000000000E9     9.911601097468952E-1  -1.359119845711498   6.529424300349140E-5  -1.755816540821183E2   4.311926113789319E-5  -8.513542644336402   9.772151390055940E-1  -1.086439332843261E1  
 2.800000000000000E9     9.945952651884523E-1  -7.930703146864674   2.798107204109160E-5   1.497718203499723E2   1.945172310639840E-5   2.891203200924490   9.766422292375165E-1  -1.743751927547249E1  
 2.850000000000000E9     9.979887719317730E-1  -1.440425388363874E1   2.808363195776752E-5   9.050888088580476E1   1.948702598721197E-5  -3.897902071021765E1   9.766984996927556E-1  -2.406136822244974E1  
 2.900000000000000E9     1.000557025759329  -2.090322136773949E1   6.115917135958074E-5   2.766116945120875E1   2.114304922606399E-5  -1.669461315624085E2   9.776470321699432E-1  -3.062460561713897E1  
 2.950000000000000E9     1.002622262445841  -2.752727918453936E1   1.160133806912454E-5  -7.759384733746612E1   3.153198900029703E-5   9.180489188478691E1   9.764939117129330E-1  -3.729714396783534E1  
 3.000000000000000E9     1.003262476561603  -3.406370022931517E1   6.811098804107999E-5  -3.640269370432296E1   6.795342014684392E-5  -4.058107736748426E1   9.766535460831407E-1  -4.391520241780049E1  
 3.050000000000000E9     1.005406492415179  -4.079684692794948E1   2.117759007030842E-5   1.153329043255671E1   5.486692198021404E-5  -4.659195834446970   9.765170356760243E-1  -5.064844781551194E1  
 3.100000000000000E9     1.005829376347305  -4.741468607121649E1   1.097214990467654E-4  -3.729772685244295E1   7.850906624309629E-5  -1.372672422519294E1   9.754529310516356E-1  -5.725619495727126E1  
 3.150000000000000E9     1.005626557155336  -5.421002355762445E1   4.329250760253991E-5  -6.370634174513523E1   1.069516768818831E-4  -5.085894570863569E1   9.754625649201835E-1  -6.393875208293027E1  
 3.200000000000000E9     1.004558199726037  -6.080912990966719E1   8.187905057935165E-5  -3.931092299003082E1   6.764312731021925E-5  -5.589491247542584E1   9.759366889360760E-1  -7.064198555172735E1  
 3.250000000000000E9     1.002706559565355  -6.761330487427964E1   2.768769362533897E-5  -7.077848088794990E1   6.131068411043235E-5  -9.683692760168111E1   9.755538463821786E-1  -7.743471989486785E1  
 3.300000000000000E9     1.001562663288420  -7.430441848845977E1   5.404167710781827E-5  -1.005885043517030E2   7.797403943697445E-5  -5.517947631035084E1   9.769132208282799E-1  -8.416848394118834E1  
 3.350000000000000E9     9.996437949997759E-1  -8.115813382889745E1   3.432184007079559E-5  -7.009381130543089E1   4.779852718904647E-5  -4.915983526381785E1   9.777953458580926E-1  -9.095939261853204E1  
 3.400000000000000E9     9.973614204930075E-1  -8.798186031106889E1   9.651491793570496E-5  -8.912683858549592E1   7.768323771771138E-5  -7.921074113208042E1   9.800135812798387E-1  -9.781407005237453E1  
 3.450000000000000E9     9.946088538617220E-1  -9.483091121982849E1   1.265371690471816E-4  -1.053437664933338E2   5.147385427350675E-5  -1.290059187835757E2   9.822225316944765E-1  -1.047685738039521E2  
 3.500000000000000E9     9.932570119568308E-1  -1.016483020308102E2   5.504159242658181E-5  -1.457881533010493E2   6.897715702894067E-5  -1.538162756097982E2   9.843039046286793E-1  -1.117278997156834E2  
 3.550000000000000E9     9.957695881688161E-1  -1.086929667182636E2   6.832546993002605E-5  -1.370904417600458E2   1.887594843516036E-5   1.324713034753698E2   9.847465988774549E-1  -1.188057739445268E2  
 3.600000000000000E9     9.955496829623503E-1  -1.155866410872930E2   8.111589114432795E-5   1.786224236037073E2   7.833924003265827E-5  -1.762174742016745E2   9.839157857321093E-1  -1.259074942460896E2  
 3.650000000000000E9     9.948059813027435E-1  -1.227646816674190E2   1.776370041582544E-5  -1.326184422751102E2   2.746373465100018E-5   1.279875376010168E2   9.869834834116018E-1  -1.328721633516601E2  
 3.700000000000000E9     9.919144105428180E-1  -1.297271611122613E2   2.826502707118240E-5   6.401153829575252E1   1.280371363872123E-5   1.063857663571059E2   9.896487258436357E-1  -1.399278660967107E2  
 3.750000000000000E9     9.917803262139522E-1  -1.367819548144101E2   4.479738707354427E-5  -1.551331692884961E2   4.690531527725949E-5  -1.505666834466794E2   9.926461635705464E-1  -1.468123782486835E2  
 3.800000000000000E9     9.907092908223537E-1  -1.436934323245393E2   9.326745478941576E-6   9.695805887466440E1   2.888776871527407E-5   9.681277012831693E1   9.911907248681999E-1  -1.538639934104374E2  
 3.850000000000000E9     9.909994357584162E-1  -1.506718295144358E2   2.941468867209844E-5  -3.455641515574200E1   2.370608946513030E-6   6.150924081860643E1   9.931344748057527E-1  -1.609583615762817E2  
 3.900000000000000E9     9.899227406028012E-1  -1.577079510026769E2   4.503602962995246E-5  -4.683694065364563E1   2.269994753159755E-5  -1.703086254664920E2   9.937126575897058E-1  -1.679639105127054E2  
 3.950000000000000E9     9.925963196944638E-1  -1.645055410070793E2   4.568584111885213E-5  -4.387965997789632E1   1.297613642667322E-5  -7.099170686295544   9.947027987589938E-1  -1.751020601029267E2  
 4.000000000000000E9     9.933189126434495E-1  -1.712616908443108E2   4.799199550776171E-5  -1.792811431664685E2   3.574410274451999E-5  -6.048489717634919E1   9.959324341922788E-1   1.777725991181222E2  
 4.050000000000000E9     9.972556112763311E-1  -1.780478063460578E2   5.088301601776448E-5  -1.403028099644618E2   2.366213751363857E-5  -1.721036543553143E2   9.962056314948791E-1   1.708321689483107E2  
 4.100000000000000E9     9.980623536877282E-1   1.752163171592936E2   3.998632115750634E-5   1.714385487302518E2   1.302948429179447E-5  -1.488625162073028E2   9.963966341731941E-1   1.637344335339406E2  
 4.150000000000000E9     1.001118920313650   1.684828347577827E2   4.742801920448390E-5  -1.633375860796475E2   3.688462103938571E-5  -1.547680448165230E2   9.960349018510053E-1   1.566092176004967E2  
 4.200000000000000E9     1.002761608231601   1.618624797603664E2   3.135131856834457E-5   1.634977022237118E2   4.048729415182050E-5   1.641767907267731E2   9.950863337940230E-1   1.495028816497606E2  
 4.250000000000000E9     1.004680212865659   1.551836483563818E2   3.787845896391973E-5   1.611746216317089E2   5.622952316330735E-5   1.603791808891385E2   9.957334967386514E-1   1.424221172373129E2  
 4.300000000000000E9     1.006067083992340   1.485443586356148E2   4.382483350068621E-5   1.592809631386966E2   5.439122998573459E-5   1.296813339862989E2   9.969742701490441E-1   1.352728531145004E2  
 4.350000000000000E9     1.007132365867125   1.418883924915975E2   4.686772780181234E-5   1.393904842018292E2   5.273560573535447E-5   1.152796603906766E2   9.992124521113585E-1   1.282343214295715E2  
 4.400000000000000E9     1.007209629945301   1.351948349667334E2   7.517220381900583E-5   8.248845882911932E1   4.028486598946392E-5   8.397883661659238E1   9.990403423303298E-1   1.211040208337777E2  
 4.450000000000000E9     1.009441699029867   1.286186226231038E2   2.072539587823842E-5   7.520120760195395E1   3.109611102934503E-5   5.233456777381570E1   1.000532278660427   1.141590135103585E2  
 4.500000000000000E9     1.007168136044288   1.219488283634817E2   3.249806552233049E-5   1.239095773671787E2   2.226032404243029E-5   9.217230137616311E1   9.999996960135325E-1   1.070831858115416E2  
 4.550000000000000E9     1.008745270206220   1.153483151612245E2   1.376060925097627E-5   1.184745206656691E2   2.912037959541703E-7  -1.208330950067107E2   1.001996413849446   1.001077073292042E2  
 4.600000000000000E9     1.006162155023637   1.087169694602085E2   2.771454848572138E-5   5.816633934767357E1   1.745851730846563E-5  -1.558171726457353E2   1.001631619106332   9.309932979215722E1  
 4.650000000000000E9     1.008220323408723   1.022055295164651E2   1.968948179145092E-5   1.618264571624120E1   1.726490821575640E-5   4.488522895929379E1   1.003450407198966   8.608467739796161E1  
 4.700000000000000E9     1.006411116191241   9.560307302224118E1   3.728119828486753E-5   1.054197876093112E2   3.555931710392420E-5   1.306351983171448E2   1.004919049632809   7.929553190546736E1  
 4.750000000000000E9     1.008224563778595   8.904914310663250E1   3.212176279906197E-5   7.726993876197447E1   8.328859329269322E-6   4.678273114662900E1   1.005700665811622   7.243067232455269E1  
 4.800000000000000E9     1.007864567945774   8.245921475643421E1   2.655432591628432E-5  -2.359333590140766   1.257820854883013E-5   3.989453001062413   1.002511812193889   6.562097191481951E1  
 4.850000000000000E9     1.010120548768889   7.602141203584310E1   1.899308952356927E-5  -4.675892863420360E1   2.784294502856325E-5   1.231427900252955E2   1.001789303118140   5.869749475558750E1  
