#  HZ   S   MA   R     50.00 
! Rohde & Schwarz ZVA67 4Ports - Version 4.11 - 1305.7002k04 SN: 101051
! Date: 2023-05-31 14:26:46
! Measurements: S11 S21 S12 S22 
! 
 5.000000000000000E7     1.231635691537327E-2   2.848568542273535E1   9.964172472026019E-1  -7.480154553625242   9.959631931635741E-1  -7.219625135393875   1.495555415856681E-2   5.839445974651758E-1  
 1.000000000000000E8     9.479743718083997E-3  -1.318797308782004E1   9.905215159255622E-1  -1.430655709618445E1   9.900006674037429E-1  -1.457805978208818E1   9.664826388658857E-3  -1.511911715576722E1  
 1.500000000000000E8     1.609892447330117E-2  -8.828019192269567   9.901939152898004E-1  -2.138012577828063E1   9.916805327945174E-1  -2.174981020532053E1   1.535234571151674E-2  -2.165657326846817E1  
 2.000000000000000E8     1.369143482945238E-2  -1.591886246662463E1   9.909399692376217E-1  -2.849538069355021E1   9.954980733088209E-1  -2.907195199939120E1   1.515759435017871E-2  -2.106876132231968E1  
 2.500000000000000E8     1.751291202391468E-2  -1.927885702092209E1   9.907577240086233E-1  -3.586703702546112E1   9.913785558956566E-1  -3.612697951292924E1   1.975166977484110E-2  -2.567247703455337E1  
 3.000000000000000E8     2.048085403765340E-2  -2.958204544281845E1   9.911514596008800E-1  -4.312263120637721E1   9.902993223816962E-1  -4.344997154074044E1   2.312527279079365E-2  -3.336143508391275E1  
 3.500000000000000E8     2.264239507399958E-2  -3.666190897118024E1   9.893665347759412E-1  -5.028237761997477E1   9.895878660094986E-1  -5.062489793563842E1   2.440602007297891E-2  -3.826173235442889E1  
 4.000000000000000E8     2.573178836557345E-2  -4.332966056522171E1   9.885198638858661E-1  -5.752217503859985E1   9.890563684225132E-1  -5.779264398740898E1   2.921385732502513E-2  -4.395631278416123E1  
 4.500000000000000E8     2.559520252294852E-2  -4.718604271051391E1   9.887261878357303E-1  -6.470088771451175E1   9.887949901241981E-1  -6.498521431783202E1   3.240284889345859E-2  -5.047203324106317E1  
 5.000000000000000E8     2.658452945871347E-2  -5.688903120716678E1   9.877110222439628E-1  -7.188622356531758E1   9.884571064141270E-1  -7.221143701010917E1   3.289936094620428E-2  -6.216134488290128E1  
 5.500000000000000E8     2.279713751982532E-2  -6.384072581259617E1   9.874996169930536E-1  -7.905247018675111E1   9.878352691948306E-1  -7.940125774902975E1   3.412815718001925E-2  -7.037332400349283E1  
 6.000000000000000E8     2.070902926909756E-2  -7.881209405133629E1   9.869389489823093E-1  -8.630072127489073E1   9.865361507765050E-1  -8.664732223158602E1   3.641850244513561E-2  -8.208293358823022E1  
 6.500000000000000E8     1.810909324495486E-2  -8.188103502864688E1   9.859822396442809E-1  -9.339135566082528E1   9.865742168237122E-1  -9.382839704363708E1   3.863612476390315E-2  -9.534901391128726E1  
 7.000000000000000E8     1.403143988373057E-2  -1.060669579353689E2   9.856601229385064E-1  -1.006053652193772E2   9.853715426259411E-1  -1.010593035409940E2   3.808205987246599E-2  -1.087757607674032E2  
 7.500000000000000E8     7.315939795166454E-3  -1.147124402920092E2   9.850064807370098E-1  -1.078324854423305E2   9.856241704314590E-1  -1.082459485655505E2   3.733016889041558E-2  -1.228823441837408E2  
 8.000000000000000E8     5.822393334545961E-3   1.722648204403083E2   9.851633900282956E-1  -1.149820721871575E2   9.845295591434344E-1  -1.153990846710921E2   3.564945987225671E-2  -1.383110888511557E2  
 8.500000000000000E8     6.404985581352998E-3   1.213832327345960E2   9.849732386987472E-1  -1.222683071408290E2   9.840355221090578E-1  -1.226853075363290E2   3.760057824798622E-2  -1.526645182454722E2  
 9.000000000000000E8     1.167745336684637E-2   9.691468556012656E1   9.832953839788291E-1  -1.294093345903864E2   9.829647877787902E-1  -1.298792999989630E2   3.988040921870305E-2  -1.658615774647077E2  
 9.500000000000000E8     1.462235143689777E-2   8.554988064028149E1   9.824408894488337E-1  -1.365644635429686E2   9.825145435552106E-1  -1.370534233090591E2   4.039919767205086E-2  -1.764733827600681E2  
 1.000000000000000E9     1.833188233121822E-2   8.138050455167806E1   9.821367689786034E-1  -1.437803446157887E2   9.816093065753923E-1  -1.442638698401749E2   4.147321631164420E-2   1.721416458738650E2  
 1.050000000000000E9     1.957199893719270E-2   7.271633003412350E1   9.816220785139677E-1  -1.509083720726411E2   9.810860544165692E-1  -1.514494542312967E2   4.025618655916804E-2   1.642283319773619E2  
 1.100000000000000E9     2.187398962718813E-2   6.818796319330245E1   9.806179269770723E-1  -1.581440004865418E2   9.805246031995645E-1  -1.586396333069538E2   4.041268347090654E-2   1.529000234275899E2  
 1.150000000000000E9     2.350189172732059E-2   6.029226971466884E1   9.799614000876772E-1  -1.652781330834563E2   9.797508120032981E-1  -1.658221948729983E2   3.831933867568176E-2   1.451136326006568E2  
 1.200000000000000E9     2.413672714621135E-2   5.703210997678249E1   9.799782573434829E-1  -1.725028776165594E2   9.789665003228537E-1  -1.730822051894297E2   3.811095313241247E-2   1.352916725247338E2  
 1.250000000000000E9     2.263570325827999E-2   5.029906170287230E1   9.791727695931207E-1  -1.797102544095249E2   9.786633269143129E-1   1.797558854213497E2   3.389063567250791E-2   1.330851074020055E2  
 1.300000000000000E9     2.190346884974022E-2   4.455350234927568E1   9.788018378769758E-1   1.731590611600220E2   9.789173114427840E-1   1.725439666686241E2   3.304906670746064E-2   1.287091569668421E2  
 1.350000000000000E9     2.111775729489290E-2   3.867194648109404E1   9.790478913952694E-1   1.659788992248938E2   9.785197763607321E-1   1.653555063030388E2   2.855181728257971E-2   1.276046486524675E2  
 1.400000000000000E9     1.829089907313128E-2   3.325404890512227E1   9.780249908891936E-1   1.587983088650791E2   9.786442484212531E-1   1.581755344668526E2   2.754397933398602E-2   1.265322938919247E2  
 1.450000000000000E9     1.610470708997815E-2   2.266979412647800E1   9.782519113405882E-1   1.516482337376995E2   9.781457519019257E-1   1.509714843116626E2   2.519638727191425E-2   1.318431902004732E2  
 1.500000000000000E9     1.321375177139158E-2   1.658762763027744E1   9.777781721842129E-1   1.444856695289854E2   9.781090365672952E-1   1.437934466427800E2   2.539510860704044E-2   1.343828826530484E2  
 1.550000000000000E9     1.125081412714278E-2  -4.339152888636319   9.775171226532337E-1   1.373578999306756E2   9.777806161580563E-1   1.366013820582205E2   2.539369306434988E-2   1.429258177842652E2  
 1.600000000000000E9     9.589372786487685E-3  -2.725653089023889E1   9.780862668627850E-1   1.301586387936960E2   9.778461356411264E-1   1.294720430876962E2   2.790224538377276E-2   1.438603106439929E2  
 1.650000000000000E9     9.900631754724687E-3  -6.471632915907924E1   9.783043505664787E-1   1.229854823106489E2   9.777364473475779E-1   1.223245810343149E2   3.125411743246139E-2   1.462758149223824E2  
 1.700000000000000E9     1.206279184204229E-2  -9.000763529023598E1   9.782177409559163E-1   1.158669927324621E2   9.778718216838206E-1   1.151755013412747E2   3.539417030068447E-2   1.440870506523975E2  
 1.750000000000000E9     1.782346826842404E-2  -1.086022284813192E2   9.783591088069374E-1   1.087629151081143E2   9.778400042572086E-1   1.080484778115829E2   3.926473269000967E-2   1.426511703147853E2  
 1.800000000000000E9     2.177406796285274E-2  -1.171739237133902E2   9.775744323625734E-1   1.016162423978936E2   9.782629877272995E-1   1.009075350700252E2   4.144062153885836E-2   1.378269574515536E2  
 1.850000000000000E9     2.728340714223619E-2  -1.246599120419886E2   9.784956817908759E-1   9.444355382568548E1   9.779189179776489E-1   9.374191750635799E1   4.316763015429834E-2   1.315911125934626E2  
 1.900000000000000E9     3.215448349084264E-2  -1.324852707752506E2   9.779639187145917E-1   8.733781079011619E1   9.777842866720271E-1   8.655829826790939E1   4.537429032705375E-2   1.263075680360354E2  
 1.950000000000000E9     3.760302439691981E-2  -1.387259590802686E2   9.775736521831413E-1   8.024670495891067E1   9.780591041325045E-1   7.943585679483951E1   4.724554427312468E-2   1.188297754487089E2  
 2.000000000000000E9     4.284355939006718E-2  -1.457059168612209E2   9.771548593921495E-1   7.311304064897878E1   9.780625002935462E-1   7.226626385772892E1   4.929388836404788E-2   1.104768592186261E2  
 2.050000000000000E9     4.712382874575679E-2  -1.501520839136318E2   9.769851526320583E-1   6.593895448498252E1   9.782591907760504E-1   6.513787890753606E1   5.025605010825907E-2   1.033346297826073E2  
 2.100000000000000E9     5.010458458102533E-2  -1.577819709819621E2   9.774946209010298E-1   5.880908195425626E1   9.770738312472852E-1   5.799819168171059E1   5.140131559715564E-2   9.763202662365563E1  
 2.150000000000000E9     5.353499499550996E-2  -1.627156500560163E2   9.776090890610297E-1   5.168889866477780E1   9.768823028674409E-1   5.086759990138710E1   5.279603558814239E-2   9.027045320374043E1  
 2.200000000000000E9     5.564168864180578E-2  -1.697107597624525E2   9.762189830971375E-1   4.459539198860106E1   9.772788979452146E-1   4.372458239475338E1   5.342969676438168E-2   8.420743793967918E1  
 2.250000000000000E9     5.572016908098590E-2  -1.756107372849704E2   9.769667384162035E-1   3.745778425038387E1   9.765859397423857E-1   3.653203984561448E1   5.392483594032402E-2   7.662275941256685E1  
 2.300000000000000E9     5.444913764912813E-2   1.752373674911458E2   9.756164236791781E-1   3.032049872063410E1   9.755159377921319E-1   2.943182553128334E1   5.751885699182988E-2   7.111239806755111E1  
 2.350000000000000E9     5.356079431047857E-2   1.683246136645220E2   9.753188491383410E-1   2.320355190876934E1   9.749886457221958E-1   2.230699559265439E1   5.933619116942856E-2   6.502578733138894E1  
 2.400000000000000E9     5.161758238084218E-2   1.581379781400435E2   9.750830921403736E-1   1.606730499740192E1   9.746430431814005E-1   1.521343432822278E1   6.305909915862093E-2   6.017889685421462E1  
 2.450000000000000E9     4.982800290290661E-2   1.511219921680455E2   9.750981668867488E-1   8.906716464436205   9.748560155577769E-1   8.026326647292656   6.338483846860513E-2   5.502042760070955E1  
 2.500000000000000E9     4.739041775286181E-2   1.375277547692595E2   9.746579407194959E-1   1.746560610775602   9.746558402743890E-1   8.811197032258075E-1   6.733471072643280E-2   5.030661422188772E1  
 2.550000000000000E9     4.510887925665680E-2   1.274705924172689E2   9.749422634402460E-1  -5.407506454910192   9.745264355297297E-1  -6.260632320651412   6.647251307533580E-2   4.476629001178348E1  
 2.600000000000000E9     4.547391775791381E-2   1.119685144763991E2   9.745959351784960E-1  -1.252935663167871E1   9.743552291155210E-1  -1.343337270332474E1   7.017529308125711E-2   3.976456877615381E1  
 2.650000000000000E9     4.484020711281554E-2   1.006808795068369E2   9.743660390826200E-1  -1.971994043233235E1   9.735730509722457E-1  -2.055119942310294E1   6.923363993924600E-2   3.351819357247057E1  
 2.700000000000000E9     4.647922772703998E-2   8.665593218090727E1   9.741559258817987E-1  -2.690483352638817E1   9.728606492779190E-1  -2.772362949452649E1   7.220309964330467E-2   2.809836805648370E1  
 2.750000000000000E9     4.809777499431985E-2   7.444482257036211E1   9.731498441219917E-1  -3.403109704774680E1   9.731456153455795E-1  -3.487390181770003E1   7.156111691402464E-2   2.171326017649482E1  
 2.800000000000000E9     5.149582107625157E-2   6.210183224296652E1   9.733841216819971E-1  -4.122407956646881E1   9.722255119776242E-1  -4.209809332637877E1   7.271950463306171E-2   1.517707962280909E1  
 2.850000000000000E9     5.466914435284392E-2   5.132466640776618E1   9.734656095236740E-1  -4.842308350703601E1   9.728009874099503E-1  -4.927888047311350E1   7.125894019648042E-2   7.742335256928127  
 2.900000000000000E9     5.959447531217593E-2   4.254482960493748E1   9.728753691567084E-1  -5.564655775825929E1   9.728926221607659E-1  -5.645897125120064E1   7.178616488812042E-2   8.083782171720295E-1  
 2.950000000000000E9     5.901051511031761E-2   3.231700216984073E1   9.725656002980467E-1  -6.277892504706590E1   9.723367664521859E-1  -6.367320069646934E1   6.948498848943525E-2  -7.540794402684355  
 3.000000000000000E9     6.132915717931935E-2   2.386519375097472E1   9.726211708952536E-1  -6.998448165713280E1   9.709335919211828E-1  -7.095395425168432E1   6.832542513470070E-2  -1.378791265451905E1  
 3.050000000000000E9     6.044680723325720E-2   1.487269301860500E1   9.719347746605669E-1  -7.715389662981690E1   9.724764984420838E-1  -7.816909050683779E1   6.547347937371766E-2  -2.296360445876972E1  
 3.100000000000000E9     6.294966473961688E-2   7.122586326978977   9.715544592547784E-1  -8.430393290442051E1   9.710013215782379E-1  -8.542384894498326E1   6.414614929201903E-2  -2.989525722933071E1  
 3.150000000000000E9     6.007545517185125E-2  -8.539759420512417E-1   9.710571456007462E-1  -9.153541902223050E1   9.711855849807375E-1  -9.268264005335766E1   5.955499098742655E-2  -3.801196002762672E1  
 3.200000000000000E9     5.955557269805330E-2  -7.752338252244281   9.707175191194756E-1  -9.863802128793574E1   9.711617203431863E-1  -9.985242300843743E1   5.624748355234768E-2  -4.589283040992206E1  
 3.250000000000000E9     5.603784191673220E-2  -1.558751616770019E1   9.704499688770957E-1  -1.058137192710697E2   9.707150994005744E-1  -1.070403323596976E2   5.047080411387626E-2  -5.435314094479899E1  
 3.300000000000000E9     5.190110109838904E-2  -2.263281078988913E1   9.705624672476236E-1  -1.129573669065367E2   9.717560712888376E-1  -1.140913625346719E2   4.591773458970193E-2  -6.431594879229685E1  
 3.350000000000000E9     4.709769767930023E-2  -3.240246849723658E1   9.703868883431434E-1  -1.201274471811876E2   9.727492379972276E-1  -1.212356318956457E2   4.076915508146455E-2  -7.418007785113426E1  
 3.400000000000000E9     4.183349499817731E-2  -3.941989695973608E1   9.707874045106271E-1  -1.272077633613930E2   9.714280451718423E-1  -1.284752338381426E2   3.617798710809266E-2  -8.291163568289198E1  
 3.450000000000000E9     3.558852174738478E-2  -5.188529396667825E1   9.710843264083170E-1  -1.343201907484689E2   9.729046255052009E-1  -1.357177472729523E2   3.107895854709626E-2  -9.522085014500664E1  
 3.500000000000000E9     3.112074273964066E-2  -6.184422089389192E1   9.733022510127457E-1  -1.413984483873646E2   9.743628869996223E-1  -1.429645765871244E2   2.487802125224585E-2  -1.056078889580790E2  
 3.550000000000000E9     2.463169895291888E-2  -8.139109251347070E1   9.760982127650802E-1  -1.486159619867528E2   9.751398202265111E-1  -1.502427053757654E2   2.024256252408585E-2  -1.235441375780093E2  
 3.600000000000000E9     2.021350606017576E-2  -9.582422607001610E1   9.771911887785856E-1  -1.558830813597657E2   9.740656726573608E-1  -1.573942521800151E2   1.744087006507068E-2  -1.408268356387580E2  
 3.650000000000000E9     1.875709241604487E-2  -1.216184890271275E2   9.770109435517056E-1  -1.631817099155312E2   9.740504601670184E-1  -1.645544334672710E2   1.581080426019531E-2  -1.688113733164467E2  
 3.700000000000000E9     1.833130858216705E-2  -1.497315013285190E2   9.762874485172743E-1  -1.704399967271832E2   9.743020068436729E-1  -1.717481190829500E2   1.586570209605996E-2   1.765226081271791E2  
 3.750000000000000E9     2.347502196814170E-2  -1.765515982455025E2   9.759770609802185E-1  -1.776483650099181E2   9.738508703179049E-1  -1.790016149202861E2   1.445629242572861E-2   1.555626018369011E2  
 3.800000000000000E9     2.564274804976225E-2   1.608596239693861E2   9.751061907129773E-1   1.751981637911626E2   9.735543035804591E-1   1.738493898486078E2   1.368127088910795E-2   1.309941379963648E2  
 3.850000000000000E9     3.228792214400356E-2   1.468894214415088E2   9.738842173027068E-1   1.680329660089479E2   9.738308360960043E-1   1.666764968322425E2   1.537250394821137E-2   1.150260106981922E2  
 3.900000000000000E9     3.765165985970213E-2   1.340045451878247E2   9.737719105461709E-1   1.608496036897439E2   9.723554594253935E-1   1.594502088061261E2   1.737883684179460E-2   9.849197290730920E1  
 3.950000000000000E9     4.360100129494180E-2   1.261180487086498E2   9.725421138342606E-1   1.537221849676751E2   9.727758966148896E-1   1.523280604742915E2   1.881336345025259E-2   8.606826869374638E1  
 4.000000000000000E9     4.758778261857616E-2   1.159613299956723E2   9.724350030988191E-1   1.465485704681671E2   9.726362234066946E-1   1.451694601834441E2   2.051581641660364E-2   7.347594260776060E1  
 4.050000000000000E9     5.189101197274952E-2   1.109312719798916E2   9.728354712023141E-1   1.394640799616993E2   9.718416069813873E-1   1.379963229595474E2   2.174449806693712E-2   6.518349683447880E1  
 4.100000000000000E9     5.424120653981744E-2   1.024754800567077E2   9.714645120224300E-1   1.322908121777720E2   9.706606381870290E-1   1.308177588447112E2   2.362760083411750E-2   5.464845042808950E1  
 4.150000000000000E9     5.718000301079804E-2   9.561676327276621E1   9.709842057369582E-1   1.250908897743582E2   9.697557461441012E-1   1.236302367684628E2   2.530438665575730E-2   4.650126811949609E1  
 4.200000000000000E9     5.751338603818788E-2   8.855980480687639E1   9.707828007642850E-1   1.179318124764594E2   9.697354223567153E-1   1.164623381509832E2   2.773232931826081E-2   3.768308604540779E1  
 4.250000000000000E9     5.732396852931732E-2   8.211694192453655E1   9.699535183539162E-1   1.107740083630390E2   9.690070912258386E-1   1.093299388215996E2   2.940221170689109E-2   3.200610384338324E1  
 4.300000000000000E9     5.667434371522599E-2   7.400393749446970E1   9.697214746011648E-1   1.035794183238377E2   9.687818669069717E-1   1.022062325081516E2   3.280752420203630E-2   2.850546099091254E1  
 4.350000000000000E9     5.644968572367175E-2   6.716760906936392E1   9.695835827354724E-1   9.648720362247181E1   9.694354824104955E-1   9.500986977750152E1   3.171036315856650E-2   2.166267906478690E1  
 4.400000000000000E9     5.543450985600172E-2   5.729378433043895E1   9.695691811667049E-1   8.930474663453468E1   9.685166542608358E-1   8.785448034476566E1   3.345027736771811E-2   1.535098887310052E1  
 4.450000000000000E9     5.291800109192483E-2   5.224592883006386E1   9.701601979086156E-1   8.219627589283441E1   9.688259258213500E-1   8.069182419139936E1   3.168451910521513E-2   9.246361715622722  
 4.500000000000000E9     5.245224603797472E-2   4.189802736216210E1   9.695322213169929E-1   7.504063434901789E1   9.682172510851580E-1   7.354667106461163E1   3.314059577419191E-2   2.590614433285539  
 4.550000000000000E9     5.011409008511810E-2   3.596893961832394E1   9.694247166521487E-1   6.786807984234865E1   9.687245226918297E-1   6.640424666971187E1   3.083141688634643E-2  -1.013614622551982E-1  
 4.600000000000000E9     4.854962121523988E-2   2.626593875250248E1   9.695874798766169E-1   6.076891442223014E1   9.692173379840807E-1   5.922159957640177E1   2.899301307274382E-2  -8.108604999014785  
 4.650000000000000E9     4.547608418768815E-2   1.933566178415111E1   9.703770976770743E-1   5.362298113833328E1   9.692866917181254E-1   5.205397884924631E1   2.720083323265050E-2  -5.172770327227464  
 4.700000000000000E9     4.414397320371283E-2   1.105062230075394E1   9.706207159995122E-1   4.649067965392484E1   9.694901822482944E-1   4.492223123971147E1   2.378472035446600E-2  -5.842012223552964  
 4.750000000000000E9     4.127878468910116E-2   4.088593703589948   9.711032881820244E-1   3.935635346265264E1   9.703394467388176E-1   3.775787870475150E1   2.005407985524303E-2  -4.286067297156131  
 4.800000000000000E9     4.033633507720701E-2  -3.220651629218130   9.717694077265814E-1   3.221806852056852E1   9.706281894165771E-1   3.063863514825946E1   1.820655332021856E-2  -3.294788088152248  
