#  HZ   S   MA   R     50.00 
! Rohde & Schwarz ZVA67 4Ports - Version 4.11 - 1305.7002k04 SN: 101051
! Date: 2023-05-31 14:25:27
! Measurements: S11 S21 S12 S22 
! 
 5.000000000000000E7     1.094131719766117E-2   3.739147999453415E1   9.899949869156288E-1  -7.067078726694645   9.938079422995622E-1  -7.160115505263649   1.113234001427928E-2   4.213025188777768  
 1.000000000000000E8     8.168548482337897E-3   3.060735080839254E-1   9.950224506644798E-1  -1.403726568648833E1   9.943739793332400E-1  -1.408435822710612E1   8.729758466147996E-3   1.998719524526375  
 1.500000000000000E8     1.643266224550434E-2   1.005825310514693   9.922916136710550E-1  -2.081064595876177E1   9.912392096150511E-1  -2.110224795626599E1   1.472052348130319E-2  -1.168020620083949E1  
 2.000000000000000E8     1.417951448608302E-2  -2.911045958409842   9.919543489467808E-1  -2.791319634307266E1   9.947542535993862E-1  -2.847149295392253E1   1.590960897895270E-2  -7.622771809089650  
 2.500000000000000E8     1.927074715450526E-2  -1.058829347681138E1   9.898115027719971E-1  -3.493947231300343E1   9.899238922145359E-1  -3.525092229336654E1   2.115000083710933E-2  -1.850602026555329E1  
 3.000000000000000E8     2.264324238520416E-2  -2.254581939955170E1   9.891500552774872E-1  -4.194371868571724E1   9.884876368244492E-1  -4.221015048033565E1   2.536592194589740E-2  -2.653466028624349E1  
 3.500000000000000E8     2.552624464803645E-2  -3.050456320454583E1   9.878653519319458E-1  -4.887057934860899E1   9.869628414970563E-1  -4.919086536037548E1   2.704404460141429E-2  -3.356234769802003E1  
 4.000000000000000E8     2.885469046763538E-2  -3.801770572145210E1   9.854206701563794E-1  -5.574733104415761E1   9.866146740426942E-1  -5.620230857338128E1   3.246934111992596E-2  -3.923939791447943E1  
 4.500000000000000E8     2.990954943190262E-2  -4.196842124359790E1   9.855920249409240E-1  -6.283162904208414E1   9.853319671164519E-1  -6.313641509149348E1   3.634512940320666E-2  -4.558065123150760E1  
 5.000000000000000E8     3.183213427432194E-2  -5.048704152918077E1   9.840603773940453E-1  -6.984829747138545E1   9.846978475249635E-1  -7.017007507169697E1   3.785665657693053E-2  -5.502835464471807E1  
 5.500000000000000E8     2.978886521596661E-2  -5.362980670351226E1   9.824383380237025E-1  -7.689080104254627E1   9.823720697853745E-1  -7.717629207886809E1   4.030690541081929E-2  -6.245293627138386E1  
 6.000000000000000E8     2.751720399217978E-2  -6.808031514134237E1   9.822081827827348E-1  -8.383418047907389E1   9.813767017070165E-1  -8.414321923934087E1   4.196002191120698E-2  -7.532835045062275E1  
 6.500000000000000E8     2.501436486837042E-2  -7.394567696636594E1   9.811115858001176E-1  -9.061069617049292E1   9.811588939396674E-1  -9.103712181418669E1   4.390994292344812E-2  -8.883785741885748E1  
 7.000000000000000E8     2.076272557352879E-2  -9.139809469158467E1   9.811808412972262E-1  -9.759762255665540E1   9.816148576411566E-1  -9.798748152663264E1   4.328188670056318E-2  -1.024326913610241E2  
 7.500000000000000E8     1.419456674311477E-2  -9.939514848230338E1   9.807620821810249E-1  -1.045201795866890E2   9.812240706121177E-1  -1.048885201414386E2   4.254306828506670E-2  -1.163892463495033E2  
 8.000000000000000E8     9.337897379391353E-3  -1.355094444224362E2   9.801606200405479E-1  -1.114192903938300E2   9.793654374256815E-1  -1.117975987804582E2   4.058025671096299E-2  -1.309133631636444E2  
 8.500000000000000E8     6.044194547233169E-3  -1.641028769741513E2   9.798368220873195E-1  -1.184145781060055E2   9.793267847346727E-1  -1.188261500619412E2   4.241765781948378E-2  -1.452241121045148E2  
 9.000000000000000E8     7.937322441319972E-3   1.340216413102613E2   9.790742165705181E-1  -1.253088602088852E2   9.792814362619735E-1  -1.257223845929708E2   4.455330508238069E-2  -1.591629411808567E2  
 9.500000000000000E8     1.074189918245824E-2   1.141091409679163E2   9.784351891739150E-1  -1.322223151978492E2   9.778464171059840E-1  -1.326915750702304E2   4.540081244210890E-2  -1.688392379099628E2  
 1.000000000000000E9     1.406637277614369E-2   1.055731323204923E2   9.773411065478173E-1  -1.392164387378425E2   9.766951125205676E-1  -1.397207001409502E2   4.703549646329203E-2  -1.793826356806552E2  
 1.050000000000000E9     1.511746849102172E-2   9.645735820024537E1   9.761513326695912E-1  -1.461230421806557E2   9.758567130949299E-1  -1.466814945018994E2   4.652447494676951E-2   1.730304496281785E2  
 1.100000000000000E9     1.767988592099437E-2   9.051166415249539E1   9.751596568213938E-1  -1.531062275107344E2   9.749425932658695E-1  -1.535891441141639E2   4.705893892348962E-2   1.619272736673675E2  
 1.150000000000000E9     1.972207878144542E-2   8.222693564673502E1   9.744954714893018E-1  -1.600289527127511E2   9.736176050616389E-1  -1.605701256387336E2   4.577023215013109E-2   1.544266720769978E2  
 1.200000000000000E9     2.105299689566912E-2   7.930397121441087E1   9.737960343366241E-1  -1.670257153745702E2   9.747209680276388E-1  -1.675349592859919E2   4.609325161523115E-2   1.429354334636106E2  
 1.250000000000000E9     2.153071532682706E-2   7.348511545495465E1   9.743858031110114E-1  -1.739112992288649E2   9.737879889819893E-1  -1.744696388454815E2   4.214829625943574E-2   1.392822542090674E2  
 1.300000000000000E9     2.196990090099901E-2   6.881525255694780E1   9.743491047660788E-1   1.791689801444192E2   9.741494656399452E-1   1.785784567652906E2   4.174548071912905E-2   1.330923329793117E2  
 1.350000000000000E9     2.201548431977358E-2   6.362171385333389E1   9.738581638342208E-1   1.722337624587798E2   9.747802836684070E-1   1.716585271885925E2   3.764416522612354E-2   1.294114364287111E2  
 1.400000000000000E9     2.061773971645951E-2   6.081263933066444E1   9.743143877203412E-1   1.653372530627665E2   9.742425589798529E-1   1.647127303376622E2   3.657674100253359E-2   1.252140530242804E2  
 1.450000000000000E9     1.853493358010220E-2   5.479575544311891E1   9.740205534143041E-1   1.584057538288367E2   9.737235942456364E-1   1.577556776199197E2   3.375534422638034E-2   1.261777652807220E2  
 1.500000000000000E9     1.690896896958968E-2   5.521174655064696E1   9.738727474425374E-1   1.514641157839854E2   9.741262567331235E-1   1.507905442255895E2   3.347344322293077E-2   1.251031907343427E2  
 1.550000000000000E9     1.375975591512542E-2   4.733582194870501E1   9.733718213034637E-1   1.445645569654182E2   9.732787216574050E-1   1.438462047588882E2   3.156490904082086E-2   1.292283888173922E2  
 1.600000000000000E9     1.158215163448092E-2   4.081776253470265E1   9.733732593453395E-1   1.376078517595284E2   9.726418988891519E-1   1.368915935948445E2   3.316318254086168E-2   1.293035078185839E2  
 1.650000000000000E9     6.320181341296294E-3   3.270962859248630E1   9.724304201072394E-1   1.306490933598377E2   9.715196167325829E-1   1.299474474718008E2   3.536488939353481E-2   1.318807204016953E2  
 1.700000000000000E9     3.690441116582421E-3   5.327439567791000   9.719012206820360E-1   1.237087498565917E2   9.719427336891425E-1   1.230800459865357E2   3.711875120004964E-2   1.305637930705984E2  
 1.750000000000000E9     5.661660191751654E-3  -7.671894586840321E1   9.727548785627519E-1   1.168890145019424E2   9.728352906587388E-1   1.161545912359607E2   3.850542375535074E-2   1.305765534178412E2  
 1.800000000000000E9     9.173061262446396E-3  -9.387338208129462E1   9.722660748357326E-1   1.100138795131522E2   9.732683017955970E-1   1.092773985765468E2   3.926849424547694E-2   1.267749972511287E2  
 1.850000000000000E9     1.461908351253065E-2  -1.066785578965232E2   9.736628967545689E-1   1.031327358893108E2   9.732664565511683E-1   1.023530831670948E2   4.053827710425945E-2   1.218090669874533E2  
 1.900000000000000E9     1.938971662913750E-2  -1.160632548541705E2   9.731987243484358E-1   9.620921098678649E1   9.736970599182007E-1   9.546392991638759E1   4.154899521742260E-2   1.176429093096138E2  
 1.950000000000000E9     2.480912611070551E-2  -1.228593527974956E2   9.729172037080978E-1   8.938148586825112E1   9.736357003901208E-1   8.857364325564504E1   4.279592974570079E-2   1.116263775318018E2  
 2.000000000000000E9     3.030081715195339E-2  -1.296024824946035E2   9.731929558405946E-1   8.251033959788960E1   9.739671994338340E-1   8.165026466708588E1   4.462477846597689E-2   1.037789089256386E2  
 2.050000000000000E9     3.546351197933954E-2  -1.332303544879838E2   9.736569790914172E-1   7.556502976954091E1   9.742407234921590E-1   7.476521066634328E1   4.566221134772980E-2   9.682758904661041E1  
 2.100000000000000E9     3.853884878702813E-2  -1.414216261543171E2   9.733689738853748E-1   6.866158685426747E1   9.729979646630447E-1   6.783180171549155E1   4.675568861430383E-2   9.086115325722362E1  
 2.150000000000000E9     4.265657983624606E-2  -1.464338438512746E2   9.725509018261616E-1   6.174229375830221E1   9.723782916285466E-1   6.091058247726581E1   4.850857525378723E-2   8.411806305096530E1  
 2.200000000000000E9     4.538563428641334E-2  -1.532082070880554E2   9.714022211388442E-1   5.490061406724055E1   9.720712095435540E-1   5.404348825547519E1   4.903150366713818E-2   7.762466768161509E1  
 2.250000000000000E9     4.664446051273211E-2  -1.584804871011598E2   9.714596731703807E-1   4.798824729432011E1   9.720246578215980E-1   4.707500140840639E1   4.955727962402790E-2   6.994123579554584E1  
 2.300000000000000E9     4.606963903745915E-2  -1.663834005080616E2   9.717962239787102E-1   4.113943146400866E1   9.713167146443944E-1   4.020541255528703E1   5.230691146094548E-2   6.528818429656737E1  
 2.350000000000000E9     4.648622817074954E-2  -1.717418076211204E2   9.714144549066069E-1   3.422176164676530E1   9.713960278686821E-1   3.332321727690366E1   5.307837973901312E-2   5.981161543533362E1  
 2.400000000000000E9     4.509919203630872E-2   1.796316506425656E2   9.716596537411220E-1   2.733286083409794E1   9.713654104229400E-1   2.644465544780111E1   5.612272933504748E-2   5.613423644786742E1  
 2.450000000000000E9     4.441937574152589E-2   1.742090743495853E2   9.716222681358108E-1   2.043364293161606E1   9.719805307014892E-1   1.950592302923405E1   5.577992134540247E-2   5.116772558696538E1  
 2.500000000000000E9     4.141420012264283E-2   1.620557046657354E2   9.721005964365480E-1   1.350473655380406E1   9.714185271376725E-1   1.261736285484450E1   5.954129153724099E-2   4.751830384063317E1  
 2.550000000000000E9     3.904810881101956E-2   1.534638873285712E2   9.720511838703889E-1   6.573465584467982   9.714523937230287E-1   5.723419275520804   5.883899914508430E-2   4.220558706452885E1  
 2.600000000000000E9     3.813398291805088E-2   1.375478247298106E2   9.713003634062658E-1  -3.328634299756645E-1   9.705001726323310E-1  -1.245682403577522   6.240454519779604E-2   3.798092977113198E1  
 2.650000000000000E9     3.656612412268594E-2   1.249625319182978E2   9.703497303357801E-1  -7.284984328212912   9.692446500818219E-1  -8.131155869004555   6.253064911601364E-2   3.186735924778091E1  
 2.700000000000000E9     3.656372683044758E-2   1.085148101498861E2   9.688214346932857E-1  -1.428928195133355E1   9.679455604914449E-1  -1.508865829893469E1   6.559168993785965E-2   2.653707763112828E1  
 2.750000000000000E9     3.773433120323377E-2   9.558139859890954E1   9.683553176477602E-1  -2.110756076845155E1   9.692187940459881E-1  -2.197405107638443E1   6.474097777635082E-2   2.136213150259811E1  
 2.800000000000000E9     4.074420604336222E-2   8.248434944310866E1   9.690984239719549E-1  -2.813176587268064E1   9.675081701948850E-1  -2.895537331409252E1   6.600420451348207E-2   1.583004516340222E1  
 2.850000000000000E9     4.381122992848528E-2   7.159980770861300E1   9.695734319561181E-1  -3.508889947693361E1   9.694116497714062E-1  -3.589961814191849E1   6.537197942239070E-2   9.137056187584140  
 2.900000000000000E9     4.897747961399284E-2   6.282053552726842E1   9.698614860822031E-1  -4.204551655852383E1   9.702996761383901E-1  -4.289809495648927E1   6.616954797206448E-2   2.891039760394426  
 2.950000000000000E9     4.917426435968252E-2   5.178378776676438E1   9.695690661475652E-1  -4.901080102175600E1   9.700646432257627E-1  -4.987166075705000E1   6.548179576186235E-2  -5.159024805470180  
 3.000000000000000E9     5.236946296525814E-2   4.294897031056013E1   9.699663153530321E-1  -5.593585228870922E1   9.693695061080581E-1  -5.687412751602923E1   6.472504455010247E-2  -1.088845888878645E1  
 3.050000000000000E9     5.231145717642492E-2   3.433494657251769E1   9.699158205059784E-1  -6.289077667826726E1   9.699408176168021E-1  -6.388696682929677E1   6.347476918152491E-2  -2.045328131326637E1  
 3.100000000000000E9     5.636647233134386E-2   2.633477791114107E1   9.681835798264745E-1  -6.976157371824219E1   9.682879405921462E-1  -7.093943138630338E1   6.287039551852494E-2  -2.715318506017681E1  
 3.150000000000000E9     5.485136261319214E-2   1.867022912942992E1   9.682345718144559E-1  -7.676302903255855E1   9.668523674121192E-1  -7.793472962692580E1   6.074711153410773E-2  -3.597724898946652E1  
 3.200000000000000E9     5.644068007791255E-2   1.110186275665776E1   9.666948448104483E-1  -8.367105050549905E1   9.663277027536006E-1  -8.488209314487244E1   5.894736758465248E-2  -4.458249666541511E1  
 3.250000000000000E9     5.443752714066394E-2   4.008028579459985   9.661186845585699E-1  -9.062354360472928E1   9.671119613650038E-1  -9.184134523589684E1   5.364356212815236E-2  -5.326559105323935E1  
 3.300000000000000E9     5.143909520815634E-2  -1.976374950526125   9.666813559888778E-1  -9.751262312511057E1   9.681467381296618E-1  -9.866095336999265E1   5.101066824206016E-2  -6.330130625357305E1  
 3.350000000000000E9     4.792725776314987E-2  -9.720464811295315   9.675052190629465E-1  -1.044382803160190E2   9.692054021046428E-1  -1.055316378317650E2   4.655515993186344E-2  -7.336587609249527E1  
 3.400000000000000E9     4.341537101321401E-2  -1.467516028322487E1   9.681641319352439E-1  -1.112553995672656E2   9.698549587368154E-1  -1.125243853276131E2   4.297475627898199E-2  -8.268504421430724E1  
 3.450000000000000E9     3.771387041751869E-2  -2.418124285070036E1   9.682848450025504E-1  -1.180991487262263E2   9.708511726533806E-1  -1.195135847351142E2   3.912732447512064E-2  -9.495273991073785E1  
 3.500000000000000E9     3.443476503695991E-2  -3.180601244543428E1   9.709380163925292E-1  -1.249867294828281E2   9.712138096379086E-1  -1.265814642845029E2   3.454130204973073E-2  -1.089546875853853E2  
 3.550000000000000E9     2.701942997699346E-2  -4.545666166697665E1   9.726611025488324E-1  -1.319485545215501E2   9.709396406234637E-1  -1.335549112800811E2   3.158445494277900E-2  -1.244291277270318E2  
 3.600000000000000E9     2.241869478307809E-2  -5.353820728073075E1   9.736117821266547E-1  -1.390144110918721E2   9.707738795334894E-1  -1.405814624862426E2   2.884141442591230E-2  -1.393961487350500E2  
 3.650000000000000E9     1.785659668436773E-2  -7.207137880361672E1   9.740725737278900E-1  -1.460801895535746E2   9.711163378200358E-1  -1.474375246537028E2   2.928651103819255E-2  -1.604431960358350E2  
 3.700000000000000E9     1.417588952255048E-2  -9.437005176367518E1   9.727917883900975E-1  -1.530827421259077E2   9.707561830834515E-1  -1.544511935713759E2   3.012459935976988E-2  -1.724325376427304E2  
 3.750000000000000E9     1.521544488020187E-2  -1.354307219599887E2   9.719843735771787E-1  -1.600347020151603E2   9.701700095546414E-1  -1.614301725204680E2   3.011697568337551E-2   1.724450676593537E2  
 3.800000000000000E9     1.549054775730508E-2  -1.686578758465713E2   9.715297105509581E-1  -1.670089406907613E2   9.699585131373344E-1  -1.683657414607497E2   2.813964703497227E-2   1.563597639431124E2  
 3.850000000000000E9     2.138357960471235E-2   1.658084310276623E2   9.704018283089568E-1  -1.739514437294865E2   9.707653693279513E-1  -1.752706696089920E2   2.972236175029991E-2   1.410948111167715E2  
 3.900000000000000E9     2.691343525831067E-2   1.492034512570118E2   9.718351340442032E-1   1.791653521357923E2   9.701667709829011E-1   1.776957160298258E2   3.092992336606899E-2   1.279896697546077E2  
 3.950000000000000E9     3.426254302636356E-2   1.384177516760182E2   9.715512520426770E-1   1.722247298036635E2   9.703706541806170E-1   1.708282421614647E2   3.245105201597288E-2   1.154867215705831E2  
 4.000000000000000E9     3.940117285472069E-2   1.281349893337834E2   9.713364019469769E-1   1.652891908763117E2   9.706433273773034E-1   1.639128529727017E2   3.488263494922127E-2   1.031238129289275E2  
 4.050000000000000E9     4.511586215858399E-2   1.234310689110351E2   9.702442064278208E-1   1.584416164583776E2   9.697578842194796E-1   1.569492172391995E2   3.707119630611905E-2   9.488330268468100E1  
 4.100000000000000E9     4.928407651624989E-2   1.160136295764817E2   9.692417104586121E-1   1.514607766661006E2   9.682767673688901E-1   1.499805177327348E2   3.910909514476571E-2   8.473928696050075E1  
 4.150000000000000E9     5.433768007967533E-2   1.086805294216575E2   9.682962166324006E-1   1.445265446702762E2   9.675231532080453E-1   1.430550497038016E2   4.143852511149866E-2   7.536998976671733E1  
 4.200000000000000E9     5.612062734128021E-2   1.013780443626005E2   9.684273611294991E-1   1.375718911709319E2   9.673139063984819E-1   1.361199796674438E2   4.415157533923935E-2   6.569136294052584E1  
 4.250000000000000E9     5.818789710180192E-2   9.478178304655955E1   9.677960309028768E-1   1.306446967750226E2   9.661878872068433E-1   1.291925160965976E2   4.776061375463702E-2   5.859897658920500E1  
 4.300000000000000E9     5.930300445359429E-2   8.739559917514596E1   9.665260819703258E-1   1.236907858517661E2   9.653098771957300E-1   1.223035210979226E2   5.278495453603081E-2   5.303301852855741E1  
 4.350000000000000E9     6.123589155969777E-2   8.063550976456402E1   9.661691954807365E-1   1.168277482763591E2   9.659081186992533E-1   1.153222124927849E2   5.372292201614986E-2   4.486860589518172E1  
 4.400000000000000E9     6.212761794425566E-2   7.007413385923445E1   9.666840072613807E-1   1.098904525703609E2   9.656794161880961E-1   1.084103757691418E2   5.645329873822130E-2   3.737023074113361E1  
 4.450000000000000E9     6.117439983230157E-2   6.372693306009813E1   9.674286150869091E-1   1.030130426575140E2   9.665096843357153E-1   1.014705061720745E2   5.654717119000215E-2   3.004744822943469E1  
 4.500000000000000E9     6.243310310378518E-2   5.358983737369552E1   9.674295357604195E-1   9.608392495027282E1   9.661018612458433E-1   9.458087753666739E1   5.960280554445076E-2   2.252464877628414E1  
 4.550000000000000E9     6.239104403232729E-2   4.717585938249547E1   9.673065306023243E-1   8.916397100467179E1   9.664743943960937E-1   8.764269013186188E1   5.940694032605289E-2   1.713799043238591E1  
 4.600000000000000E9     6.236807451966756E-2   3.747903115266710E1   9.671031109123177E-1   8.227257259715481E1   9.668056427583217E-1   8.073059036426855E1   5.931800318614776E-2   8.513675829870760  
 4.650000000000000E9     6.161006610801727E-2   2.974007886969574E1   9.672789060263382E-1   7.536680531270622E1   9.665225764182882E-1   7.382909141079442E1   5.955979997890089E-2   5.280866029125333  
 4.700000000000000E9     6.159235587808197E-2   2.072452874602494E1   9.674364066945768E-1   6.846716238501874E1   9.662503940598670E-1   6.686586765202196E1   5.749639268674354E-2  -6.105875725209135E-1  
 4.750000000000000E9     6.164445272759237E-2   1.322322747960259E1   9.684956779788055E-1   6.158675716542445E1   9.669916431489929E-1   5.999102727128874E1   5.469482939941386E-2  -5.557166539382422  
 4.800000000000000E9     6.226697038810041E-2   4.718064952043148   9.683713242934186E-1   5.468762835671923E1   9.671503370897623E-1   5.310538543176984E1   5.243584872123386E-2  -1.154449252141665E1  
