#  HZ   S   MA   R     50.00 
! Rohde & Schwarz ZVA67 4Ports - Version 4.11 - 1305.7002k04 SN: 101051
! Date: 2023-05-31 14:27:57
! Measurements: S11 S21 S12 S22 
! 
 5.000000000000000E7     1.348485681005539E-2   2.204610770236099E1   9.868849472221930E-1  -7.698453419649304   9.874955317461647E-1  -7.287077175513407   1.775581369591631E-2   6.385537400336663  
 1.000000000000000E8     1.255364346918792E-2  -6.944035925070788   9.908459803624411E-1  -1.476333770264115E1   9.873710778787319E-1  -1.517107305329617E1   1.246587865012150E-2  -8.405770710857569  
 1.500000000000000E8     1.933368916581586E-2  -7.263946313735327   9.873731264262073E-1  -2.226160661564036E1   9.875678450881261E-1  -2.256231015024390E1   1.874363598977633E-2  -1.734182129371398E1  
 2.000000000000000E8     1.777335238545619E-2  -1.265150053078759E1   9.874954673401694E-1  -2.962723022383285E1   9.919330937246278E-1  -3.006436848593288E1   1.938615582278465E-2  -1.725859116503709E1  
 2.500000000000000E8     2.182603888151731E-2  -1.858377220293218E1   9.865047767260580E-1  -3.713482210111774E1   9.865645263562088E-1  -3.747575659182547E1   2.410514695356751E-2  -2.368480769391434E1  
 3.000000000000000E8     2.485741932166623E-2  -2.828857575353858E1   9.874759442969994E-1  -4.469380448280278E1   9.847792480438365E-1  -4.493904173653282E1   2.771195717548967E-2  -3.127108163496520E1  
 3.500000000000000E8     2.726227225700185E-2  -3.491693107740300E1   9.859128820126525E-1  -5.204446925128076E1   9.846350403649705E-1  -5.240032931050532E1   2.944880534541581E-2  -3.712079414251078E1  
 4.000000000000000E8     3.025387053020854E-2  -4.160861694102413E1   9.842559100281085E-1  -5.947050648937768E1   9.844095160719636E-1  -5.979262775724914E1   3.409952484083337E-2  -4.370071858268378E1  
 4.500000000000000E8     2.992954036773425E-2  -4.547114217144191E1   9.836666654093127E-1  -6.692066054327493E1   9.837080015373091E-1  -6.724177211624767E1   3.736335660998985E-2  -4.985419922732649E1  
 5.000000000000000E8     3.067621176427922E-2  -5.496257679378655E1   9.834052317118142E-1  -7.443559757679039E1   9.842628033174340E-1  -7.466214231391825E1   3.768482200612846E-2  -6.167550443949271E1  
 5.500000000000000E8     2.688329771683580E-2  -6.093441084900463E1   9.825842087867611E-1  -8.181291569606313E1   9.833534665154827E-1  -8.217302376448352E1   3.914185549056128E-2  -6.974906460914866E1  
 6.000000000000000E8     2.431843153689758E-2  -7.370536250521091E1   9.821337543390365E-1  -8.929874360035359E1   9.821685765097319E-1  -8.965753031178592E1   4.100190021431625E-2  -8.131483478469940E1  
 6.500000000000000E8     2.167984884928828E-2  -7.672924834483651E1   9.812324591563071E-1  -9.664956846924373E1   9.817776932125493E-1  -9.709090313074783E1   4.290412291982722E-2  -9.412292076349064E1  
 7.000000000000000E8     1.658590988442163E-2  -9.453130038592242E1   9.811049463683720E-1  -1.040829676008139E2   9.808670934867368E-1  -1.045576754974293E2   4.210178517448640E-2  -1.071746135657020E2  
 7.500000000000000E8     1.043632291814269E-2  -9.261614641563189E1   9.807882001537956E-1  -1.115809316939104E2   9.805099892456881E-1  -1.119908557148748E2   4.060110551792965E-2  -1.204318319407253E2  
 8.000000000000000E8     4.263380531827090E-3  -1.338600042226170E2   9.798597281140375E-1  -1.189522491075982E2   9.793825465484172E-1  -1.193441091759138E2   3.822550506658885E-2  -1.346152096763612E2  
 8.500000000000000E8     1.004692641375661E-3   1.218191118284183E2   9.795316616128349E-1  -1.264525044397528E2   9.787429422486991E-1  -1.268776570758573E2   3.943058800908682E-2  -1.487158258345729E2  
 9.000000000000000E8     6.338722233037011E-3   7.739060616687911E1   9.782330791314349E-1  -1.338486359123893E2   9.777315943702940E-1  -1.343070484318237E2   4.095189029191196E-2  -1.618788939480271E2  
 9.500000000000000E8     9.226466580615924E-3   6.789720651286545E1   9.772665661227369E-1  -1.412603488470321E2   9.770659756848384E-1  -1.417616142249368E2   4.069953876856410E-2  -1.720975872410674E2  
 1.000000000000000E9     1.240495553378357E-2   6.797851460508807E1   9.768677441720269E-1  -1.487237873233150E2   9.760056370696310E-1  -1.492282339178792E2   4.088229033919492E-2   1.766416595409915E2  
 1.050000000000000E9     1.341159490185830E-2   5.801472462957717E1   9.760224088339981E-1  -1.561048840403109E2   9.762778235362529E-1  -1.566532529132246E2   3.936579351433894E-2   1.695997118304734E2  
 1.100000000000000E9     1.505608360520439E-2   5.491359340750049E1   9.754067682203883E-1  -1.635741633526570E2   9.749496940228435E-1  -1.640760509835913E2   3.837646456103315E-2   1.585995717160783E2  
 1.150000000000000E9     1.608655663119693E-2   4.627819614738336E1   9.743441750820934E-1  -1.709850976132954E2   9.740370280071335E-1  -1.715333944620018E2   3.608158040431440E-2   1.523140680642092E2  
 1.200000000000000E9     1.598120924494092E-2   4.433180911780533E1   9.741517495345954E-1  -1.784270710937570E2   9.736886733055696E-1  -1.790005689836857E2   3.490581381830261E-2   1.438397786849650E2  
 1.250000000000000E9     1.369553474341185E-2   3.532605546995557E1   9.731477283253236E-1   1.741437559181094E2   9.727753930043757E-1   1.735848549552273E2   3.167295530605337E-2   1.450361410636112E2  
 1.300000000000000E9     1.240212305667439E-2   2.870070980585917E1   9.728908412665716E-1   1.667325916637367E2   9.729850102774247E-1   1.661174688333381E2   3.105804332437006E-2   1.424388633462594E2  
 1.350000000000000E9     1.104382475044203E-2   1.979287947643716E1   9.724994426191131E-1   1.592959591080953E2   9.725400362183791E-1   1.587026566533463E2   2.826099170824595E-2   1.452486367420525E2  
 1.400000000000000E9     7.544570447411214E-3   7.575367081222456   9.724113008067399E-1   1.519118327708473E2   9.721130784774000E-1   1.512446432944786E2   2.858797839557905E-2   1.457245896524593E2  
 1.450000000000000E9     5.821084065630814E-3  -2.186333601026592E1   9.717739626339360E-1   1.445152171698385E2   9.716213560890278E-1   1.438142149259457E2   2.930735310110360E-2   1.518679385759960E2  
 1.500000000000000E9     4.340367659241609E-3  -6.632742498076719E1   9.711755025844453E-1   1.370819719387746E2   9.716958437881101E-1   1.364160615484839E2   3.156195102979537E-2   1.530239373964934E2  
 1.550000000000000E9     7.830916489685249E-3  -1.028911614260180E2   9.704946470942049E-1   1.297404411204003E2   9.712449591539438E-1   1.290195151188883E2   3.476635445230684E-2   1.573711517411268E2  
 1.600000000000000E9     1.119250612901568E-2  -1.234999800328471E2   9.714347410368988E-1   1.223263815241254E2   9.710760703682893E-1   1.216317463972341E2   3.907865140835590E-2   1.541383006177721E2  
 1.650000000000000E9     1.665522024619386E-2  -1.352882725939017E2   9.714722567991774E-1   1.149225960644977E2   9.712255547181100E-1   1.142460613797765E2   4.386085012683603E-2   1.518383841970571E2  
 1.700000000000000E9     2.141050554030132E-2  -1.437623533381866E2   9.715298142125481E-1   1.075588199348220E2   9.714024896130322E-1   1.068455399296510E2   4.886059920952367E-2   1.468661196787554E2  
 1.750000000000000E9     2.781682902257964E-2  -1.478982813561450E2   9.713339816617308E-1   1.001556140363967E2   9.715543989672111E-1   9.945246595278857E1   5.310402467385038E-2   1.424877388371934E2  
 1.800000000000000E9     3.190312933892827E-2  -1.519114482312026E2   9.709671088579838E-1   9.280408250670801E1   9.714696323682766E-1   9.207244425044624E1   5.550019223950941E-2   1.364218189033622E2  
 1.850000000000000E9     3.715115653116236E-2  -1.557936656019878E2   9.718287905557677E-1   8.539502963404031E1   9.710549201829302E-1   8.465380243408337E1   5.714336659020540E-2   1.295373114757175E2  
 1.900000000000000E9     4.208099350201031E-2  -1.615557882390258E2   9.702530379890356E-1   7.803026870017223E1   9.710398643267540E-1   7.724595663121323E1   5.955309162097461E-2   1.232434259146593E2  
 1.950000000000000E9     4.679321524908259E-2  -1.661867928810322E2   9.706309389832019E-1   7.071608764398546E1   9.710371422343324E-1   6.988292590995467E1   6.133412772135915E-2   1.153492390231874E2  
 2.000000000000000E9     5.148102702415085E-2  -1.718082801903844E2   9.698476828103928E-1   6.335278887402750E1   9.708222857360608E-1   6.249200128355869E1   6.329175975047274E-2   1.069729191858223E2  
 2.050000000000000E9     5.412532911605533E-2  -1.761312060953031E2   9.702224598638635E-1   5.592711191590475E1   9.706202016668639E-1   5.510533137689647E1   6.414196773567611E-2   9.986523734607128E1  
 2.100000000000000E9     5.686902640844651E-2   1.764989858891482E2   9.705290975159157E-1   4.854110631274180E1   9.696721208007950E-1   4.774734141263975E1   6.547539958960462E-2   9.381411698363078E1  
 2.150000000000000E9     5.880856748289578E-2   1.713473827406532E2   9.700739225230173E-1   4.120681275941097E1   9.693010742504195E-1   4.034935300529991E1   6.664699782154936E-2   8.612579276883675E1  
 2.200000000000000E9     6.023117450438573E-2   1.640176767777721E2   9.686875559189414E-1   3.387278721074976E1   9.696945218498549E-1   3.298237053467958E1   6.744272585260371E-2   8.002799398288914E1  
 2.250000000000000E9     5.878010219042902E-2   1.568944389176155E2   9.686118709235755E-1   2.647595898819730E1   9.692434803118747E-1   2.555331297448178E1   6.812983746555450E-2   7.247952778069457E1  
 2.300000000000000E9     5.775072318642584E-2   1.463314333240661E2   9.684783686858475E-1   1.915707938382169E1   9.679912450204498E-1   1.820035473444427E1   7.222103029789263E-2   6.642354694469439E1  
 2.350000000000000E9     5.593271073837520E-2   1.381484342477297E2   9.672981067082435E-1   1.177418271108286E1   9.678904177584748E-1   1.083331611349402E1   7.353675407115669E-2   6.010354645386599E1  
 2.400000000000000E9     5.487275033825606E-2   1.263643593483670E2   9.675159768849776E-1   4.367264624690155   9.670208406438430E-1   3.471517891663908   7.741006152269168E-2   5.455129865046627E1  
 2.450000000000000E9     5.265793685033997E-2   1.171717009609468E2   9.672112120025731E-1  -3.017941395587898   9.673297058942513E-1  -3.941119302077113   7.782367789887502E-2   4.902630660219278E1  
 2.500000000000000E9     5.263160334305600E-2   1.025819155982860E2   9.670126005839977E-1  -1.038908655846189E1   9.665718949082804E-1  -1.131341282835825E1   8.125934396564045E-2   4.366801307296351E1  
 2.550000000000000E9     5.118808387144892E-2   9.099948884735738E1   9.672482913696631E-1  -1.779362398812481E1   9.665867113791185E-1  -1.864482637741491E1   7.982579989253054E-2   3.792081438952532E1  
 2.600000000000000E9     5.434004119928512E-2   7.668118893658065E1   9.667545054710832E-1  -2.520572716955505E1   9.657987659322482E-1  -2.608394483252054E1   8.277208411116771E-2   3.218583738601525E1  
 2.650000000000000E9     5.505745409730656E-2   6.532039002541924E1   9.661869227807862E-1  -3.259308196982050E1   9.658833352809549E-1  -3.345528377914390E1   8.152636532978601E-2   2.539137892000315E1  
 2.700000000000000E9     5.861788725167936E-2   5.358809202881594E1   9.652571809936230E-1  -4.001147562597367E1   9.652789122873494E-1  -4.086723678305166E1   8.416822681849252E-2   1.934985514812264E1  
 2.750000000000000E9     6.131586567943879E-2   4.273870607930495E1   9.663966323485840E-1  -4.742469675234014E1   9.649777166621838E-1  -4.824249595348979E1   8.267869254690950E-2   1.240972930482999E1  
 2.800000000000000E9     6.569938702144967E-2   3.234021210893531E1   9.662403183285776E-1  -5.484016357066502E1   9.640600292177832E-1  -5.572995338792338E1   8.295430846855256E-2   5.635797204412824  
 2.850000000000000E9     6.887735014886076E-2   2.303744804283576E1   9.654102958304842E-1  -6.224593062046882E1   9.648928263609300E-1  -6.310082555475564E1   7.997197619807664E-2  -1.869938059545518  
 2.900000000000000E9     7.282208970826271E-2   1.505811955856487E1   9.650367346133014E-1  -6.969270317716753E1   9.653376948943361E-1  -7.055211400760416E1   7.959005103645514E-2  -9.310527862580232  
 2.950000000000000E9     7.198776374583311E-2   5.255645657594161   9.647400108691689E-1  -7.708801766353439E1   9.656420424399782E-1  -7.800377513786118E1   7.583126580505700E-2  -1.746508864082778E1  
 3.000000000000000E9     7.301752160191546E-2  -2.964372325974849   9.653749983720938E-1  -8.453657662544045E1   9.639778087214063E-1  -8.546413828702275E1   7.417731606609865E-2  -2.427084976780194E1  
 3.050000000000000E9     7.158087297783233E-2  -1.225488314206617E1   9.644489653992903E-1  -9.200675879551447E1   9.649815903471567E-1  -9.296949319483072E1   6.959329633677368E-2  -3.321434227280469E1  
 3.100000000000000E9     7.250925922714811E-2  -1.977085046494229E1   9.644655855578498E-1  -9.934448751994695E1   9.641886225292159E-1  -1.004907922382170E2   6.721352590124470E-2  -4.024486300114824E1  
 3.150000000000000E9     6.815857997030944E-2  -2.850669110544659E1   9.645150282980644E-1  -1.067864988419636E2   9.638648691909346E-1  -1.079437962964213E2   6.163060544968169E-2  -4.806115777138373E1  
 3.200000000000000E9     6.619576177832735E-2  -3.633660645345592E1   9.631448624665064E-1  -1.142257470346642E2   9.638566673320472E-1  -1.153968180055205E2   5.679306493130705E-2  -5.593851575441060E1  
 3.250000000000000E9     6.221122965418575E-2  -4.588871314315346E1   9.636966640478034E-1  -1.216103889039175E2   9.636365598659765E-1  -1.228712404885619E2   5.072626354643452E-2  -6.372945916972696E1  
 3.300000000000000E9     5.640625600128302E-2  -5.448862736023336E1   9.630214921140541E-1  -1.289846876551526E2   9.651669903097362E-1  -1.301902677673639E2   4.474272081546729E-2  -7.315903207743250E1  
 3.350000000000000E9     5.219290292184914E-2  -6.653623944775262E1   9.641209077369444E-1  -1.364069779780949E2   9.657606829505067E-1  -1.375489770683363E2   3.955874625785257E-2  -8.233188049011437E1  
 3.400000000000000E9     4.621175259541361E-2  -7.641948629302462E1   9.638483572241948E-1  -1.436947629235948E2   9.645615381502724E-1  -1.450331011355700E2   3.420103444972759E-2  -9.004841888321377E1  
 3.450000000000000E9     4.179794309486964E-2  -9.214269152420646E1   9.639822115322988E-1  -1.510861167140287E2   9.659628933351089E-1  -1.524762228503182E2   2.902890165093532E-2  -1.010413813887530E2  
 3.500000000000000E9     3.791508579931330E-2  -1.056277349365823E2   9.672720044761044E-1  -1.584110519934525E2   9.671797221822183E-1  -1.600113861506638E2   2.269589448529475E-2  -1.070127053269480E2  
 3.550000000000000E9     3.522240995096784E-2  -1.257228763141678E2   9.679323593480440E-1  -1.658157308147144E2   9.671209123571498E-1  -1.675061028887999E2   1.693316576083592E-2  -1.230569425955771E2  
 3.600000000000000E9     3.280451670126957E-2  -1.408050075073047E2   9.695842275901614E-1  -1.733531473051270E2   9.666890386982973E-1  -1.749730328519287E2   1.433333503523382E-2  -1.386630988874939E2  
 3.650000000000000E9     3.483495188411362E-2  -1.588176221007897E2   9.695205343350124E-1   1.790340740266023E2   9.667226760003047E-1   1.777100472380040E2   1.135447920379033E-2  -1.612438594642998E2  
 3.700000000000000E9     3.616461592708845E-2  -1.776498869456602E2   9.679194398422421E-1   1.715560598292413E2   9.660781468957551E-1   1.702193653448800E2   1.100804978846889E-2  -1.748303682040767E2  
 3.750000000000000E9     4.170736861087172E-2   1.668266539899875E2   9.675809306367625E-1   1.641164097460555E2   9.663166203033630E-1   1.627617025839066E2   7.573735237874938E-3   1.734007017414501E2  
 3.800000000000000E9     4.308591519139330E-2   1.516752994704329E2   9.665529871482201E-1   1.567324719620981E2   9.654213278401354E-1   1.553676273065568E2   5.168955171753142E-3   1.397219861681728E2  
 3.850000000000000E9     4.834231877658662E-2   1.409370483568746E2   9.650657748340097E-1   1.492840638871733E2   9.654560552152768E-1   1.479774132619010E2   5.741003351894143E-3   1.209809174217971E2  
 3.900000000000000E9     5.152953750951719E-2   1.292074588380667E2   9.656090772279858E-1   1.419366929312369E2   9.636630081724560E-1   1.404781813731903E2   6.543920746843951E-3   8.899989175969250E1  
 3.950000000000000E9     5.618610481346686E-2   1.218089584937299E2   9.654011911038325E-1   1.345503170544711E2   9.641384622747059E-1   1.331109432114996E2   6.760471376839227E-3   7.957542683083686E1  
 4.000000000000000E9     5.780281769866449E-2   1.122506332321247E2   9.643840910851365E-1   1.270931302376291E2   9.641169171693715E-1   1.257404600349632E2   7.105815959700082E-3   6.348226270802558E1  
 4.050000000000000E9     6.072528768484185E-2   1.076186219705194E2   9.641766093552723E-1   1.198211810533959E2   9.636748668549544E-1   1.183297540316049E2   7.266252399725344E-3   5.490262059236871E1  
 4.100000000000000E9     6.094922621931458E-2   9.912404748328861E1   9.631620325701732E-1   1.123701266125137E2   9.625097634203792E-1   1.108989222735993E2   8.312139437186807E-3   4.159767040772201E1  
 4.150000000000000E9     6.147464486885312E-2   9.304353268908167E1   9.622268017434127E-1   1.049729194423018E2   9.614426824006780E-1   1.034675705717654E2   8.837062156681202E-3   3.783448531851100E1  
 4.200000000000000E9     6.009097154469766E-2   8.663426268208198E1   9.621150020997955E-1   9.753877422303339E1   9.613543874669720E-1   9.606969652427513E1   1.029916619966835E-2   2.944046777151460E1  
 4.250000000000000E9     5.823271053136993E-2   8.158775765240311E1   9.620850509241197E-1   9.013485655102495E1   9.611296646458810E-1   8.867125865713194E1   1.050544080639781E-2   3.116857047667378E1  
 4.300000000000000E9     5.610825651108106E-2   7.466805790052912E1   9.615102748875980E-1   8.271566891860600E1   9.605627728014523E-1   8.132901590648670E1   1.272080065204514E-2   3.140544356638561E1  
 4.350000000000000E9     5.415765408621120E-2   6.912625300480687E1   9.613949767381037E-1   7.536816788910308E1   9.607088446215115E-1   7.385107444948585E1   1.034299465100109E-2   3.517439416709733E1  
 4.400000000000000E9     5.091229923574785E-2   6.170542000321326E1   9.612889440179834E-1   6.795377092607728E1   9.602146357209678E-1   6.648229526395662E1   1.095554114060917E-2   3.250932771315141E1  
 4.450000000000000E9     4.811476442768526E-2   5.918469625281552E1   9.614253472693426E-1   6.058996360997247E1   9.604305473658412E-1   5.906587585076270E1   9.348042710238931E-3   4.565487309350383E1  
 4.500000000000000E9     4.571070984274481E-2   5.069165720434970E1   9.611963928003380E-1   5.317567194334121E1   9.599207953126565E-1   5.167320480236415E1   1.018894378516324E-2   4.421471111863242E1  
 4.550000000000000E9     4.290857884721348E-2   4.846992974015213E1   9.608953006460518E-1   4.574671667525665E1   9.604488686218394E-1   4.426935331265752E1   1.163748187614948E-2   6.372583645506895E1  
 4.600000000000000E9     4.017454560737806E-2   4.216093753673051E1   9.608598638940896E-1   3.839750109175103E1   9.606129864759800E-1   3.685222656534403E1   1.297459392922629E-2   7.041320333181901E1  
 4.650000000000000E9     3.707832886135452E-2   4.116234094536062E1   9.613988191505173E-1   3.102302802000260E1   9.610071363250993E-1   2.945318074126273E1   1.908646604340514E-2   7.261924085561628E1  
 4.700000000000000E9     3.622367296872672E-2   3.697309201764612E1   9.622711586010808E-1   2.364227272629857E1   9.608552898149602E-1   2.205105269043717E1   2.351429243389024E-2   7.560032734355937E1  
 4.750000000000000E9     3.421924945944802E-2   3.753405981668101E1   9.626333852868962E-1   1.623245804378430E1   9.619998077916512E-1   1.464176868173430E1   2.837519994845048E-2   7.660384495816832E1  
 4.800000000000000E9     3.476895097721833E-2   3.435921681081462E1   9.630284125012384E-1   8.844772806080504   9.622962673354492E-1   7.286131622552385   3.194173093088825E-2   7.118062778805354E1  
