#  HZ   S   MA   R     50.00 
! Rohde & Schwarz ZVA67 4Ports - Version 4.11 - 1305.7002k04 SN: 101051
! Date: 2023-05-31 14:23:48
! Measurements: S11 S21 S12 S22 
! 
 5.000000000000000E7     7.715227197175659E-3   3.379096111355109E1   9.959714669620151E-1  -7.118340356700622   9.917390625788265E-1  -7.052465511226673   7.802589975663387E-3  -3.851094156339864  
 1.000000000000000E8     3.749377321658526E-3  -3.370973359062852E1   9.965545298918559E-1  -1.340764776587579E1   1.000565015708395  -1.365067111350875E1   4.027814502683835E-3  -2.730253556532075E1  
 1.500000000000000E8     9.814314070539586E-3  -1.594653053055349E1   9.961434282554881E-1  -2.016268796628528E1   9.987554424576161E-1  -2.030545867048313E1   1.027109818184389E-2  -3.345243774010032E1  
 2.000000000000000E8     7.497585503011790E-3  -2.406681319403274E1   9.994152278059297E-1  -2.673719524259386E1   1.000802207756681  -2.728424520250626E1   8.357417302182138E-3  -3.216708645907789E1  
 2.500000000000000E8     1.094105415196471E-2  -2.456309555820458E1   9.957002605826838E-1  -3.369764341653729E1   9.974623718557564E-1  -3.394867404778279E1   1.311794516699049E-2  -3.243951264161243E1  
 3.000000000000000E8     1.396417423621291E-2  -3.721912243847250E1   9.967209332196720E-1  -4.047302529277375E1   9.946791963201163E-1  -4.079129744510046E1   1.644131834613392E-2  -3.739597684193434E1  
 3.500000000000000E8     1.608182638564000E-2  -4.324796099324807E1   9.958347156080556E-1  -4.721955197900694E1   9.957374327578932E-1  -4.754169320428043E1   1.730269797823346E-2  -4.257996628860916E1  
 4.000000000000000E8     1.901615017637203E-2  -4.889059401912232E1   9.953108812006024E-1  -5.399051981781835E1   9.952502078952414E-1  -5.436033960165364E1   2.111267154037619E-2  -4.575793005201241E1  
 4.500000000000000E8     1.899677149384521E-2  -5.244516511809402E1   9.951830284229100E-1  -6.078328642666917E1   9.952847253723129E-1  -6.103909015124401E1   2.412246506772212E-2  -5.159957597802178E1  
 5.000000000000000E8     2.005014377522546E-2  -6.319866233212148E1   9.941330980163052E-1  -6.754914689815017E1   9.949126587583359E-1  -6.785199104875770E1   2.489263660515538E-2  -6.507829522106950E1  
 5.500000000000000E8     1.703008233674793E-2  -7.324400694997456E1   9.940406143019887E-1  -7.430047458378243E1   9.940974698655211E-1  -7.465858986265148E1   2.626775296267044E-2  -7.310208671524417E1  
 6.000000000000000E8     1.578043382369504E-2  -9.165237399306542E1   9.944801679805543E-1  -8.113374331856302E1   9.936069385848704E-1  -8.146419191203287E1   2.847440325873168E-2  -8.474224594708366E1  
 6.500000000000000E8     1.346802657165572E-2  -9.773504499455885E1   9.935908303302520E-1  -8.780654389246367E1   9.937877954870759E-1  -8.822618599228841E1   3.147287271178274E-2  -9.864705958458193E1  
 7.000000000000000E8     1.218321423809947E-2  -1.304218149876280E2   9.932636615666354E-1  -9.460306792780700E1   9.928410226526022E-1  -9.499324531070963E1   3.218089900933140E-2  -1.135882381948064E2  
 7.500000000000000E8     8.022547721932111E-3  -1.637586025444905E2   9.923152539519546E-1  -1.013775380459530E2   9.930360746783763E-1  -1.017805666516422E2   3.274738335059338E-2  -1.279781472516232E2  
 8.000000000000000E8     1.209556120700206E-2   1.522040277756641E2   9.921667343573446E-1  -1.081014689722319E2   9.922961618316553E-1  -1.085113198274000E2   3.230075247085105E-2  -1.451200955943004E2  
 8.500000000000000E8     1.385525080530943E-2   1.286258803392418E2   9.919687082526082E-1  -1.149282260024323E2   9.914941031185052E-1  -1.153940058540921E2   3.545241943736154E-2  -1.587179036481847E2  
 9.000000000000000E8     1.931396754256249E-2   1.108552753679731E2   9.907702690512090E-1  -1.216651468246188E2   9.901013426439310E-1  -1.221125076434513E2   3.919362621787603E-2  -1.712688197389758E2  
 9.500000000000000E8     2.252204355926778E-2   1.018815091574131E2   9.907690466879705E-1  -1.284085397503967E2   9.900322150404289E-1  -1.288848227189624E2   4.078788460386017E-2   1.782403059054032E2  
 1.000000000000000E9     2.697408158708392E-2   9.553827232370713E1   9.899731551635829E-1  -1.351941170259075E2   9.895304447420510E-1  -1.356999250794689E2   4.321674926895149E-2   1.670266526480036E2  
 1.050000000000000E9     2.876644975107556E-2   8.825499399672442E1   9.895431164614139E-1  -1.419305042234254E2   9.891324444976233E-1  -1.424629216985389E2   4.296942200710294E-2   1.587876935230228E2  
 1.100000000000000E9     3.175264109044017E-2   8.277916259880504E1   9.887049148098424E-1  -1.486972852148937E2   9.884478486001040E-1  -1.492072125951060E2   4.465413555834867E-2   1.477566408366942E2  
 1.150000000000000E9     3.428199015212011E-2   7.619277635057692E1   9.888280707992873E-1  -1.554368627975096E2   9.878191318372004E-1  -1.559636265002559E2   4.378136854382165E-2   1.389830160230110E2  
 1.200000000000000E9     3.622817347795318E-2   7.198754474881314E1   9.883302835429607E-1  -1.622387496445401E2   9.874536528349686E-1  -1.627933905597240E2   4.518666235652656E-2   1.289147538770284E2  
 1.250000000000000E9     3.572433606697179E-2   6.658983603947134E1   9.877151529311795E-1  -1.689993930763482E2   9.870605173675542E-1  -1.695260301368155E2   4.080999960395248E-2   1.228708359538391E2  
 1.300000000000000E9     3.630695430843658E-2   6.136196522169779E1   9.878913717042926E-1  -1.757364327534603E2   9.873523579368588E-1  -1.763322488848975E2   4.053425798423848E-2   1.162299752539955E2  
 1.350000000000000E9     3.661421558317687E-2   5.600627874389007E1   9.871894044774690E-1   1.775226067409038E2   9.874740717264129E-1   1.769350697903536E2   3.620306249545221E-2   1.099827253423527E2  
 1.400000000000000E9     3.494036162289315E-2   5.162770608332144E1   9.873105491338884E-1   1.707934623376284E2   9.873748517754613E-1   1.701241261903922E2   3.466467625114942E-2   1.040768649768349E2  
 1.450000000000000E9     3.343856783335030E-2   4.436304556139308E1   9.875587262425215E-1   1.640510154058110E2   9.872461023647188E-1   1.633384448425341E2   3.002291525783562E-2   1.010529299081778E2  
 1.500000000000000E9     3.199917392843715E-2   4.096889978054603E1   9.872154037363286E-1   1.572825382570180E2   9.880275809051439E-1   1.566302461186336E2   2.781986220421861E-2   9.859167789880803E1  
 1.550000000000000E9     2.973961074576226E-2   3.208975283560735E1   9.877895545440160E-1   1.505905373536411E2   9.878029032521637E-1   1.498638109665977E2   2.294056674939850E-2   1.002228079003287E2  
 1.600000000000000E9     2.832393478457853E-2   2.456508424807232E1   9.877386669685098E-1   1.438205365439073E2   9.880023243831990E-1   1.431082582433380E2   2.153623060928887E-2   1.006946036841617E2  
 1.650000000000000E9     2.538343925217258E-2   1.284476197491264E1   9.886503719479145E-1   1.370568734413725E2   9.884934804592255E-1   1.363946985404096E2   1.972684964611515E-2   1.080966766529826E2  
 1.700000000000000E9     2.380364861836608E-2   1.934252872422731   9.889512493169820E-1   1.303319733932960E2   9.883845183299627E-1   1.296522096669771E2   1.985172791125870E-2   1.134561970230316E2  
 1.750000000000000E9     2.237570883519140E-2  -1.755675847659343E1   9.887815299613588E-1   1.236273676049611E2   9.885153134069370E-1   1.229096344855788E2   2.023292300212464E-2   1.212288317006293E2  
 1.800000000000000E9     2.330071337348325E-2  -3.183287973381329E1   9.887144195990248E-1   1.169132525067859E2   9.888632458370669E-1   1.161827809693625E2   2.038628337918617E-2   1.208863983478830E2  
 1.850000000000000E9     2.545631461056452E-2  -5.022730208638416E1   9.891464047251725E-1   1.101726059070340E2   9.887684620084962E-1   1.094552855512466E2   2.163884424111529E-2   1.180773794306223E2  
 1.900000000000000E9     2.825717861044795E-2  -6.522151571610507E1   9.885730289989390E-1   1.034735963521488E2   9.891109428941785E-1   1.026955742382403E2   2.239913109195954E-2   1.170722641747008E2  
 1.950000000000000E9     3.219921933015363E-2  -7.860554314549880E1   9.880326935224666E-1   9.680330071569770E1   9.892659456998822E-1   9.598924528341878E1   2.391421290554066E-2   1.126893679205248E2  
 2.000000000000000E9     3.653116750685680E-2  -9.050547072798976E1   9.878077578284940E-1   9.010365323942361E1   9.889579102468163E-1   8.925822289936180E1   2.602179600267373E-2   1.048528680346301E2  
 2.050000000000000E9     4.227416332894089E-2  -9.885082277543442E1   9.884960126596717E-1   8.335029924567982E1   9.894043807816974E-1   8.254680867654388E1   2.694771434707950E-2   9.786341336391959E1  
 2.100000000000000E9     4.523889458440055E-2  -1.081423083430977E2   9.885046614487379E-1   7.665985580160606E1   9.884392766169549E-1   7.581498574983574E1   2.758174939313573E-2   9.290270598677967E1  
 2.150000000000000E9     5.056076597724796E-2  -1.150822946631366E2   9.889640707415593E-1   6.991046518630466E1   9.882383825864768E-1   6.907983789606620E1   2.882910543827330E-2   8.691224775053371E1  
 2.200000000000000E9     5.368114205042908E-2  -1.228265103292463E2   9.880202979786137E-1   6.324185858026670E1   9.891316366574662E-1   6.238993566073708E1   2.918727921063898E-2   8.010041876795889E1  
 2.250000000000000E9     5.665940384550034E-2  -1.285960141727197E2   9.878649284040341E-1   5.651522033059931E1   9.883492323460696E-1   5.561483075414222E1   2.996127612781730E-2   7.229675990952664E1  
 2.300000000000000E9     5.631799159797697E-2  -1.358484510737909E2   9.873980572714637E-1   4.986490817007105E1   9.873723458702142E-1   4.890482389763363E1   3.252920966372210E-2   6.868859596368040E1  
 2.350000000000000E9     5.764479842387429E-2  -1.417158635284706E2   9.872319812135256E-1   4.312112709685572E1   9.872215918348279E-1   4.218903730179925E1   3.410731261188102E-2   6.387591995217424E1  
 2.400000000000000E9     5.599116869571728E-2  -1.492500807408906E2   9.868579480896446E-1   3.638892694046094E1   9.866450047451582E-1   3.552076415467536E1   3.713684978051080E-2   6.193186559919345E1  
 2.450000000000000E9     5.653623941467231E-2  -1.546191362754170E2   9.868111830181799E-1   2.966941990428392E1   9.864824644236839E-1   2.877068053669635E1   3.722661538496485E-2   5.761568782905684E1  
 2.500000000000000E9     5.298523249011084E-2  -1.631742718730859E2   9.873396614985268E-1   2.290900210867739E1   9.867907524882215E-1   2.202684549020297E1   4.106286598926140E-2   5.602857908588312E1  
 2.550000000000000E9     5.075326980340566E-2  -1.698871109910389E2   9.868837169391066E-1   1.616102499375434E1   9.869970357817913E-1   1.532165427909773E1   4.074288511958637E-2   5.139135671016889E1  
 2.600000000000000E9     4.766175749765165E-2   1.788060779546357E2   9.871112371734099E-1   9.442741487941174   9.870712139816660E-1   8.535698797342874   4.440933158127237E-2   4.909929664947093E1  
 2.650000000000000E9     4.579398056960116E-2   1.705853346632529E2   9.868686908756333E-1   2.694407498712611   9.858457364843652E-1   1.839543668122653   4.391874261205531E-2   4.493445711158201E1  
 2.700000000000000E9     4.284001848638318E-2   1.585865955593541E2   9.862013674193890E-1  -4.104660959148057   9.859256989576881E-1  -4.921350270728333   4.685649622662619E-2   4.076258513220429E1  
 2.750000000000000E9     4.148323161801798E-2   1.467247631732016E2   9.861846215363642E-1  -1.082747057956331E1   9.853386812343332E-1  -1.165767787737082E1   4.753979771156875E-2   3.593176300429778E1  
 2.800000000000000E9     4.048393533943463E-2   1.322970111791216E2   9.862946092062386E-1  -1.763518669185528E1   9.846800236558827E-1  -1.845746071223788E1   4.969232691766352E-2   3.050773060342590E1  
 2.850000000000000E9     4.105548577591620E-2   1.190683261868256E2   9.861906190118331E-1  -2.439747327439411E1   9.853466691719087E-1  -2.523260838329166E1   5.048256745527933E-2   2.394991536416178E1  
 2.900000000000000E9     4.440908056742551E-2   1.053319843159733E2   9.858941372633115E-1  -3.117591853978645E1   9.857574614739499E-1  -3.201462747842914E1   5.165350273716280E-2   1.802017094600216E1  
 2.950000000000000E9     4.354114190825479E-2   9.408806557831376E1   9.853658833407338E-1  -3.791636123123863E1   9.855507519923534E-1  -3.884910687214448E1   5.252577669140900E-2   9.698670189345320  
 3.000000000000000E9     4.575109717474819E-2   8.239344947383756E1   9.853489192094034E-1  -4.470850252012223E1   9.836926273410412E-1  -4.568200571776232E1   5.255837293817633E-2   4.943797566804348  
 3.050000000000000E9     4.533943834067532E-2   7.349041174042456E1   9.845021375275841E-1  -5.149087694175041E1   9.847810997366369E-1  -5.246809448336091E1   5.143093596719109E-2  -4.509606483727749  
 3.100000000000000E9     4.950757273844975E-2   6.255671618011602E1   9.837729011206785E-1  -5.824526136114261E1   9.832484089398268E-1  -5.936456115299055E1   5.186231254690836E-2  -1.083182793268341E1  
 3.150000000000000E9     4.855638778259343E-2   5.581565969572613E1   9.829428737534531E-1  -6.496426720751092E1   9.823823686513730E-1  -6.612005510054377E1   5.043242939276631E-2  -1.866910889528926E1  
 3.200000000000000E9     5.083856499419246E-2   4.824545718890785E1   9.822045028208323E-1  -7.171904601326685E1   9.829138220801874E-1  -7.287526615562689E1   4.904926328705091E-2  -2.592027306709088E1  
 3.250000000000000E9     5.010354964280280E-2   4.238425517550662E1   9.827646480318817E-1  -7.848541658134447E1   9.825327687255927E-1  -7.969806007896713E1   4.483187514650659E-2  -3.419860321576810E1  
 3.300000000000000E9     4.889427516917393E-2   3.669802694870494E1   9.821173954564059E-1  -8.519801253912432E1   9.835968573792520E-1  -8.631318207458986E1   4.318205054169109E-2  -4.398599840773854E1  
 3.350000000000000E9     4.632988638811329E-2   3.063399146586367E1   9.820743678691384E-1  -9.190380295877213E1   9.840785080563386E-1  -9.299476866741503E1   3.886779719056330E-2  -5.355356745121399E1  
 3.400000000000000E9     4.388734294099781E-2   2.689790791283233E1   9.826589632213643E-1  -9.853466031724686E1   9.837575154322973E-1  -9.982710683306991E1   3.618565106122589E-2  -6.311908287118872E1  
 3.450000000000000E9     3.935149404535460E-2   2.141433527334555E1   9.832121413786400E-1  -1.052432845896659E2   9.846496823036274E-1  -1.066437661209921E2   3.201003647033803E-2  -7.498995530858637E1  
 3.500000000000000E9     3.767905300356725E-2   1.740800053182576E1   9.850609392054495E-1  -1.118910027838635E2   9.858411020327983E-1  -1.134747080643598E2   2.754956727237521E-2  -8.876904744834702E1  
 3.550000000000000E9     3.047883007741090E-2   1.429674762415444E1   9.881861100354553E-1  -1.186577109274498E2   9.863940802702718E-1  -1.202967733108225E2   2.425626378039130E-2  -1.039627427902874E2  
 3.600000000000000E9     2.770232240502420E-2   1.383881470729430E1   9.882073047141029E-1  -1.254816740254103E2   9.859962688984900E-1  -1.270274963970746E2   2.056490109773298E-2  -1.199088739156460E2  
 3.650000000000000E9     2.300248172056598E-2   1.258754513181318E1   9.894055240767644E-1  -1.323978060730443E2   9.861427054393114E-1  -1.337829482168192E2   2.081150932581801E-2  -1.476020263572676E2  
 3.700000000000000E9     1.930622960677689E-2   1.337063783479832E1   9.885079543531515E-1  -1.392094836846352E2   9.859479543159623E-1  -1.405313462087329E2   2.056688868713832E-2  -1.625983207337451E2  
 3.750000000000000E9     1.214036246424008E-2   1.991525696463229E1   9.882780525355706E-1  -1.460322863528924E2   9.858168925090338E-1  -1.473446823973092E2   2.178468904750865E-2   1.793603295897948E2  
 3.800000000000000E9     1.060678084415465E-2   4.820230535879241E1   9.867047679631300E-1  -1.527339554126240E2   9.857484204987794E-1  -1.540785437801999E2   2.090783774189463E-2   1.596088587936834E2  
 3.850000000000000E9     1.241151433062372E-2   8.528772282039866E1   9.864465785894998E-1  -1.595375390422629E2   9.861937908726522E-1  -1.608160361497972E2   2.381573791208633E-2   1.430227744569695E2  
 3.900000000000000E9     1.684270720004237E-2   9.847282373825452E1   9.858737076280336E-1  -1.662495222420669E2   9.849487601518077E-1  -1.676683808346564E2   2.633715022685781E-2   1.308009552203812E2  
 3.950000000000000E9     2.369848169244255E-2   1.073081147795644E2   9.857823151100348E-1  -1.729869643197434E2   9.849446313594110E-1  -1.743927070524902E2   2.880899345965319E-2   1.174692239834141E2  
 4.000000000000000E9     2.958991244340647E-2   1.051892059331033E2   9.855650083453040E-1  -1.797112160042161E2   9.852946634926082E-1   1.788849331443379E2   3.215706389527411E-2   1.048912000611860E2  
 4.050000000000000E9     3.496096730623649E-2   1.048275451802758E2   9.856874233722208E-1   1.736173571652423E2   9.847370411026032E-1   1.721364811875601E2   3.464535940719245E-2   9.667601537750095E1  
 4.100000000000000E9     3.946225745086170E-2   1.011228168200577E2   9.844009313168256E-1   1.668227435281498E2   9.841073954560341E-1   1.653833382400500E2   3.696882550617797E-2   8.599084043071424E1  
 4.150000000000000E9     4.565913999186853E-2   9.732321606907705E1   9.836474790946654E-1   1.600865691990733E2   9.830463617037163E-1   1.585975931454228E2   4.021349749073193E-2   7.722521428004049E1  
 4.200000000000000E9     4.867147404821930E-2   9.166773987029529E1   9.840563377670396E-1   1.532953769310823E2   9.825935116167750E-1   1.518767625588592E2   4.391828246045399E-2   6.811043155338427E1  
 4.250000000000000E9     5.214627674003215E-2   8.622399413026372E1   9.832893271161722E-1   1.465851813066383E2   9.820646350867156E-1   1.451240334691423E2   4.798474799036902E-2   6.048512254147381E1  
 4.300000000000000E9     5.467223721062863E-2   7.891743920665201E1   9.829358939157415E-1   1.398194349779501E2   9.817996571359421E-1   1.384043113063541E2   5.273687883880058E-2   5.537476733398856E1  
 4.350000000000000E9     5.771092455015126E-2   7.326645538023428E1   9.828599880800814E-1   1.330862757591551E2   9.820128351405538E-1   1.316492377967731E2   5.587439457688832E-2   4.814140028874461E1  
 4.400000000000000E9     6.136472215671765E-2   6.418509605701364E1   9.829263487101259E-1   1.263787565882861E2   9.819211642928103E-1   1.248868300859757E2   5.985781799763455E-2   4.164667967207993E1  
 4.450000000000000E9     6.187233014076561E-2   5.859984569204728E1   9.831023912314150E-1   1.196668619454389E2   9.819031208881026E-1   1.181442642103372E2   6.177984100186932E-2   3.489044306632401E1  
 4.500000000000000E9     6.487829259140325E-2   4.971337155586573E1   9.829036975902940E-1   1.129383236212668E2   9.813344194229994E-1   1.114434910718136E2   6.577536465534324E-2   2.769501124037786E1  
 4.550000000000000E9     6.651334890854845E-2   4.344044697771785E1   9.818225690298638E-1   1.061700885951050E2   9.816356341132974E-1   1.046831409497097E2   6.716646888942726E-2   2.203941858065350E1  
 4.600000000000000E9     6.853847495476612E-2   3.456751400708441E1   9.825534187533446E-1   9.950605857596297E1   9.819856966882655E-1   9.792464932545133E1   6.867608304828862E-2   1.339450547214124E1  
 4.650000000000000E9     7.025770879223112E-2   2.692819038267497E1   9.826697000627683E-1   9.276450555769971E1   9.823338002965422E-1   9.121465725601603E1   6.960769610418581E-2   8.938283043546015  
 4.700000000000000E9     7.206932618589285E-2   1.808137914501335E1   9.837423772480084E-1   8.607235082371872E1   9.826173280642194E-1   8.448635342352458E1   6.897914080880628E-2   2.523692312095475  
 4.750000000000000E9     7.431254207063556E-2   1.103396709279914E1   9.840252844597098E-1   7.934691004388665E1   9.828293037583242E-1   7.775846865827231E1   6.747932472333050E-2  -3.351212861015479  
 4.800000000000000E9     7.692351408184212E-2   2.515177028017253   9.846432188685935E-1   7.265450439571779E1   9.828758570625876E-1   7.104780416515929E1   6.556525718186392E-2  -1.055874222901247E1  
