#  HZ   S   MA   R     50.00 
! Rohde & Schwarz ZVA67 4Ports - Version 4.11 - 1305.7002k04 SN: 101051
! Date: 2023-05-31 14:28:20
! Measurements: S11 S21 S12 S22 
! 
 5.000000000000000E7     1.006647625308636  -6.745310516850275   1.505491053601546E-4  -2.247361165530273E1   1.491530446000479E-4  -1.239166821693112E2   9.976354595965866E-1  -7.088165805252456  
 1.000000000000000E8     1.002350196400717  -1.307288143520073E1   1.506910242877460E-4   1.399391731951555E2   7.481827308274160E-5   4.710040967307470E1   1.004189183115234  -1.378166232850485E1  
 1.500000000000000E8     1.004834154160431  -1.985457681971735E1   3.493041256584911E-5  -1.489427084717075E2   2.779416514787975E-5   1.521231335069091E2   1.008824379388808  -2.031701324262747E1  
 2.000000000000000E8     1.003809232695289  -2.627342308002454E1   3.620417436022624E-5   4.776262125970447E1   3.836584901384014E-5   1.568725849984259E2   1.010806257701140  -2.737738271808486E1  
 2.500000000000000E8     1.005757459380421  -3.282591172538942E1   7.861936681745654E-5  -7.337943309224978E1   9.499310834727908E-6   3.348438390324717E1   1.011670675718019  -3.420419185067145E1  
 3.000000000000000E8     1.008704108327672  -3.942256737591069E1   2.647812244147255E-5  -2.941910434051064E1   5.352498829008464E-5   1.630708335215672E2   1.012413896016852  -4.101574878764844E1  
 3.500000000000000E8     1.009251544635451  -4.577504081855872E1   2.861810918419496E-5  -1.048897994425751E1   1.106822770987099E-5  -5.888554240840892E1   1.013016788753572  -4.793034206913978E1  
 4.000000000000000E8     1.014277473398504  -5.214183912387281E1   5.399248480610979E-5   1.252330461978215E2   7.137544268449967E-5  -5.851001592555156E1   1.016491348971631  -5.487882912605105E1  
 4.500000000000000E8     1.015741875005134  -5.862464054290172E1   2.055821481854352E-5   5.092032485056018E1   1.497663805325455E-5   6.167007980176944E1   1.017060818474725  -6.165435447674218E1  
 5.000000000000000E8     1.018266319614594  -6.523785095089096E1   4.124328337286489E-6  -2.469219334945837   1.711381424540639E-5   1.453428341553893E2   1.016949116163793  -6.868977077474783E1  
 5.500000000000000E8     1.018288618752845  -7.164313909305558E1   1.002861954095608E-5   8.886726772699318E1   4.128237747176412E-6  -1.374405000535060E2   1.014783905497166  -7.569547865834772E1  
 6.000000000000000E8     1.018754693953280  -7.844233080671275E1   3.849886645907396E-5  -6.890489698249344E1   2.254167507012142E-5  -5.370876899940666E1   1.014012715702630  -8.277502003768716E1  
 6.500000000000000E8     1.019927677313299  -8.498135020132378E1   1.573044583652205E-5  -1.537513242817985E1   3.130636182082197E-5   9.109036310112997E1   1.012837718276876  -8.965103444322648E1  
 7.000000000000000E8     1.016692458296424  -9.182403402491562E1   1.458661369216053E-5   8.600747215605657E1   2.585322217652172E-5  -1.331414698549145E2   1.010867812898824  -9.678765829763306E1  
 7.500000000000000E8     1.015530250636782  -9.860459035618935E1   2.910872421134858E-5  -8.750852196897245E1   4.123535229439237E-5  -9.984679529040734E1   1.005613494162341  -1.036621046440749E2  
 8.000000000000000E8     1.010192797558391  -1.054718482745560E2   1.959923586015828E-5  -1.664522963572151E1   2.187929907640179E-5   1.434760634917737E2   1.000346198653121  -1.107558665139416E2  
 8.500000000000000E8     1.008538441865594  -1.122646331795550E2   1.905886323923306E-5  -1.235228684775844E2   2.703476151988023E-5  -5.889628811191679E1   9.978877146985792E-1  -1.177448789046389E2  
 9.000000000000000E8     1.002833949428069  -1.191598097214506E2   4.386600402983908E-5   7.220305642885253E1   2.627398568044806E-5  -9.840914565619079E1   9.958926685920483E-1  -1.247128197369554E2  
 9.500000000000000E8     9.999785483288433E-1  -1.260117506812292E2   4.016424900323485E-5  -8.105504763690220E1   1.830292295745721E-5  -5.556308217048625E1   9.936283725664742E-1  -1.315363471825439E2  
 1.000000000000000E9     9.947749972744564E-1  -1.330268224698735E2   3.806708502009070E-5  -7.727591292236748E1   3.759660992531787E-5  -6.388363814544096E1   9.936677141595723E-1  -1.384080066036563E2  
 1.050000000000000E9     9.930441560644623E-1  -1.397409791121323E2   2.252831469972812E-5  -1.459181260896006E2   2.377293129006737E-5  -3.075776225253600E1   9.929080337177123E-1  -1.451861442406036E2  
 1.100000000000000E9     9.890125460038227E-1  -1.466593053311264E2   3.487874999209729E-5  -1.189151898622549E2   2.050732135089003E-5  -5.027558649416212E1   9.920857833729760E-1  -1.520111031848079E2  
 1.150000000000000E9     9.863750496225079E-1  -1.533491410428060E2   3.095927976414020E-5  -1.420684626302404E2   3.108257684009531E-5  -9.645178834191698E1   9.906230510847702E-1  -1.587867675808770E2  
 1.200000000000000E9     9.830410538972979E-1  -1.602742743411072E2   3.054355061597917E-5  -1.195532909979014E2   1.644908347432254E-5  -6.746227323926010E1   9.907712303781472E-1  -1.656277020719983E2  
 1.250000000000000E9     9.822540564859073E-1  -1.667621671257193E2   3.024256174644644E-5  -6.756350502697033E1   1.750717000513022E-5  -1.560427557246016E2   9.909549368232572E-1  -1.723276345171567E2  
 1.300000000000000E9     9.815233794386862E-1  -1.734341271015889E2   5.076019731315440E-5  -5.020310513985672E1   3.347340418766569E-5  -1.089609674372399E2   9.924346598746164E-1  -1.790650668638326E2  
 1.350000000000000E9     9.798392160770779E-1   1.799643989831521E2   2.224199656280783E-5  -9.280716270783333E1   3.275147219419554E-5  -1.144485890808150E2   9.925546326334573E-1   1.743206388154729E2  
 1.400000000000000E9     9.810433105046509E-1   1.734681409282456E2   3.817624576720544E-5  -7.803311594901747E1   2.125820584539304E-5   1.777431248633625E2   9.931937765744703E-1   1.675581150922864E2  
 1.450000000000000E9     9.800165135215053E-1   1.670684828214691E2   2.605308211982601E-5  -1.294633291122104E2   3.648740084590534E-5  -1.382968385179779E2   9.944306195325043E-1   1.609692190183737E2  
 1.500000000000000E9     9.819859404364496E-1   1.606433079232574E2   3.576335163487375E-5  -1.740437377624476E2   3.578726197747768E-5  -1.272520141605490E2   9.956804388147933E-1   1.542582425740709E2  
 1.550000000000000E9     9.824745278589351E-1   1.543412036239617E2   2.801685112266369E-5  -1.590101627339675E2   2.772830765874068E-5  -1.201380343159648E2   9.957428155469231E-1   1.476662444487469E2  
 1.600000000000000E9     9.845593884989149E-1   1.480074442880550E2   5.539299397329267E-5  -1.226744091445231E2   2.488919992453386E-5   1.776749604994431E2   9.953584509376782E-1   1.408970204767219E2  
 1.650000000000000E9     9.849600092009258E-1   1.417299635498094E2   3.526609206369586E-5  -1.484909736486472E2   5.668242442204955E-5  -1.593139344967982E2   9.958863232817690E-1   1.343074739673539E2  
 1.700000000000000E9     9.884039178236725E-1   1.354521397528117E2   1.086341816188560E-5  -1.420233595071297E2   3.899805057062974E-5  -1.772980371452680E2   9.953669774267323E-1   1.276270699687971E2  
 1.750000000000000E9     9.879030331000357E-1   1.292710142394493E2   4.485215455775331E-5   1.700760194343732E2   5.588635245498307E-5   1.455630248647559E2   9.940647390173523E-1   1.210646661744257E2  
 1.800000000000000E9     9.887395601785638E-1   1.229820078378405E2   3.443964930367674E-5  -1.172964845789417E2   2.673558535747576E-5   9.732736518733724E1   9.920398739756041E-1   1.143198842252413E2  
 1.850000000000000E9     9.875083093040941E-1   1.166186825058915E2   3.390038904732270E-5   1.568116114161321E2   6.321220643495162E-5   1.591054663490232E2   9.901311235724406E-1   1.076379318031256E2  
 1.900000000000000E9     9.868519395303653E-1   1.102692688294073E2   6.615208198718421E-5   1.291082160163297E2   5.905780043669071E-5   1.765323235943899E2   9.879251018120827E-1   1.009661633661376E2  
 1.950000000000000E9     9.867170098232373E-1   1.039773925399698E2   3.420608816866449E-5   1.549961780771291E2   3.076165551967202E-5  -1.267046132749272E2   9.852824012015953E-1   9.432015861972562E1  
 2.000000000000000E9     9.856977517848632E-1   9.755834318058888E1   8.372931937031176E-5   1.499496159982246E2   5.302303188275261E-5   1.171405998716806E2   9.847070067945613E-1   8.758598310502896E1  
 2.050000000000000E9     9.837456455050220E-1   9.099909779769827E1   4.474423385034360E-5   1.261830409389119E2   4.539661432580285E-5   1.351191708059423E2   9.830118864597476E-1   8.096842245376270E1  
 2.100000000000000E9     9.820072952365888E-1   8.444471640250904E1   3.740367851672424E-5   1.135536863914665E2   3.777944592704260E-5   1.344567595584055E2   9.828890579028696E-1   7.437721790679285E1  
 2.150000000000000E9     9.797717603202369E-1   7.790865310077749E1   5.237593796660218E-5   8.583060852407249E1   3.005045883199428E-5   7.914132774911425E1   9.796586915836624E-1   6.768853316734831E1  
 2.200000000000000E9     9.784607882622635E-1   7.132309328954871E1   4.833335752300135E-5   5.352336581832998E1   5.214189105201183E-5   1.025615718395549E2   9.794971645237849E-1   6.112260533712933E1  
 2.250000000000000E9     9.747342466086908E-1   6.461488294427981E1   4.502244101280644E-5   8.778157116589071E1   3.440608230977999E-5   9.228058110858920E1   9.786133032716174E-1   5.449865547271530E1  
 2.300000000000000E9     9.752398433145045E-1   5.800415414846796E1   4.566301907286378E-5   9.558560193864307E1   8.180764106791681E-5   7.620847916316075E1   9.803119726568040E-1   4.790165919082206E1  
 2.350000000000000E9     9.732392930803669E-1   5.127896712982479E1   3.571940411124906E-5   7.013566462998455E1   6.854572810544493E-5   7.391028212438188E1   9.798711040309972E-1   4.135683862649691E1  
 2.400000000000000E9     9.752091143927675E-1   4.474855594538903E1   4.164750788431754E-5   8.146712973507978E1   1.018985137332281E-4   6.608813018852459E1   9.814504155891216E-1   3.481426130942733E1  
 2.450000000000000E9     9.732696233407557E-1   3.799600053391989E1   4.561857062903373E-5   3.510888169729602E1   6.744458724931131E-5   6.188105119309450E1   9.800164917285786E-1   2.832335203874681E1  
 2.500000000000000E9     9.779878338292419E-1   3.138291393339392E1   9.907780430891367E-5   6.758751772271076E1   9.102214058163216E-5   3.230203279485571E1   9.810161212933720E-1   2.185869627936809E1  
 2.550000000000000E9     9.774622567434059E-1   2.472340315134874E1   9.545114027641495E-5   3.030575940416633E1   6.162820781473760E-5   3.120010232772512E1   9.791244599333436E-1   1.526722293571034E1  
 2.600000000000000E9     9.822661191319023E-1   1.819731406456296E1   6.421213416201579E-5   2.435745396978758   7.235327614555796E-5  -2.124791777335852E1   9.800464027779888E-1   8.852097035418872  
 2.650000000000000E9     9.838988995762005E-1   1.161820206499395E1   8.438773818026856E-5  -5.128876905944480E1   6.213251153689583E-5  -1.348340054847549E1   9.779092317042141E-1   2.233977779665887  
 2.700000000000000E9     9.874183686558857E-1   5.075625945463642   5.396807163154985E-5  -8.790395187478228E1   5.981245190828750E-6   8.118425691086323E1   9.784776813483974E-1  -4.257391815900445  
 2.750000000000000E9     9.906205143795867E-1  -1.377833436033148   4.354411961141816E-5   5.329941196345784E1   3.070006155702481E-5  -8.687337669345531E1   9.765616411841673E-1  -1.087871921142313E1  
 2.800000000000000E9     9.943583303629723E-1  -7.923180062720648   5.360941552294627E-5   1.204445989744024E2   4.130480346993465E-5   7.661735969572152E1   9.767172151335226E-1  -1.746883511895774E1  
 2.850000000000000E9     9.983327388133232E-1  -1.445672331037607E1   4.308025537947366E-5  -1.496441517459083E2   1.140141161055004E-5   9.214789765998056E1   9.758131230889963E-1  -2.404783257131835E1  
 2.900000000000000E9     1.000201018846413  -2.090356873633818E1   2.930556631759965E-5  -4.319437667477310E1   8.650501432856056E-6  -9.740764853465234E1   9.769962144123555E-1  -3.059084236640840E1  
 2.950000000000000E9     1.003290451768079  -2.751175148397185E1   3.631228671775035E-5  -1.164534229677932E2   3.709621635278192E-5   9.090582518823500E1   9.761398055002533E-1  -3.724702814898418E1  
 3.000000000000000E9     1.003351410664046  -3.403800549568572E1   2.046692204697676E-5  -1.537975161651893E1   5.150908907889338E-5  -7.555534400908100   9.758188256179484E-1  -4.391096265090636E1  
 3.050000000000000E9     1.005501518763782  -4.076376433951405E1   4.143765547168229E-5  -1.114604552252815E1   7.898755114124372E-5   1.538865314646104E1   9.759850824642846E-1  -5.065407255308558E1  
 3.100000000000000E9     1.005958360710710  -4.739119074453943E1   6.116807169050783E-5  -4.934364050988789E-1   6.097277436875611E-5  -7.436557791570708E1   9.755837699059686E-1  -5.721978044422751E1  
 3.150000000000000E9     1.005173105434082  -5.418859229293926E1   6.106759665271883E-5  -9.516171362843740E1   1.028531508154259E-4  -7.602461746877717E1   9.749518552009046E-1  -6.394282747702543E1  
 3.200000000000000E9     1.005180986375232  -6.078682782590423E1   5.866222379097336E-5  -7.676581921966091E1   7.220328414453283E-5  -8.577932455475839E1   9.748481917705961E-1  -7.061153401680838E1  
 3.250000000000000E9     1.002052887817771  -6.761946472103935E1   8.790151867132141E-5  -9.129185828573073E1   2.626561359762395E-5   8.343733171406377E1   9.760775616251873E-1  -7.744485535164347E1  
 3.300000000000000E9     1.001869272170481  -7.432680929891284E1   5.908583206769755E-5  -1.530301784737973E2   4.227826276583733E-5  -6.706636450232959E1   9.777155509850838E-1  -8.414394798122005E1  
 3.350000000000000E9     9.999778389968285E-1  -8.117054647338269E1   4.400576836993580E-5  -4.076588741036119E1   4.921426376326352E-5  -1.941957375553095E1   9.781475788800503E-1  -9.095660715730480E1  
 3.400000000000000E9     9.970530762218343E-1  -8.795980007320269E1   7.772837437301342E-5  -1.023159377131295E2   6.149967211411464E-5  -1.101229027219264E2   9.802233917769451E-1  -9.779653172542601E1  
 3.450000000000000E9     9.943800830938647E-1  -9.484847631679516E1   5.957630309926089E-5  -1.140548798015782E2   9.210158577024418E-5  -1.242153432595729E2   9.817517500616945E-1  -1.047904397490934E2  
 3.500000000000000E9     9.934919714416857E-1  -1.016927867417472E2   3.592239419609154E-5  -1.347819450324765E2   6.668605332117752E-5  -1.729569960746221E2   9.841037906527029E-1  -1.117549107287432E2  
 3.550000000000000E9     9.965676294648636E-1  -1.086668667160946E2   2.969101449634933E-5   1.772856949548413E2   6.866739667119299E-5  -1.495082253831631E2   9.853325517899441E-1  -1.188068327092983E2  
 3.600000000000000E9     9.955638325005790E-1  -1.156350267125355E2   2.927276049060691E-5   1.459890562088896E2   2.052393562644095E-5   7.529529844662594E1   9.837551262989106E-1  -1.259003361543773E2  
 3.650000000000000E9     9.946610457956626E-1  -1.227646325291731E2   4.367327737670518E-5   1.624797361029298E2   2.177639942654747E-5   4.551600777176449E1   9.863402894611745E-1  -1.328762067231820E2  
 3.700000000000000E9     9.916453607827706E-1  -1.296634086107835E2   5.708262446825798E-5  -4.244428325039374E1   1.800590916598770E-5  -3.219682240131549E1   9.894552600574179E-1  -1.399612414112005E2  
 3.750000000000000E9     9.910904830465165E-1  -1.367792342352264E2   4.830384998353670E-5  -1.769767881682938E2   9.910338012847792E-6   1.742123258723846E2   9.926968540698363E-1  -1.468200671555631E2  
 3.800000000000000E9     9.898678648418895E-1  -1.436646589360779E2   4.261740729236740E-5  -1.252845428555174E2   1.302531136393541E-5  -1.635572455061163E2   9.907806948415012E-1  -1.538695478354227E2  
 3.850000000000000E9     9.910037032140640E-1  -1.506708415998130E2   4.354859300116596E-5  -1.611623470148238E2   1.958164824243078E-5   1.409813224916475E2   9.931248171406871E-1  -1.609714794286970E2  
 3.900000000000000E9     9.897978567361860E-1  -1.576333800972987E2   6.538681123522410E-5  -1.658816162123552E2   1.485018478451992E-5  -1.474246672828997E1   9.942426171026726E-1  -1.679856435047301E2  
 3.950000000000000E9     9.930211050041665E-1  -1.645021465786330E2   4.793001543304574E-5  -1.240771181530924E2   1.983051502126918E-5  -9.962453567477759E1   9.950692418591348E-1  -1.750960967549428E2  
 4.000000000000000E9     9.935505646127333E-1  -1.712871955677885E2   3.466309342177158E-5  -1.397937712512879E2   1.742879734208591E-5   3.909364032447260E1   9.961139642273875E-1   1.777735460529292E2  
 4.050000000000000E9     9.971701583030730E-1  -1.780549403588577E2   2.862410632999306E-5   1.793524929716735E2   4.845631737355644E-5  -1.694186943114238E2   9.961077731101954E-1   1.708355225066332E2  
 4.100000000000000E9     9.980471807238374E-1   1.752317564301449E2   1.322454958309745E-5  -1.096791735546360   2.186309574772058E-5   1.783213778204410E2   9.961005126052644E-1   1.637424315061022E2  
 4.150000000000000E9     1.001166671532138   1.684758834115866E2   5.104450799635119E-5  -1.683739189381480E2   4.270758942281292E-5   1.499036978705257E2   9.961042273168946E-1   1.566215915701000E2  
 4.200000000000000E9     1.002675023984591   1.618597497329541E2   5.164838836505229E-5   1.682489606915361E2   3.548602019796914E-5   1.343835869782085E2   9.950900600859651E-1   1.495189744153610E2  
 4.250000000000000E9     1.004689006785086   1.551903233074291E2   5.276663839807650E-5   1.416809077476927E2   3.766401492522840E-5   1.487187957406638E2   9.956617048533029E-1   1.423893368075310E2  
 4.300000000000000E9     1.005887584567195   1.485597419466332E2   6.306852212838170E-5   1.331082653045830E2   4.284426215363610E-5   9.998499722826668E1   9.966070297730931E-1   1.352660236368224E2  
 4.350000000000000E9     1.007071340835950   1.419081082878186E2   5.250518676285928E-5   1.156751471464006E2   4.439782854993642E-5   9.843601220161195E1   9.987977348813132E-1   1.282403637758066E2  
 4.400000000000000E9     1.007334425919985   1.352129965135707E2   5.511503015766645E-5   7.441155655150550E1   5.617239875764767E-5   7.327795248145104E1   9.988804924592633E-1   1.211218968166483E2  
 4.450000000000000E9     1.009283343314526   1.286302783599098E2   2.107486387998317E-5   5.673534093695852E1   4.052709767167300E-5   3.008846155311857E1   1.000641577781857   1.141934815228348E2  
 4.500000000000000E9     1.007063074839362   1.219637914786638E2   3.856117563303132E-5   2.997681407353805E1   2.034980350353628E-5   6.410631813802232E1   1.000578878867533   1.070672417640517E2  
 4.550000000000000E9     1.008975729939103   1.153379343144652E2   4.253542434809436E-5   6.900010191934305E1   8.828417244228296E-6   1.135528179725751E2   1.002338150175714   1.000999077102052E2  
 4.600000000000000E9     1.006310860086312   1.087245710329483E2   5.170362087011066E-5  -1.119905889660647E2   2.773730940232486E-5   6.252816954352466E1   1.001431445273276   9.311352375643841E1  
 4.650000000000000E9     1.008354579119736   1.022153058304435E2   3.402295112710622E-5  -5.135023403559851E-1   4.393567926368429E-5   5.424936323357120E1   1.003772962027781   8.605692548741163E1  
 4.700000000000000E9     1.005952046284692   9.558457525852900E1   2.431621923536800E-5   2.602997490335749E1   3.083465369473353E-5   1.083666722147978E2   1.004436466752802   7.928081572951247E1  
 4.750000000000000E9     1.008103806021441   8.903329118422656E1   3.384251140835217E-5   6.585836476018774E1   1.454781842522976E-5   7.785336301153564E1   1.005334746305583   7.244608191913952E1  
 4.800000000000000E9     1.007710444828812   8.243874810933160E1   2.746506873731448E-5  -5.020774086485459E1   2.064744535201666E-5   1.349184115180284E2   1.002491611501631   6.559619738341647E1  
 4.850000000000000E9     1.010216130420027   7.601957736994851E1   3.482888131768108E-5   8.015080069064955E1   4.886090108055164E-5   1.990901005959582E1   1.002016410018622   5.871154495140777E1  
