#  HZ   S   MA   R     50.00 
! Rohde & Schwarz ZVA67 4Ports - Version 4.11 - 1305.7002k04 SN: 101051
! Date: 2023-05-31 14:21:40
! Measurements: S11 S21 S12 S22 
! 
 5.000000000000000E7     9.901622672347133E-1   1.730854885733899E2   2.181654445215362E-4   6.653951858914013E1   1.569318763357756E-4   2.557628630843924E1   1.008184734148991   1.734083611074642E2  
 1.000000000000000E8     9.945533903588752E-1   1.666044044051126E2   1.423279252665119E-4  -1.792237794954966E2   1.277156102021364E-4   1.488054179139687E2   9.964503684467404E-1   1.667008716036721E2  
 1.500000000000000E8     9.868668934646421E-1   1.599826746209571E2   7.852286003042034E-5  -1.451118861210440E1   8.397373321563062E-5  -5.487150800410326E1   9.937241040390771E-1   1.597924940684155E2  
 2.000000000000000E8     9.859660991624524E-1   1.532870548588555E2   1.318297511533334E-4   5.996910922506405E1   4.385379537252339E-5  -1.624722925438110E2   9.942901579187582E-1   1.531788028634768E2  
 2.500000000000000E8     9.813043823691813E-1   1.466275095924816E2   3.954501847685895E-5  -1.545143299957791E2   7.914945166934042E-5   1.355841903678648E2   9.914840627448388E-1   1.462608255998364E2  
 3.000000000000000E8     9.786663919386921E-1   1.398665639069954E2   1.497692833369010E-4   1.934815513794774E1   2.680143127064540E-5  -6.217995651350602E1   9.878214921894398E-1   1.394831713082418E2  
 3.500000000000000E8     9.758467742160156E-1   1.330971011357124E2   3.257804834056584E-5  -1.625582298696344E2   3.158483819438540E-5   9.985208771714770E1   9.854852444236104E-1   1.326292638642563E2  
 4.000000000000000E8     9.701680801178533E-1   1.263890335380084E2   5.742404409647143E-5   1.076477176556632E1   7.602673828856259E-5   3.347609372334614E1   9.825747454842965E-1   1.259202318792144E2  
 4.500000000000000E8     9.696480242024910E-1   1.195584289721264E2   5.580944675874279E-5  -1.431216646577057E1   6.687200978023608E-6  -1.651601402639900E1   9.808545720585660E-1   1.190802459295774E2  
 5.000000000000000E8     9.685604399483975E-1   1.130925150749833E2   1.285217809636311E-4   3.917183264809922E1   5.190458830395312E-5   2.525388714373231   9.796781872466017E-1   1.124111813949003E2  
 5.500000000000000E8     9.675105668659286E-1   1.064101453433866E2   5.623507001506316E-5   6.012575782670449   3.646027596788389E-5   5.467320873449613E1   9.802207572936423E-1   1.057460159996623E2  
 6.000000000000000E8     9.673801555350504E-1   9.987977477034821E1   3.691847756726463E-5   1.241967997192872E-1   8.108253061054355E-5   1.312812733978538   9.801542966852530E-1   9.910486098629950E1  
 6.500000000000000E8     9.655153276341408E-1   9.334866643990178E1   2.092385773812198E-5  -6.714848292167436E1   5.468002999375694E-5  -1.966679473082753E1   9.803279526478961E-1   9.239657401433045E1  
 7.000000000000000E8     9.687500391788295E-1   8.702037200030675E1   5.093199633914982E-5  -1.640989595311226E1   9.044619182536176E-5  -2.014477453311866E1   9.808623854775973E-1   8.584638021371509E1  
 7.500000000000000E8     9.696876358628042E-1   8.056092157964376E1   8.938721466188618E-5  -8.809888250224516   4.939332704678549E-5  -3.266573074745734E1   9.848085400582933E-1   7.911452998541533E1  
 8.000000000000000E8     9.752657355936900E-1   7.423985922738586E1   5.788425568423833E-5   1.123885812634275E1   5.617146863593061E-5  -1.369809976750538E1   9.883555690999171E-1   7.257789054304580E1  
 8.500000000000000E8     9.773093439658603E-1   6.773357331539246E1   8.983751344275821E-5  -2.673115013356775E1   8.785428199293992E-5  -9.197302182060989   9.907818195080602E-1   6.582684659220452E1  
 9.000000000000000E8     9.801441235785191E-1   6.148616986267271E1   8.902939037230016E-5  -3.822631548878386E1   8.350171501252175E-5  -3.034809279368820E1   9.904415715697177E-1   5.918389198518689E1  
 9.500000000000000E8     9.824520632081049E-1   5.502168448398294E1   7.838111601307245E-5  -3.872377036634212E1   1.037696741146423E-4  -5.413077922206941E1   9.912603550912696E-1   5.244944899761895E1  
 1.000000000000000E9     9.865004440719877E-1   4.872938363632943E1   1.099651647444235E-4  -4.821303555541520E1   1.120905766437750E-4  -6.009515402946281E1   9.913815049812449E-1   4.576290005435205E1  
 1.050000000000000E9     9.873843206862868E-1   4.223431746959781E1   8.635157024738210E-5  -4.611486924039541E1   9.079356533289300E-5  -6.551461061561977E1   9.907576229703148E-1   3.898118372003909E1  
 1.100000000000000E9     9.901811025051616E-1   3.586059848323440E1   1.054862838389416E-4  -5.537171987930388E1   7.656852469446155E-5  -5.955607931785748E1   9.905701797823943E-1   3.224764827447869E1  
 1.150000000000000E9     9.916216673188731E-1   2.932168913647130E1   9.258813464630053E-5  -8.359342932089652E1   1.089689883546351E-4  -6.664787376644314E1   9.911158150313012E-1   2.549895333850520E1  
 1.200000000000000E9     9.943893488778407E-1   2.285314500433940E1   1.099031023762610E-4  -7.016177960575966E1   1.086747436844449E-4  -7.503138951118122E1   9.907232007375433E-1   1.872822039072097E1  
 1.250000000000000E9     9.945789269594736E-1   1.613345995140751E1   1.024003023878619E-4  -8.887074934770398E1   1.033987338372196E-4  -7.271308999374135E1   9.898956647490165E-1   1.185351944289788E1  
 1.300000000000000E9     9.953549629072200E-1   9.509444760342394   1.253331637910718E-4  -7.547738056324697E1   1.068656016918820E-4  -8.295844342797714E1   9.882677241030705E-1   5.088497166421203  
 1.350000000000000E9     9.957711904822275E-1   2.741063390849790   1.005028454421889E-4  -1.001067207449073E2   1.414797915940234E-4  -9.230569352148270E1   9.888613663967888E-1  -1.717680700131888  
 1.400000000000000E9     9.941718613164963E-1  -3.994569119520998   1.232814403693939E-4  -1.071103067874416E2   9.876586687078792E-5  -1.137947835302325E2   9.884335733660193E-1  -8.464978600980714  
 1.450000000000000E9     9.936256467043169E-1  -1.080861286160431E1   1.390562115462435E-4  -1.036896210301432E2   1.352768389982182E-4  -1.086771145412483E2   9.878831856296353E-1  -1.538135185735356E1  
 1.500000000000000E9     9.910696097851014E-1  -1.762462125698765E1   1.296599807518351E-4  -1.147198622893654E2   1.259128700687451E-4  -1.170510684825046E2   9.873010308153852E-1  -2.219901091017075E1  
 1.550000000000000E9     9.910731119340543E-1  -2.456544112952651E1   1.239226167744838E-4  -1.108716903964471E2   1.571672290609226E-4  -1.225290745289297E2   9.882331134344238E-1  -2.909395285928609E1  
 1.600000000000000E9     9.886456318236060E-1  -3.139732268968462E1   1.340261419916320E-4  -1.222968029910946E2   1.388046312547294E-4  -1.258885694052025E2   9.898620281998793E-1  -3.593320089096754E1  
 1.650000000000000E9     9.883684100701778E-1  -3.834989100999516E1   1.350050176787214E-4  -1.364255490108430E2   1.508989840087928E-4  -1.359776389456667E2   9.908491083548251E-1  -4.287671276395201E1  
 1.700000000000000E9     9.857510067263755E-1  -4.527053591374769E1   1.621036115120034E-4  -1.403854183851713E2   1.295965487832351E-4  -1.389398756600361E2   9.918547736267447E-1  -4.963485583274616E1  
 1.750000000000000E9     9.849925798801001E-1  -5.218316877354157E1   1.684569279928298E-4  -1.405291881801935E2   1.591124390528417E-4  -1.440863707489112E2   9.936611271571003E-1  -5.662138978726708E1  
 1.800000000000000E9     9.850842684001658E-1  -5.895003992553987E1   1.695470356967146E-4  -1.479701585713797E2   1.805358447394594E-4  -1.518448874260797E2   9.956260904943665E-1  -6.344646138977086E1  
 1.850000000000000E9     9.877082910075341E-1  -6.575028135913695E1   1.678978493301538E-4  -1.650132529089038E2   1.882243367027952E-4  -1.686772404253829E2   9.976245964054682E-1  -7.035441619359079E1  
 1.900000000000000E9     9.883409096340550E-1  -7.248105568664363E1   1.338693513326785E-4  -1.608077475197410E2   1.791758787779354E-4  -1.584227335652749E2   9.996698081712148E-1  -7.729473965779307E1  
 1.950000000000000E9     9.898431946334677E-1  -7.915245645214958E1   1.630300855475179E-4  -1.723234764468631E2   1.882214917659587E-4  -1.704787998235914E2   1.001675985962390  -8.412774505387012E1  
 2.000000000000000E9     9.914483799049445E-1  -8.581185350926133E1   1.751891252693948E-4  -1.683932235636510E2   1.576876570794545E-4   1.760935814119515E2   1.002258799839593  -9.102189076303353E1  
 2.050000000000000E9     9.961769338658055E-1  -9.233336868725441E1   1.811609618397619E-4   1.738967981691095E2   1.662896462538385E-4  -1.734372790321774E2   1.002923543545830  -9.802464619307382E1  
 2.100000000000000E9     9.980223078709253E-1  -9.881723794483985E1   1.476239445699659E-4   1.604420182750524E2   2.003337560899642E-4   1.642421136323345E2   1.002341070805086  -1.049609524847308E2  
 2.150000000000000E9     1.002129724432490  -1.054049756163628E2   1.931867226211264E-4   1.564633278086051E2   2.060986248911673E-4   1.686442010572836E2   1.003559562596421  -1.118872618698255E2  
 2.200000000000000E9     1.005154216089810  -1.117699867497427E2   2.095905834200750E-4   1.546990833223864E2   2.230524162964557E-4   1.510447002477816E2   1.002352450860168  -1.188751953942230E2  
 2.250000000000000E9     1.008832473460201  -1.181844489445713E2   2.183535650403637E-4   1.501604126283882E2   1.926194914642057E-4   1.455865206539793E2   1.001498909610747  -1.258346365302483E2  
 2.300000000000000E9     1.009296999189936  -1.244998293713541E2   2.013414380381094E-4   1.421779013103774E2   2.027587509222856E-4   1.455869480840198E2   9.977295431671922E-1  -1.329186741231195E2  
 2.350000000000000E9     1.011564967230365  -1.308979406182163E2   2.140827855412551E-4   1.318988463048028E2   2.135277831433880E-4   1.364576850046036E2   9.961099180689267E-1  -1.400194218031891E2  
 2.400000000000000E9     1.010469524625893  -1.374245373466847E2   1.759615170196865E-4   1.188493930127568E2   1.847064448288526E-4   1.191670439090278E2   9.927848537467572E-1  -1.470967336918585E2  
 2.450000000000000E9     1.012644894271230  -1.438081722490472E2   2.602528847609032E-4   1.102069396051166E2   2.109161505161929E-4   1.304810492613332E2   9.925782402367933E-1  -1.540916958235420E2  
 2.500000000000000E9     1.009838148500824  -1.503331551071021E2   2.196938792772141E-4   1.134289812533179E2   2.440717052651719E-4   1.100540898617255E2   9.904511942215092E-1  -1.613026770870188E2  
 2.550000000000000E9     1.009544273767778  -1.568052996539400E2   2.769236581670018E-4   1.003537849871239E2   2.142609366095931E-4   1.033504297056719E2   9.913497350683729E-1  -1.682943175850769E2  
 2.600000000000000E9     1.005983263973801  -1.634933611447878E2   2.323028420829303E-4   9.172908705531893E1   2.160384342209065E-4   9.311690253654865E1   9.903800984706732E-1  -1.754825941219330E2  
 2.650000000000000E9     1.004032118230733  -1.699892640007423E2   2.170518445996911E-4   9.293738167406403E1   2.187471612318906E-4   8.481811701239616E1   9.916508277192327E-1   1.775544972848078E2  
 2.700000000000000E9     1.000354329051061  -1.767089021306475E2   2.322609924930685E-4   8.022911643338139E1   1.808976137193598E-4   9.057148249997904E1   9.895565450363505E-1   1.704630104878617E2  
 2.750000000000000E9     9.984042179101933E-1   1.766261377804191E2   2.493391345516282E-4   7.812694881243581E1   2.481678059010934E-4   8.195738975932368E1   9.892846703303782E-1   1.634253949515692E2  
 2.800000000000000E9     9.942636101516342E-1   1.698782768467435E2   2.349464995176019E-4   6.670016443729747E1   2.363611198142087E-4   6.625235049188621E1   9.889737421342230E-1   1.563547180217691E2  
 2.850000000000000E9     9.916663915222530E-1   1.630524950914547E2   2.940400959775647E-4   5.575890768383010E1   2.798860113818277E-4   6.395437596396874E1   9.895043649648939E-1   1.493638615845179E2  
 2.900000000000000E9     9.896695851932621E-1   1.561750244655499E2   2.328255372848840E-4   5.963693928344213E1   3.123949324508027E-4   4.956431773112860E1   9.884910369669188E-1   1.424297737770807E2  
 2.950000000000000E9     9.873190963181403E-1   1.495059725983262E2   2.805555320465969E-4   5.278429039751958E1   2.488058305041961E-4   3.699970710725197E1   9.868305170767669E-1   1.354021707809220E2  
 3.000000000000000E9     9.874074706511320E-1   1.426557973587362E2   2.743704693714282E-4   4.473832588053723E1   2.292056410209892E-4   3.973439567297304E1   9.849457771378857E-1   1.284631204361338E2  
 3.050000000000000E9     9.864003153856854E-1   1.359676425857849E2   2.798106119935865E-4   3.908840833187161E1   2.490403503486299E-4   3.886813395413197E1   9.836985296472248E-1   1.216160973503171E2  
 3.100000000000000E9     9.844617372684358E-1   1.290726745689337E2   2.806311151705509E-4   2.237808916175940E1   2.223917488886412E-4   1.913416416365219E1   9.814073773388716E-1   1.147011304667239E2  
 3.150000000000000E9     9.838671601915693E-1   1.225010377617430E2   2.646630034464957E-4   2.453553154889758E1   2.574725640395157E-4   1.916161857076888E1   9.806353618327864E-1   1.079510914038736E2  
 3.200000000000000E9     9.828549869344728E-1   1.157450731303311E2   2.975771198478103E-4   8.321540193291124   2.627387935171958E-4   1.066640911913091E1   9.809320362553737E-1   1.011888235914517E2  
 3.250000000000000E9     9.843407042455685E-1   1.092566698976564E2   2.896889999747242E-4   1.295044738634569E1   3.052904231902736E-4   6.779179965142721   9.811534559707605E-1   9.451057346295200E1  
 3.300000000000000E9     9.853157173024875E-1   1.028285854233006E2   2.401867084366991E-4   9.722029474507709   3.193744323837416E-4   5.927044665891247   9.810354826448674E-1   8.789409939998457E1  
 3.350000000000000E9     9.848253600260797E-1   9.644700330308318E1   2.584473401375717E-4  -2.627372384087475   2.877367178584425E-4  -6.597619919284565   9.816968548179661E-1   8.137896710528113E1  
 3.400000000000000E9     9.851178736264928E-1   9.005404001325091E1   2.491546371911147E-4  -2.288372467020329   3.227475231840981E-4  -1.093252741231431E1   9.824104275018653E-1   7.468462901952395E1  
 3.450000000000000E9     9.864835506827686E-1   8.384144218261180E1   2.590120347313854E-4  -1.850401057565707E1   3.217211668325396E-4  -1.706145674865690E1   9.819325878233889E-1   6.802929153641188E1  
 3.500000000000000E9     9.923374389264584E-1   7.764022254446773E1   2.922122542968263E-4  -2.961764568539292E1   2.621070875131524E-4  -2.614079895566145E1   9.828284787279520E-1   6.139377522911943E1  
 3.550000000000000E9     9.935201935765784E-1   7.135305425143467E1   2.996679175985212E-4  -2.521516801204109E1   2.644458337218118E-4  -3.098273122382490E1   9.827865282515604E-1   5.477321420602567E1  
 3.600000000000000E9     9.974831864717966E-1   6.489704142615577E1   2.650064012868046E-4  -3.037269302689515E1   2.530522568404221E-4  -4.914494030332381E1   9.823463397112047E-1   4.831113614132478E1  
 3.650000000000000E9     9.968631507008188E-1   5.857627901443089E1   2.863541154992454E-4  -4.000110963283847E1   3.124632710646191E-4  -3.905855192757637E1   9.798506418816355E-1   4.173966641035619E1  
 3.700000000000000E9     9.986478158396335E-1   5.220300215585658E1   2.971533313574899E-4  -4.775252861736313E1   2.565238451294157E-4  -5.008799384977229E1   9.762449630451766E-1   3.512813590470606E1  
 3.750000000000000E9     9.993837167489547E-1   4.598390368382611E1   2.862120098773075E-4  -6.049162803902626E1   2.924500295109365E-4  -4.732641518806820E1   9.733499808544009E-1   2.841865544966737E1  
 3.800000000000000E9     1.000358661647406   3.968954116584980E1   2.879775869258892E-4  -6.359851977598103E1   2.988261161453866E-4  -6.208228825702338E1   9.721959621914654E-1   2.194734631718552E1  
 3.850000000000000E9     9.982409220181302E-1   3.344025363387490E1   3.192317756902849E-4  -6.462571795019488E1   2.892047211679897E-4  -6.964310485561499E1   9.707261134179978E-1   1.556937432830181E1  
 3.900000000000000E9     9.983164397242882E-1   2.706830869045177E1   3.156450951852485E-4  -7.577721240036647E1   3.089581426205949E-4  -7.596273156375899E1   9.692420078977171E-1   9.056121585853154  
 3.950000000000000E9     9.951582875719798E-1   2.083683632680768E1   2.882269425500503E-4  -8.586090978970044E1   3.003520036974987E-4  -8.791913531597727E1   9.679070855697534E-1   2.534026399000941  
 4.000000000000000E9     9.960225391955262E-1   1.450232636959946E1   2.993643274862327E-4  -8.011217925741329E1   3.574816424077751E-4  -8.906865554196600E1   9.663639386141275E-1  -3.916487189924200  
 4.050000000000000E9     9.928400368673669E-1   8.154668823416936   3.177601025757548E-4  -9.218207297436304E1   3.210923538118569E-4  -9.577574084640025E1   9.638172615963841E-1  -1.047195231714044E1  
 4.100000000000000E9     9.913424949112766E-1   1.679646757126124   3.265507882261144E-4  -9.942764913816673E1   3.259173128742408E-4  -9.751536766090217E1   9.631531152135667E-1  -1.697364148853511E1  
 4.150000000000000E9     9.880804220787207E-1  -4.745497698538819   3.300242202433228E-4  -1.070558462756164E2   3.246489187136625E-4  -1.079414425208695E2   9.615951024772217E-1  -2.344171974344090E1  
 4.200000000000000E9     9.864182496224329E-1  -1.126718103248582E1   3.099292620802061E-4  -1.102232214891746E2   3.562494148625392E-4  -1.124078980299096E2   9.624669139592431E-1  -2.991374586311180E1  
 4.250000000000000E9     9.832049066780249E-1  -1.771431325217050E1   3.481700501553851E-4  -1.193786710929336E2   3.499473714636695E-4  -1.212204101757651E2   9.615551987307524E-1  -3.639976792344421E1  
 4.300000000000000E9     9.815537867382969E-1  -2.425877618055200E1   3.433609478152153E-4  -1.254144881925203E2   3.449951903693889E-4  -1.258345286831901E2   9.604165593395845E-1  -4.276651849915349E1  
 4.350000000000000E9     9.810916572818232E-1  -3.073871078089524E1   3.497916404307206E-4  -1.324314835602323E2   3.562215617283888E-4  -1.368989492827104E2   9.583633339832239E-1  -4.929831806435337E1  
 4.400000000000000E9     9.808851874003289E-1  -3.717034832514963E1   3.458569343755213E-4  -1.357829084932438E2   3.301451446752757E-4  -1.403166132904655E2   9.585782435147725E-1  -5.577254814199226E1  
 4.450000000000000E9     9.801222071180641E-1  -4.373243796341509E1   3.626904461310393E-4  -1.463744951599175E2   3.360520041326383E-4  -1.491394959826371E2   9.569506712951609E-1  -6.239335153715433E1  
 4.500000000000000E9     9.817202019439950E-1  -5.014377357333940E1   3.354490676178789E-4  -1.511125355718397E2   3.495162343456907E-4  -1.543844349128598E2   9.567792352620825E-1  -6.888173546276302E1  
 4.550000000000000E9     9.813542359798546E-1  -5.668817405514541E1   3.779503576926260E-4  -1.620104134685911E2   3.567601580739873E-4  -1.585977829486642E2   9.546236600678465E-1  -7.546316469581602E1  
 4.600000000000000E9     9.849547768423234E-1  -6.319299310339912E1   3.750000984696442E-4  -1.626580088097482E2   3.593429273782589E-4  -1.630992280602772E2   9.550684863032429E-1  -8.205753262260500E1  
 4.650000000000000E9     9.851796649161625E-1  -6.979716382544788E1   3.410004090109807E-4  -1.713735877104218E2   3.734530704389720E-4  -1.717509031471217E2   9.532940009056368E-1  -8.858220901135476E1  
 4.700000000000000E9     9.885999774582074E-1  -7.627597837678367E1   3.548337842518127E-4  -1.756512527814004E2   3.579045296167675E-4  -1.798151524494485E2   9.527435711132140E-1  -9.530118794788776E1  
 4.750000000000000E9     9.883678822833949E-1  -8.282673760525744E1   3.816615150997186E-4   1.712971970685540E2   3.598232730681286E-4   1.730809161552214E2   9.524394952684275E-1  -1.020389044025442E2  
 4.800000000000000E9     9.917072326325478E-1  -8.936449112658991E1   3.782248834203474E-4   1.716919028046771E2   3.895738718630684E-4   1.660879209862550E2   9.537769616399263E-1  -1.086965223793427E2  
