#  HZ   S   MA   R     50.00 
! Rohde & Schwarz ZVA67 4Ports - Version 4.11 - 1305.7002k04 SN: 101051
! Date: 2023-05-31 11:50:06
! Measurements: S11 S21 S12 S22 
! 
 5.000000000000000E7     7.290186416230087E-3   5.624059315638134E1   9.979943715769571E-1  -6.783757324430806   9.969373586571244E-1  -6.638703331218330   7.701582452077750E-3   1.176599686975427E1  
 1.000000000000000E8     3.347502058189507E-3  -3.872808931597486E1   9.975784605142034E-1  -1.344455891054972E1   9.983885909132640E-1  -1.367770636333026E1   3.607734891028743E-3  -3.533303268491752E1  
 1.500000000000000E8     8.307604072769566E-3  -1.673207323796633E1   9.978997819730221E-1  -2.021326275695198E1   9.989060809001397E-1  -2.029931256921263E1   8.783452897027300E-3  -3.531335796139054E1  
 2.000000000000000E8     6.826348123916661E-3  -1.665823518313273E1   9.963046073843527E-1  -2.687835993115353E1   1.000645890033568  -2.714853022574615E1   8.463037830700671E-3  -3.363216591900638E1  
 2.500000000000000E8     9.681098728888428E-3  -2.144051982524436E1   9.959662926094102E-1  -3.381923611304066E1   9.978889981806725E-1  -3.388481696746816E1   1.222698044463224E-2  -3.341980354765278E1  
 3.000000000000000E8     1.306776456285443E-2  -3.409978306429763E1   9.957143827344722E-1  -4.059532271512551E1   9.950013196787182E-1  -4.071009091228451E1   1.629265376631368E-2  -3.856061196693280E1  
 3.500000000000000E8     1.500747511481255E-2  -4.168989935784341E1   9.953568006925702E-1  -4.739974708404050E1   9.946122920325160E-1  -4.754489601068400E1   1.659315163258419E-2  -4.341184564908851E1  
 4.000000000000000E8     1.823251491678399E-2  -4.692462630702303E1   9.939300821898219E-1  -5.417777861425464E1   9.943108385677159E-1  -5.424242511581392E1   2.109597279460078E-2  -4.689849150536928E1  
 4.500000000000000E8     1.761149112543686E-2  -5.336238756768859E1   9.948095203020895E-1  -6.097881882595186E1   9.937958173669995E-1  -6.100686542065245E1   2.333214466024598E-2  -5.241655410752767E1  
 5.000000000000000E8     1.856417333882170E-2  -6.141175815390891E1   9.933530766608607E-1  -6.776876057829159E1   9.944733701250583E-1  -6.780492009136555E1   2.432054730682549E-2  -6.645874143673119E1  
 5.500000000000000E8     1.559074084700252E-2  -7.531675284920922E1   9.934111472912290E-1  -7.446144154301631E1   9.933687869861121E-1  -7.458730438655246E1   2.532138610980944E-2  -7.383813594718546E1  
 6.000000000000000E8     1.442724607967221E-2  -9.212324548041242E1   9.930737571061679E-1  -8.128999262383276E1   9.926255708544909E-1  -8.135705729602464E1   2.761990009814763E-2  -8.594116758685574E1  
 6.500000000000000E8     1.245297877188407E-2  -1.021546113360187E2   9.918967905619465E-1  -8.796379626610788E1   9.925345073213295E-1  -8.812635225809511E1   3.052122931052628E-2  -9.909014212651876E1  
 7.000000000000000E8     1.098606717874286E-2  -1.342753442199168E2   9.920358773039965E-1  -9.478849767622495E1   9.918131939717135E-1  -9.492859484795403E1   3.091282623799705E-2  -1.146571266227474E2  
 7.500000000000000E8     8.716677722594072E-3  -1.747830318483016E2   9.915701098146064E-1  -1.015281522040155E2   9.915933426214229E-1  -1.017099604129584E2   3.157457151935750E-2  -1.294514771856279E2  
 8.000000000000000E8     1.256689603448140E-2   1.484452618352094E2   9.913633620364353E-1  -1.082750545602287E2   9.907504035861685E-1  -1.084105228833681E2   3.076564049840389E-2  -1.465932937703519E2  
 8.500000000000000E8     1.558556282571313E-2   1.284912119334299E2   9.911550500608309E-1  -1.151119674767056E2   9.907292024966524E-1  -1.152731259716028E2   3.423661582481084E-2  -1.600625728640328E2  
 9.000000000000000E8     1.959602370259971E-2   1.092758136528100E2   9.900377502224890E-1  -1.218693346696983E2   9.894542476062092E-1  -1.220016759735765E2   3.739684930573556E-2  -1.726257429386224E2  
 9.500000000000000E8     2.384096345134094E-2   1.019541526453783E2   9.891514843672761E-1  -1.286046310703297E2   9.891000407850217E-1  -1.288038684849204E2   3.986788445365714E-2   1.764950536964196E2  
 1.000000000000000E9     2.755676868242450E-2   9.603078822857768E1   9.889137620432962E-1  -1.353958706416222E2   9.883181043918564E-1  -1.355640120357913E2   4.122908389553347E-2   1.653540021935750E2  
 1.050000000000000E9     2.981562878057737E-2   8.973145973376465E1   9.885111355741406E-1  -1.421474459760646E2   9.883239603707454E-1  -1.423184855479692E2   4.217797923522192E-2   1.573285478856016E2  
 1.100000000000000E9     3.200003170732244E-2   8.317945689330739E1   9.878715138930552E-1  -1.489280426106056E2   9.874675701145771E-1  -1.490667130803957E2   4.277990492172612E-2   1.467917009885179E2  
 1.150000000000000E9     3.490822384569674E-2   7.677575383175221E1   9.874850567683302E-1  -1.556788807334986E2   9.865095539890998E-1  -1.558543661040872E2   4.343010831691543E-2   1.377525521034156E2  
 1.200000000000000E9     3.646365538758647E-2   7.194491316754103E1   9.867949262371754E-1  -1.624495043482197E2   9.865686098182046E-1  -1.626568416560336E2   4.349381563084129E-2   1.279402329277899E2  
 1.250000000000000E9     3.629297368544925E-2   6.714182767604900E1   9.864548766336132E-1  -1.692400707591801E2   9.859376712534238E-1  -1.693799657630713E2   4.082219530919469E-2   1.225320753865684E2  
 1.300000000000000E9     3.611151166723756E-2   6.038639913057384E1   9.863614311889002E-1  -1.759684221326578E2   9.859175323503503E-1  -1.761701896225328E2   3.892521825402914E-2   1.158144931546884E2  
 1.350000000000000E9     3.637128802473440E-2   5.520228674640141E1   9.862830742588138E-1   1.772857889214083E2   9.865028374536875E-1   1.771018095586158E2   3.652744183489232E-2   1.098150376474444E2  
 1.400000000000000E9     3.454237329113312E-2   4.995632590711799E1   9.862464392722906E-1   1.705216620185955E2   9.857530021205246E-1   1.703205983157779E2   3.372313383682190E-2   1.039952722402211E2  
 1.450000000000000E9     3.329899476274041E-2   4.364353768014902E1   9.861198940396272E-1   1.637697710524623E2   9.856082301233370E-1   1.635743615831357E2   3.053872927130529E-2   1.016574275519236E2  
 1.500000000000000E9     3.112731628165023E-2   3.823438909650501E1   9.859156056873154E-1   1.570317109478430E2   9.864115762491443E-1   1.568158823976605E2   2.720891567340575E-2   9.916455891938026E1  
 1.550000000000000E9     2.925369788831140E-2   3.033751284287787E1   9.862115952195780E-1   1.503393579746208E2   9.862231885502485E-1   1.500742972084225E2   2.384585543793430E-2   9.958359914147432E1  
 1.600000000000000E9     2.751571478156923E-2   2.040572045210681E1   9.865790065951936E-1   1.435141831232750E2   9.866768685888376E-1   1.433350928781408E2   2.107222514822319E-2   1.016395078456447E2  
 1.650000000000000E9     2.545585879431588E-2   1.044332769639530E1   9.870655536635649E-1   1.368035177883630E2   9.867236028868042E-1   1.366127697773000E2   2.008789612697327E-2   1.054999371944450E2  
 1.700000000000000E9     2.357192694441604E-2  -2.534643921436388   9.874822287202465E-1   1.300517226758845E2   9.867903592083690E-1   1.298514800966513E2   1.977924214675586E-2   1.132834897712962E2  
 1.750000000000000E9     2.295869349566097E-2  -2.074094157568800E1   9.871630743676764E-1   1.233764352721566E2   9.869343106210632E-1   1.231266474700169E2   2.038379849505777E-2   1.180616998765680E2  
 1.800000000000000E9     2.402735290476150E-2  -3.619109958025015E1   9.874056359842346E-1   1.166100819226490E2   9.873825671373178E-1   1.164006345587916E2   2.022900810862251E-2   1.204972667897155E2  
 1.850000000000000E9     2.657577688545434E-2  -5.086576178531873E1   9.880932201069088E-1   1.098875025413555E2   9.871682941412612E-1   1.096471061802632E2   2.118141743802520E-2   1.160596051938806E2  
 1.900000000000000E9     2.936809868493766E-2  -6.654251131074517E1   9.872334784029305E-1   1.031813373220076E2   9.876682137023549E-1   1.029540784812476E2   2.197452331591755E-2   1.188662802156387E2  
 1.950000000000000E9     3.320167219087021E-2  -7.814459549159138E1   9.870366701306271E-1   9.649725162066794E1   9.877182591575967E-1   9.623563445928055E1   2.288119612531851E-2   1.126304181627158E2  
 2.000000000000000E9     3.794873505319878E-2  -8.959778746164956E1   9.870638918565629E-1   8.977286895942073E1   9.868747783413865E-1   8.949846337607342E1   2.475812370867444E-2   1.052816052750180E2  
 2.050000000000000E9     4.312254126508922E-2  -9.756197403237594E1   9.872418496492713E-1   8.301846294270798E1   9.876475217938120E-1   8.277217223639914E1   2.535022795402895E-2   9.750010564160110E1  
 2.100000000000000E9     4.656668346703612E-2  -1.065979283502431E2   9.881190873138075E-1   7.628964466180152E1   9.869074481750245E-1   7.606445307251505E1   2.599788774172441E-2   9.349408666438190E1  
 2.150000000000000E9     5.101213632959593E-2  -1.140402500749237E2   9.877893884927120E-1   6.956004865590441E1   9.869616872720863E-1   6.931440096968149E1   2.749277217083365E-2   8.746822202354593E1  
 2.200000000000000E9     5.475264432235763E-2  -1.212518174014639E2   9.870034507833150E-1   6.285904175787849E1   9.875753572448385E-1   6.261442670853445E1   2.790392444824561E-2   8.074556441040642E1  
 2.250000000000000E9     5.668991733009429E-2  -1.276765201746886E2   9.873123508682727E-1   5.615177500618463E1   9.870288453456830E-1   5.585950707973558E1   2.879751535172011E-2   7.356378476855515E1  
 2.300000000000000E9     5.694239523497102E-2  -1.344669954427028E2   9.869076952625868E-1   4.945415555823107E1   9.855138294722524E-1   4.914744934268920E1   3.076932741691907E-2   7.028354776700729E1  
 2.350000000000000E9     5.722682922577437E-2  -1.410462280819802E2   9.859774296872005E-1   4.271772050144130E1   9.860522803986794E-1   4.243808353790652E1   3.275050849842174E-2   6.554868737844146E1  
 2.400000000000000E9     5.641421672309582E-2  -1.476873648275767E2   9.866558855358579E-1   3.596946474804532E1   9.856094406390831E-1   3.570275834152024E1   3.545009734534803E-2   6.231866331734953E1  
 2.450000000000000E9     5.580436561480986E-2  -1.541265020317917E2   9.854063263365782E-1   2.927074660723428E1   9.853540760525119E-1   2.894822899248785E1   3.637758949569699E-2   5.850404403310565E1  
 2.500000000000000E9     5.341605997949872E-2  -1.619960521555946E2   9.853848470081773E-1   2.250209878179579E1   9.860350730040540E-1   2.221561595046765E1   3.970691228393800E-2   5.622343038550263E1  
 2.550000000000000E9     5.038462843675508E-2  -1.697355161399183E2   9.853945031736984E-1   1.576162440297415E1   9.843916459455077E-1   1.548136574858462E1   4.085071791347696E-2   5.204508373932364E1  
 2.600000000000000E9     4.793376162356808E-2   1.798679765766331E2   9.857598147771344E-1   9.033387187689886   9.847233987528654E-1   8.714813008328486   4.359705323028034E-2   4.961068310179543E1  
 2.650000000000000E9     4.540846494247671E-2   1.696470880674248E2   9.857364359616948E-1   2.254757906218992   9.845358284065964E-1   2.001298988797909   4.427422861886144E-2   4.594598406556124E1  
 2.700000000000000E9     4.299515656857495E-2   1.597526330826206E2   9.844728769439761E-1  -4.500777438813674   9.838083445758781E-1  -4.780494440215906   4.604898595918126E-2   4.138927760736792E1  
 2.750000000000000E9     4.165876840776645E-2   1.455322516760955E2   9.846004492022737E-1  -1.121567494654825E1   9.831731960689714E-1  -1.155414454066563E1   4.786141074269799E-2   3.672476470852175E1  
 2.800000000000000E9     4.044061071772073E-2   1.331225977694903E2   9.837099494326304E-1  -1.800843791003317E1   9.829148490387057E-1  -1.830575083441008E1   4.906515292304001E-2   3.059752220313111E1  
 2.850000000000000E9     4.157714922042185E-2   1.183675061275338E2   9.833171415340422E-1  -2.481738426871264E1   9.830482557590263E-1  -2.506835996255144E1   5.081903621496349E-2   2.422854179398677E1  
 2.900000000000000E9     4.437157745275079E-2   1.059222670245033E2   9.836822392917498E-1  -3.155988779187033E1   9.828741648380515E-1  -3.180561647471357E1   5.127044650290549E-2   1.780926936837973E1  
 2.950000000000000E9     4.468782028872258E-2   9.328537982705383E1   9.823063170835705E-1  -3.836910724803087E1   9.829534256410549E-1  -3.862206733277442E1   5.266953982115794E-2   1.013868312192501E1  
 3.000000000000000E9     4.584504641010282E-2   8.293434411380446E1   9.832473326250358E-1  -4.506943550527866E1   9.816236607452775E-1  -4.541873012800010E1   5.189623366335383E-2   4.799897262373693  
 3.050000000000000E9     4.677368945940628E-2   7.303450326956768E1   9.821782463898817E-1  -5.188329088308133E1   9.821317298447664E-1  -5.221147987223097E1   5.153555151754404E-2  -3.617312122352572  
 3.100000000000000E9     4.956595476401723E-2   6.331980434334933E1   9.820908964552967E-1  -5.862630634938370E1   9.815879915603287E-1  -5.900969464518418E1   5.106234438945098E-2  -1.081364479638836E1  
 3.150000000000000E9     4.981768353302490E-2   5.614713877010289E1   9.810404174971066E-1  -6.540625929739053E1   9.814281482787042E-1  -6.582178104922851E1   4.986571228082966E-2  -1.841818350440505E1  
 3.200000000000000E9     5.101102804187431E-2   4.896191630399342E1   9.804487264544194E-1  -7.217581586338541E1   9.820893831776674E-1  -7.254458116615768E1   4.833210232228360E-2  -2.632058184431349E1  
 3.250000000000000E9     5.079352235578338E-2   4.289288793411863E1   9.816253256314507E-1  -7.888161676904250E1   9.820151263771030E-1  -7.934710928205844E1   4.471851340115775E-2  -3.365740265817959E1  
 3.300000000000000E9     4.838538237719965E-2   3.702219159475245E1   9.812422065451624E-1  -8.565526814556741E1   9.824181994112270E-1  -8.604972249937555E1   4.251403627688469E-2  -4.393316020375009E1  
 3.350000000000000E9     4.728385235966024E-2   3.179854444025347E1   9.823520876359505E-1  -9.241847591414845E1   9.824135891616147E-1  -9.273495375162823E1   3.872915700331128E-2  -5.240971905182480E1  
 3.400000000000000E9     4.342038415158439E-2   2.783608894913890E1   9.819099781471213E-1  -9.910656024849834E1   9.814119249851194E-1  -9.953595044391054E1   3.476809952225998E-2  -6.306606347012123E1  
 3.450000000000000E9     3.982966579403587E-2   2.315850553399009E1   9.826450089212051E-1  -1.058637285444040E2   9.830331473035308E-1  -1.063026589860784E2   3.136287074565797E-2  -7.352558187602716E1  
 3.500000000000000E9     3.695286277435481E-2   1.921166374644476E1   9.845188107586519E-1  -1.125866072006378E2   9.842726122902392E-1  -1.131123531565815E2   2.663671974548503E-2  -8.941829265807847E1  
 3.550000000000000E9     3.089994439047109E-2   1.613031955747157E1   9.841045558111956E-1  -1.193470786300440E2   9.853250773518874E-1  -1.199074962183840E2   2.338920116786125E-2  -1.028263077718801E2  
 3.600000000000000E9     2.686291498501328E-2   1.574079388675292E1   9.850628395467965E-1  -1.261446853526375E2   9.843071627965404E-1  -1.266655009691861E2   1.925287771469380E-2  -1.211873622167655E2  
 3.650000000000000E9     2.346776797054433E-2   1.602907463260951E1   9.858668103836843E-1  -1.329474172568812E2   9.847864295575214E-1  -1.333973920083696E2   1.936026094463824E-2  -1.469248334198261E2  
 3.700000000000000E9     1.863509916268371E-2   1.842423216620853E1   9.847649396449631E-1  -1.397265595804800E2   9.846531535289206E-1  -1.401834389846526E2   1.945593498850581E-2  -1.646056531062369E2  
 3.750000000000000E9     1.348137668100796E-2   2.428037603713411E1   9.853591983020151E-1  -1.465248079844884E2   9.842570763946110E-1  -1.469248219297480E2   2.083763308743456E-2   1.770632452681350E2  
 3.800000000000000E9     1.187646688728043E-2   5.404864824092397E1   9.846453228634374E-1  -1.532731385584662E2   9.840999195347785E-1  -1.536761012889209E2   2.092721079413898E-2   1.574181691199837E2  
 3.850000000000000E9     1.350206312614281E-2   8.334456216101810E1   9.836910276771317E-1  -1.599979478998760E2   9.843158349079336E-1  -1.604017009389453E2   2.346898070641272E-2   1.408078307921186E2  
 3.900000000000000E9     1.815162918763897E-2   9.730214653690547E1   9.838681204485815E-1  -1.667763178799374E2   9.833639743576481E-1  -1.672111323912571E2   2.631694047522273E-2   1.289727778941645E2  
 3.950000000000000E9     2.449128228192619E-2   1.040101506917912E2   9.839003428763182E-1  -1.735503718730031E2   9.831467286908324E-1  -1.739461853794228E2   2.884570376101867E-2   1.157655508452666E2  
 4.000000000000000E9     3.069287687477376E-2   1.048255394941594E2   9.830157844432317E-1   1.797107592300347E2   9.831171622847632E-1   1.792977192260499E2   3.232617578675193E-2   1.026799502834420E2  
 4.050000000000000E9     3.497144301130081E-2   1.026092867376731E2   9.828394311079538E-1   1.730230577862015E2   9.828287107117384E-1   1.725624782694662E2   3.487541659467870E-2   9.557657238789308E1  
 4.100000000000000E9     4.020702179038422E-2   1.002831403486726E2   9.816969808645266E-1   1.662452132926105E2   9.819312946132406E-1   1.657958765624342E2   3.693160024226258E-2   8.484187828176940E1  
 4.150000000000000E9     4.527042264098303E-2   9.600660870221779E1   9.815942697515583E-1   1.595059499882684E2   9.814643524689227E-1   1.590382224531912E2   4.035234655174591E-2   7.661363647438301E1  
 4.200000000000000E9     4.866522039016935E-2   9.115813625372192E1   9.811111058220975E-1   1.527238497180731E2   9.808092837284713E-1   1.522905876776360E2   4.335071847789158E-2   6.756594150117930E1  
 4.250000000000000E9     5.195045796328673E-2   8.534503902138737E1   9.807850820560177E-1   1.460124292668935E2   9.803531032104143E-1   1.455608704080769E2   4.795125994673857E-2   5.973044595174802E1  
 4.300000000000000E9     5.429512445762706E-2   7.855384945610156E1   9.799621987911440E-1   1.392457702716529E2   9.801494897070822E-1   1.388302821521645E2   5.202682822413699E-2   5.480826895916957E1  
 4.350000000000000E9     5.753341636474692E-2   7.196639977969514E1   9.797970269201921E-1   1.325214488627035E2   9.802313709606993E-1   1.320611526979398E2   5.621195318958651E-2   4.708437331366372E1  
 4.400000000000000E9     6.080452021210081E-2   6.435625505688707E1   9.802503245667723E-1   1.257867121529008E2   9.799094986494118E-1   1.253288552100145E2   5.924019886545209E-2   4.140437802659049E1  
 4.450000000000000E9     6.135028411172870E-2   5.780437739677858E1   9.801808609650976E-1   1.190622181618668E2   9.802777841720708E-1   1.185823072314995E2   6.155378465343159E-2   3.406161894042926E1  
 4.500000000000000E9     6.414796191102952E-2   4.981281982889541E1   9.799140157826399E-1   1.123358997579615E2   9.794616225218131E-1   1.118694153437507E2   6.488397905637149E-2   2.726899159113598E1  
 4.550000000000000E9     6.647200401314847E-2   4.270959904304261E1   9.794644410867617E-1   1.055795727032457E2   9.802794698702683E-1   1.051287371870831E2   6.723104999433045E-2   2.102948416233568E1  
 4.600000000000000E9     6.764988481638491E-2   3.453993493543016E1   9.796749268003160E-1   9.887304691709524E1   9.798194021472942E-1   9.838544467905653E1   6.786750331924760E-2   1.316562745866113E1  
 4.650000000000000E9     7.062060626115309E-2   2.586815238557756E1   9.801681417283195E-1   9.216658744562723E1   9.804708587880229E-1   9.166611446527682E1   6.975641667732316E-2   7.818869683874796  
 4.700000000000000E9     7.126086645811376E-2   1.762411598036868E1   9.804952049547592E-1   8.546114411722996E1   9.801847516252578E-1   8.493671860283652E1   6.856866753491800E-2   2.143200648517925  
 4.750000000000000E9     7.476016743279441E-2   9.440120961011930   9.812794884996244E-1   7.875947017857897E1   9.810894404273972E-1   7.822756056650556E1   6.810399821534079E-2  -4.382875500725855  
 4.800000000000000E9     7.617516124569730E-2   2.247957145564757   9.816525139724186E-1   7.203680923041898E1   9.813865477023444E-1   7.154190141911994E1   6.529309769026612E-2  -1.091511846311015E1  
