#  HZ   S   MA   R     50.00 
! Rohde & Schwarz ZVA67 4Ports - Version 4.11 - 1305.7002k04 SN: 101051
! Date: 2023-09-13 16:58:52
! Measurements: S11 S21 S12 S22 
! 
 6.705000000000000E10    1.166676883369550E-1  -1.564876851463819E2   3.532745219349420E-1  -1.147167048854700E2   3.532473997842690E-1  -1.102998246162629E2   4.998663015498516E-1   1.576767436228526E2  
 6.710000000000000E10    1.949499357367465E-2   6.475903173545959E1   3.556823286333844E-1  -1.583244657641205E2   3.558232413152575E-1  -1.537903330805754E2   4.912904729064015E-1   1.478207518075443E2  
 6.715000000000000E10    1.262773002748457E-1  -4.152590095695666E1   3.520864911437409E-1   1.585346162086001E2   3.532342649991745E-1   1.630997857280993E2   4.983669680883757E-1   1.368375973273388E2  
 6.720000000000000E10    2.083115496726118E-1  -8.379701951923900E1   3.491872402676529E-1   1.162832173858641E2   3.501464697620021E-1   1.208885393216190E2   5.004584603306937E-1   1.238473405152870E2  
 6.725000000000000E10    2.299009779947536E-1  -1.217832012105372E2   3.540282036468537E-1   7.451212208002609E1   3.544733364434571E-1   7.892495948899227E1   4.814915838593625E-1   1.097316670914789E2  
 6.730000000000000E10    1.878754956049004E-1  -1.545885739072313E2   3.637945868215456E-1   3.181762950855575E1   3.644166815073038E-1   3.635546739669217E1   4.380918581766411E-1   9.770058733475462E1  
 6.735000000000000E10    1.028961668352388E-1  -1.681334387166119E2   3.718497846171214E-1  -1.229245670811080E1   3.720085700214719E-1  -7.648880682513702   4.010810551601620E-1   9.023685386091242E1  
 6.740000000000000E10    1.038862824758388E-1  -1.310858543747301E2   3.704194891170478E-1  -5.657038370264971E1   3.708217814305356E-1  -5.208248657153295E1   4.091340658529133E-1   8.466906156906529E1  
 6.745000000000000E10    1.845817054760018E-1  -1.431819397913181E2   3.634997805670006E-1  -1.001576301863788E2   3.634334260166721E-1  -9.548840579757804E1   4.421348714443943E-1   7.362931817313886E1  
 6.750000000000000E10    2.268303072540908E-1  -1.743451040032201E2   3.585150540120626E-1  -1.421443930839202E2   3.589565200046815E-1  -1.374948429565640E2   4.639600634629985E-1   5.834476796824952E1  
 6.755000000000000E10    2.064091699053355E-1   1.504244054481997E2   3.608189276605533E-1   1.759228633677276E2   3.615755163371349E-1  -1.792717241089579E2   4.550155339674910E-1   4.190626362992572E1  
 6.760000000000000E10    1.283972888595465E-1   1.118733651030284E2   3.688179466507692E-1   1.334892014535541E2   3.687350744519965E-1   1.379223878384943E2   4.322985493424437E-1   2.720611664499474E1  
 6.765000000000000E10    1.780234968172881E-2   3.526673199451677E1   3.722388750375593E-1   8.981090894541433E1   3.729820910520767E-1   9.434981594278189E1   4.142028635227419E-1   1.519391545670990E1  
 6.770000000000000E10    1.031238072387887E-1  -1.329882240817679E2   3.707590616287638E-1   4.628767493319499E1   3.709438697589994E-1   5.074624040836858E1   4.195198464625122E-1   2.904732425831229  
 6.775000000000000E10    1.802283538533905E-1  -1.735757977243985E2   3.658463542379930E-1   3.796755763686493   3.668393285276803E-1   8.081931178827166   4.304890458003585E-1  -1.269693997766451E1  
 6.780000000000000E10    2.035924227207301E-1   1.501797410835132E2   3.667636970009950E-1  -3.828204079205573E1   3.673673346190682E-1  -3.390700216661886E1   4.204271868856386E-1  -2.984302271623065E1  
 6.785000000000000E10    1.709925407188017E-1   1.168777137576374E2   3.737469210555794E-1  -8.078497342130821E1   3.742719911343722E-1  -7.627359258947527E1   3.862560958625472E-1  -4.537511387280360E1  
 6.790000000000000E10    9.904697733852201E-2   9.452807799896405E1   3.797480657177623E-1  -1.243604760409957E2   3.809432345688761E-1  -1.197760062071761E2   3.520751192874768E-1  -5.538973344546090E1  
 6.795000000000000E10    6.575212399987462E-2   1.293642284151867E2   3.811747804610270E-1  -1.686050429803860E2   3.812712384767508E-1  -1.639926647412731E2   3.537381510609619E-1  -6.098826794243923E1  
 6.800000000000000E10    1.269595664022548E-1   1.270717534110129E2   3.735965634257577E-1   1.478563391132695E2   3.740677977401545E-1   1.523049262471885E2   3.942918075797763E-1  -7.005617241622269E1  
 6.805000000000000E10    1.697433534610978E-1   9.155251922513331E1   3.647254487354854E-1   1.053246859646381E2   3.655470912684443E-1   1.098070839080755E2   4.369381876768264E-1  -8.450838978927737E1  
 6.810000000000000E10    1.721089231967759E-1   4.721234672023956E1   3.611931005003511E-1   6.361278806650356E1   3.616787574059566E-1   6.813957109544765E1   4.550825459067038E-1  -1.005301451997694E2  
 6.815000000000000E10    1.459669110886605E-1  -6.454246007693073   3.622766364581035E-1   2.184034291361320E1   3.630781410672048E-1   2.623168036542718E1   4.569729302967668E-1  -1.155555429137740E2  
 6.820000000000000E10    1.156188223541253E-1  -7.580011036375198E1   3.653869344661077E-1  -2.064140764713344E1   3.665721337963747E-1  -1.626963391808626E1   4.511351561543229E-1  -1.284036771797425E2  
 6.825000000000000E10    1.058261970916509E-1  -1.524223010779810E2   3.673611703665837E-1  -6.346063132032860E1   3.670440758818735E-1  -5.911622681712906E1   4.495766643965767E-1  -1.399887256090956E2  
 6.830000000000000E10    1.047681758931469E-1   1.349531061274463E2   3.651193125752260E-1  -1.061828151210919E2   3.655455674910066E-1  -1.016699623755988E2   4.549202796209005E-1  -1.512379544328423E2  
 6.835000000000000E10    9.757085171876119E-2   6.484032037694742E1   3.641544843294560E-1  -1.485071756225347E2   3.648614832488442E-1  -1.439673651225018E2   4.564651266558760E-1  -1.631481108339139E2  
 6.840000000000000E10    8.595875570306422E-2  -1.045260199006907E1   3.653311537016968E-1   1.690956355895133E2   3.661936821566128E-1   1.737738283539466E2   4.518664311087980E-1  -1.742912790274113E2  
 6.845000000000000E10    8.104907957844694E-2  -8.712024641831739E1   3.671873293344989E-1   1.264006671384956E2   3.673284906681703E-1   1.310220955237683E2   4.429443047089527E-1   1.757066421772718E2  
 6.850000000000000E10    7.017041252416233E-2  -1.594634672058741E2   3.663271233508417E-1   8.328866839301249E1   3.679152295203528E-1   8.799984087343817E1   4.420150090453849E-1   1.674935706645353E2  
 6.855000000000000E10    4.275245841202203E-2   1.073006234044238E2   3.626063811972560E-1   4.014130194368860E1   3.635753254590602E-1   4.480766637468405E1   4.572495883492011E-1   1.594480637416194E2  
 6.860000000000000E10    7.249277718120416E-2  -1.815148574806776E1   3.556169864414674E-1  -2.174677776993675   3.559707001377427E-1   2.293559070222290   4.828179210254668E-1   1.499495326816692E2  
 6.865000000000000E10    1.478037090480212E-1  -8.213622782556166E1   3.476410543674335E-1  -4.395883587447116E1   3.486320974273138E-1  -3.933860514811452E1   5.093674093652292E-1   1.383546554279047E2  
 6.870000000000000E10    2.105404650811142E-1  -1.298767821887648E2   3.447547789027202E-1  -8.486232752577975E1   3.444673066949340E-1  -8.023593345730409E1   5.203455802351079E-1   1.254208421249266E2  
 6.875000000000000E10    2.337526306681345E-1  -1.726326534671715E2   3.463971767685184E-1  -1.254331586810294E2   3.469097103687696E-1  -1.210550752850634E2   5.116279237533767E-1   1.123786127909823E2  
 6.880000000000000E10    2.022996192407535E-1   1.471982605284239E2   3.552165365214768E-1  -1.669339064532996E2   3.555783744437572E-1  -1.624487993720266E2   4.837620138695629E-1   1.008047437214178E2  
 6.885000000000000E10    1.161170563168560E-1   1.110193862165745E2   3.630403476929197E-1   1.504637433958191E2   3.638708385115011E-1   1.551449536967724E2   4.558856883716819E-1   9.238008528332479E1  
 6.890000000000000E10    2.629385234928644E-2   1.603505962165552E2   3.656760758311350E-1   1.071616675070583E2   3.667170288207278E-1   1.119276729405656E2   4.471039853747328E-1   8.568531741984116E1  
 6.895000000000000E10    1.156736242009940E-1  -1.753627091310788E2   3.637509239345197E-1   6.436583266160487E1   3.641055481065094E-1   6.906219077617396E1   4.587656369614661E-1   7.729029540028481E1  
 6.900000000000000E10    1.722544257854437E-1   1.507329292573460E2   3.614443842795924E-1   2.219581033705772E1   3.617371630363521E-1   2.695823167523193E1   4.688344956630273E-1   6.667006995883224E1  
 6.905000000000000E10    1.625985656283668E-1   1.154119890039037E2   3.619472438198043E-1  -1.980640566120531E1   3.634348267733052E-1  -1.503444803959346E1   4.615467831212085E-1   5.586365794265120E1  
 6.910000000000000E10    8.734940458152472E-2   8.604148389545830E1   3.637021261750726E-1  -6.242375854247342E1   3.640915326466069E-1  -5.769218731710719E1   4.498010169407332E-1   4.676140225085666E1  
 6.915000000000000E10    4.971710464193344E-2   1.714631860220459E2   3.595328778446966E-1  -1.052515805655252E2   3.599549160512087E-1  -1.005199767367252E2   4.588984534061822E-1   3.864908546739250E1  
 6.920000000000000E10    1.639302746961995E-1   1.594009576795193E2   3.508183422461890E-1  -1.474061257239081E2   3.513829976644549E-1  -1.427258951279222E2   4.857223806155674E-1   2.762795437848439E1  
 6.925000000000000E10    2.492014285852439E-1   1.271527456671489E2   3.440789496865847E-1   1.721786711274129E2   3.437767349046915E-1   1.767596851749053E2   5.060444598129877E-1   1.336235197310343E1  
 6.930000000000000E10    2.812702353321178E-1   9.361433087082166E1   3.447370118046092E-1   1.321158367334192E2   3.455535285565519E-1   1.368348438465499E2   4.970291571156034E-1  -2.574404869669845  
 6.935000000000000E10    2.534950684344919E-1   6.105127009506320E1   3.554832000462835E-1   9.146367188372545E1   3.561113135229532E-1   9.634235846396221E1   4.563555777483828E-1  -1.727808722975400E1  
 6.940000000000000E10    1.724739726973264E-1   3.312745008865777E1   3.692251208216762E-1   4.915862635769528E1   3.699132280460653E-1   5.417067646201076E1   4.019934952553432E-1  -2.798541032599579E1  
 6.945000000000000E10    8.574657740354123E-2   3.744878514932240E1   3.778211253886908E-1   5.781862429820900   3.781398545696535E-1   1.067210497577055E1   3.738752455998484E-1  -3.311451546201241E1  
 6.950000000000000E10    1.200645126537567E-1   6.691415324623202E1   3.760264148617379E-1  -3.762315454898076E1   3.768985842009433E-1  -3.273314656723711E1   3.899055635861573E-1  -3.896012933400613E1  
 6.955000000000000E10    1.789178235585979E-1   4.603052387253262E1   3.719235394749932E-1  -7.993257527407502E1   3.723650347315398E-1  -7.522139273948855E1   4.158318693117244E-1  -4.987954047733513E1  
 6.960000000000000E10    1.872216769936587E-1   1.425689015911885E1   3.703008585954144E-1  -1.217330763423523E2   3.715381966854401E-1  -1.171857028537027E2   4.234623386299076E-1  -6.289126654884822E1  
 6.965000000000000E10    1.374758895740564E-1  -1.750768671909053E1   3.722911419229494E-1  -1.637547560186479E2   3.733704342651724E-1  -1.592277102248135E2   4.121885467736697E-1  -7.441164805485369E1  
 6.970000000000000E10    4.872798103142337E-2  -2.428847502257569E1   3.723651564218439E-1   1.534605876534699E2   3.726117315116487E-1   1.580028367621680E2   4.105874222619396E-1  -8.318493621208786E1  
 6.975000000000000E10    8.984887580299135E-2   4.787253791461498E1   3.653903637776454E-1   1.107662384858907E2   3.659957689868150E-1   1.154490229050540E2   4.345162783713991E-1  -9.254279147761663E1  
 6.980000000000000E10    1.837754031953784E-1   2.115228411962068E1   3.562928358502730E-1   6.928162308344068E1   3.571241918774932E-1   7.396762034374578E1   4.662157098281825E-1  -1.053700024027759E2  
 6.985000000000000E10    2.431107208949151E-1  -1.308909078480571E1   3.512332744452006E-1   2.887563202527107E1   3.520803175417807E-1   3.381742443533538E1   4.804156411217520E-1  -1.210212437986322E2  
 6.990000000000000E10    2.526706955556310E-1  -4.791489902662015E1   3.549648656259392E-1  -1.120228007624004E1   3.558129518526705E-1  -6.170034473514994   4.634951819242352E-1  -1.372270318985820E2  
 6.995000000000000E10    2.135857676483357E-1  -8.089113162294632E1   3.660064354594236E-1  -5.224654191581024E1   3.669041325169037E-1  -4.717563482868324E1   4.192792801352191E-1  -1.511509597099631E2  
 7.000000000000000E10    1.337195512942395E-1  -1.045519432476953E2   3.772679550301419E-1  -9.452550830769222E1   3.780620457540677E-1  -8.950878522597090E1   3.692516528320640E-1  -1.597726275877892E2  
 7.005000000000000E10    8.064485939208758E-2  -8.255673652465637E1   3.818953226388762E-1  -1.375687977614151E2   3.825190197713882E-1  -1.328981887063043E2   3.534118505995102E-1  -1.634758716725203E2  
 7.010000000000000E10    1.424864143090348E-1  -7.307619882372278E1   3.784768322227890E-1   1.795733263777249E2   3.792412651629942E-1  -1.757176651280036E2   3.758962676970237E-1  -1.696788339763005E2  
 7.015000000000000E10    1.981070215974189E-1  -9.770605043462193E1   3.754025387461818E-1   1.375944091844918E2   3.753342545836437E-1   1.424069799015643E2   3.976201773323693E-1   1.791139858366300E2  
 7.020000000000000E10    2.006591378973396E-1  -1.271017958728556E2   3.748921957264279E-1   9.600500881738957E1   3.749344296016838E-1   1.008379183787545E2   3.952824547618855E-1   1.665647838206574E2  
 7.025000000000000E10    1.502334834422208E-1  -1.514439573978157E2   3.774480893588896E-1   5.389094595259747E1   3.773256504092060E-1   5.874230139477758E1   3.765499737015049E-1   1.567983087459984E2  
 7.030000000000000E10    9.158519338233610E-2  -1.418201278032526E2   3.762607932769352E-1   1.131354215047944E1   3.764182376737734E-1   1.608298321321495E1   3.736809916793656E-1   1.510304173149022E2  
 7.035000000000000E10    1.462264434852648E-1  -1.195073294517683E2   3.689384937545694E-1  -3.127027254508126E1   3.687387572245620E-1  -2.607873110400949E1   4.069234165587753E-1   1.436065654341948E2  
 7.040000000000000E10    2.342829591781328E-1  -1.382979929823592E2   3.579977997098415E-1  -7.263059014659307E1   3.585935120481495E-1  -6.708615434983236E1   4.469990530759153E-1   1.307019142220465E2  
 7.045000000000000E10    2.844053993892230E-1  -1.659738433837065E2   3.534902157470022E-1  -1.124200906576403E2   3.539175134396126E-1  -1.069483257657789E2   4.625095367723869E-1   1.143753549533800E2  
 7.050000000000000E10    2.810518820874544E-1   1.656675428286731E2   3.581146310728210E-1  -1.522179007645481E2   3.584617989431853E-1  -1.467695018737891E2   4.398863296312617E-1   9.773969763909382E1  
 7.055000000000000E10    2.229629957159335E-1   1.408721395036690E2   3.697366385538380E-1   1.668121045008065E2   3.705268504936027E-1   1.721777020785536E2   3.838112184559662E-1   8.405179534660816E1  
 7.060000000000000E10    1.415166868604846E-1   1.338723187097640E2   3.812167476456960E-1   1.245764886373577E2   3.812132065042889E-1   1.297973561559785E2   3.323205041299646E-1   7.762087325042565E1  
 7.065000000000000E10    1.383472450604124E-1   1.556013833168845E2   3.834379482909445E-1   8.157771653594843E1   3.834078540642908E-1   8.677012910057103E1   3.265182893934627E-1   7.546109852779225E1  
 7.070000000000000E10    2.021819785495744E-1   1.499343803209428E2   3.796895933677074E-1   3.916395286138977E1   3.797382308186810E-1   4.445483228607456E1   3.517815252493207E-1   6.749814482065857E1  
 7.075000000000000E10    2.365248072705799E-1   1.287459750067795E2   3.780136558778476E-1  -2.158940075287896   3.782148392399825E-1   2.904346433587016   3.586866475939264E-1   5.431972278284700E1  
 7.080000000000000E10    2.175080695254956E-1   1.079648212613760E2   3.801762163354505E-1  -4.374660912005425E1   3.808313199698888E-1  -3.864868526000816E1   3.331396023411692E-1   4.171711508319856E1  
 7.085000000000000E10    1.690364061784277E-1   9.954388220186705E1   3.828324892678730E-1  -8.623115387965311E1   3.830029279289371E-1  -8.084954169827816E1   2.994015551655472E-1   3.629052238051003E1  
 7.090000000000000E10    1.710531658184654E-1   1.086928487346219E2   3.788219463781975E-1  -1.291892774912694E2   3.796606463447872E-1  -1.234407733736977E2   3.147618645758600E-1   3.484563921980804E1  
 7.095000000000000E10    2.355108275982622E-1   1.023861427346247E2   3.684674830072569E-1  -1.709423211835516E2   3.689135726088481E-1  -1.652681281939300E2   3.708973252984931E-1   2.574988274288753E1  
 7.100000000000000E10    2.917787711287823E-1   8.115078052679652E1   3.586663498343859E-1   1.486260329461969E2   3.588969994354109E-1   1.542320119818677E2   4.163283767020476E-1   8.841101847195453  
 7.105000000000000E10    3.041622481194057E-1   5.557253125892960E1   3.573984894246173E-1   1.091434483702311E2   3.577421687461920E-1   1.146205561779482E2   4.252528101898326E-1  -1.074709735666969E1  
 7.110000000000000E10    2.673245914559199E-1   2.897668454388482E1   3.657528431914109E-1   6.927034987851398E1   3.651577992133923E-1   7.455836290903714E1   3.944478837409010E-1  -2.964741548148041E1  
 7.115000000000000E10    1.909391336803998E-1   6.979383331974692   3.767849963851184E-1   2.814769856567592E1   3.779071550343047E-1   3.338232274559250E1   3.380126852002132E-1  -4.474621687607541E1  
 7.120000000000000E10    1.103239644412349E-1   7.638829331477662   3.864065762646561E-1  -1.424698070272102E1   3.870617360812773E-1  -9.088020279182183   2.936808492293176E-1  -5.197708807413255E1  
 7.125000000000000E10    1.227950859933060E-1   3.310652823791193E1   3.890083781380839E-1  -5.695277481349640E1   3.886375149003115E-1  -5.190153905934026E1   2.907722756760349E-1  -5.690045713923013E1  
 7.130000000000000E10    1.767760556093880E-1   2.408646738492466E1   3.864177144997898E-1  -9.903748124903861E1   3.865183621130301E-1  -9.414575199070906E1   3.051704364323033E-1  -6.739667975653038E1  
 7.135000000000000E10    1.988437639141610E-1   3.623883054167925   3.848931954584999E-1  -1.407812108828018E2   3.858900949740566E-1  -1.357120160179750E2   2.981547683684834E-1  -8.082490111050211E1  
 7.140000000000000E10    1.808844882703401E-1  -1.340073728635657E1   3.861854366567519E-1   1.770898706073361E2   3.870377583624588E-1  -1.776119892549505E2   2.683931686213199E-1  -9.051111357544838E1  
 7.145000000000000E10    1.629219169773744E-1  -1.645664261936643E1   3.837834969620894E-1   1.344538867532454E2   3.853747543058376E-1   1.399311692475477E2   2.556521704180368E-1  -9.099457258437333E1  
 7.150000000000000E10    1.987189324593382E-1  -1.676926344414394E1   3.758171401219899E-1   9.199971355302509E1   3.761473543924314E-1   9.750896437419598E1   3.008375855280351E-1  -9.244867815709387E1  
 7.155000000000000E10    2.647337855545064E-1  -3.267154234161513E1   3.619838044512616E-1   5.083006180729372E1   3.629498228721899E-1   5.615761277423290E1   3.719239914332303E-1  -1.041658683805244E2  
 7.160000000000000E10    3.097429788192484E-1  -5.717951376287297E1   3.522554625508323E-1   1.100965467033984E1   3.532148018502089E-1   1.625784208786497E1   4.238493422565911E-1  -1.221485648297132E2  
 7.165000000000000E10    3.166242877967024E-1  -8.451337045045439E1   3.506393031345501E-1  -2.803805793976306E1   3.512276316275222E-1  -2.288657139928906E1   4.357400377731165E-1  -1.415842151004673E2  
 7.170000000000000E10    2.779450874315088E-1  -1.117370450473697E2   3.585765312144835E-1  -6.743910164518535E1   3.596175097911315E-1  -6.241358239513262E1   4.078443618622521E-1  -1.596812566562470E2  
 7.175000000000000E10    2.000317589152117E-1  -1.342153355462199E2   3.717283170786092E-1  -1.084577630514199E2   3.719262845180580E-1  -1.033205118640532E2   3.532783801121098E-1  -1.731419078323128E2  
 7.180000000000000E10    1.194047450546141E-1  -1.343007367680107E2   3.817416442509390E-1  -1.505637845078311E2   3.821361858919631E-1  -1.455515267789266E2   3.092919298263693E-1  -1.787380819595425E2  
