#  HZ   S   MA   R     50.00 
! Rohde & Schwarz ZVA67 4Ports - Version 4.11 - 1305.7002k04 SN: 101051
! Date: 2023-05-31 12:43:38
! Measurements: S11 S21 S12 S22 
! 
 5.000000000000000E7     1.934013963471043E-2   1.649870185569166E1   9.838234529797652E-1  -7.215777002509997   9.904359012082654E-1  -7.443584536543755   2.157969654894482E-2  -3.624099713156503  
 1.000000000000000E8     1.650120453888954E-2  -1.339879376938336E1   9.839800944719643E-1  -1.440993853336178E1   9.851422521284358E-1  -1.460646672291635E1   1.739130745627176E-2  -1.201748124880297E1  
 1.500000000000000E8     2.167396433380458E-2  -1.419926518058251E1   9.815700472947249E-1  -2.157630274376769E1   9.866697022868231E-1  -2.173358839545461E1   2.293823305076478E-2  -2.158938925127848E1  
 2.000000000000000E8     2.083929892328208E-2  -1.824834119693750E1   9.834419809985432E-1  -2.862892114227225E1   9.860400033917571E-1  -2.911446218603253E1   2.288689424911506E-2  -2.162448279944908E1  
 2.500000000000000E8     2.349527574917098E-2  -2.222250395594144E1   9.824477483688608E-1  -3.603262148530551E1   9.823822318245770E-1  -3.613430407058579E1   2.672768895760138E-2  -2.889089012908762E1  
 3.000000000000000E8     2.675027552343672E-2  -3.275607905104859E1   9.832098088263389E-1  -4.323547611042959E1   9.805369766146795E-1  -4.342479153317316E1   3.031252004637498E-2  -3.513046899773148E1  
 3.500000000000000E8     2.843848671510308E-2  -4.021617882861317E1   9.825362601092756E-1  -5.045406248989634E1   9.809654807255739E-1  -5.056468842584091E1   3.114846912055360E-2  -4.091069038478026E1  
 4.000000000000000E8     3.152287385026081E-2  -4.644241547850866E1   9.805646848111078E-1  -5.761556023147313E1   9.807516597436189E-1  -5.787917908740190E1   3.558430936623885E-2  -4.540089190021067E1  
 4.500000000000000E8     3.032786204869442E-2  -5.038803377331384E1   9.795104027228163E-1  -6.483294643190163E1   9.795411236030568E-1  -6.505451346831092E1   3.811044389023002E-2  -5.324335213312226E1  
 5.000000000000000E8     3.094330409121968E-2  -6.014740612930343E1   9.793414691402024E-1  -7.208902929203001E1   9.803680947731125E-1  -7.218914523920422E1   3.852586324206538E-2  -6.378933873712655E1  
 5.500000000000000E8     2.777161070609281E-2  -6.838578111473387E1   9.790533108184665E-1  -7.925230401454014E1   9.788909585478104E-1  -7.944749667698085E1   3.984263558297268E-2  -7.131279207999334E1  
 6.000000000000000E8     2.563107050136711E-2  -8.178348622486851E1   9.791696001885644E-1  -8.647360012844463E1   9.789217986174117E-1  -8.665167896433582E1   4.133697447684181E-2  -8.194641589896887E1  
 6.500000000000000E8     2.342202878520983E-2  -8.677113831486862E1   9.779961045612707E-1  -9.357787349571099E1   9.784865538784570E-1  -9.390506351863743E1   4.396706020850213E-2  -9.434975582835466E1  
 7.000000000000000E8     1.883457736194995E-2  -1.055312531468368E2   9.784847605636921E-1  -1.008014575319010E2   9.777225334713159E-1  -1.010978962116857E2   4.282367525945804E-2  -1.075928303201742E2  
 7.500000000000000E8     1.319825515370606E-2  -1.175278437804414E2   9.771053179939835E-1  -1.080134908336350E2   9.771466319384385E-1  -1.082784664644332E2   4.179081884718684E-2  -1.201191976098633E2  
 8.000000000000000E8     9.305507508071211E-3  -1.556437703723619E2   9.767327605947226E-1  -1.151877620589423E2   9.759720199206093E-1  -1.154109166035265E2   3.949920449697075E-2  -1.343883289171702E2  
 8.500000000000000E8     7.488042690643460E-3   1.743350285653342E2   9.764255700197974E-1  -1.224597812197560E2   9.755182202409958E-1  -1.226914083053512E2   4.140041893915947E-2  -1.475068884501632E2  
 9.000000000000000E8     8.616661659699394E-3   1.251373108026041E2   9.748806815617960E-1  -1.296117537851201E2   9.746375091006222E-1  -1.298758083095651E2   4.295247543897793E-2  -1.603102239469160E2  
 9.500000000000000E8     1.171966080545584E-2   1.122910385591534E2   9.742160774266493E-1  -1.367712586107359E2   9.737804122180231E-1  -1.370776507903674E2   4.310970895458390E-2  -1.703095716862352E2  
 1.000000000000000E9     1.471518260729380E-2   1.004445650869768E2   9.738301924796394E-1  -1.439519834465426E2   9.731150033910017E-1  -1.442895002993222E2   4.325727909969748E-2   1.786924803489070E2  
 1.050000000000000E9     1.618245256475517E-2   9.399392658394909E1   9.726364495782933E-1  -1.511701109084470E2   9.728933239455100E-1  -1.514953961761802E2   4.262430447951522E-2   1.718690133126081E2  
 1.100000000000000E9     1.754159006837416E-2   8.455692485253503E1   9.724122657041745E-1  -1.583871035288802E2   9.720762086821116E-1  -1.586727523387537E2   4.217121511036753E-2   1.612727316130040E2  
 1.150000000000000E9     1.979321114804925E-2   7.713386329854218E1   9.714896256190884E-1  -1.655317622631883E2   9.706162170201390E-1  -1.658633957293091E2   4.057765137466229E-2   1.535263724667670E2  
 1.200000000000000E9     2.023474245103165E-2   7.239569135095286E1   9.711844932451837E-1  -1.727372913401618E2   9.706782024694742E-1  -1.730959255432898E2   3.950724614901349E-2   1.447316975926030E2  
 1.250000000000000E9     1.922207584420694E-2   6.880142244798387E1   9.707716893398199E-1  -1.799420907553397E2   9.702054927617763E-1   1.797442829287625E2   3.653992799534971E-2   1.436547644394451E2  
 1.300000000000000E9     1.759438093014491E-2   6.204751654242357E1   9.703690369282716E-1   1.728793812040211E2   9.699004122909263E-1   1.725308550758952E2   3.578578381278065E-2   1.405800308166123E2  
 1.350000000000000E9     1.725643122394540E-2   5.734258208678407E1   9.701718557819153E-1   1.657039115183397E2   9.698818597022482E-1   1.653587404674413E2   3.301424661318778E-2   1.388287703223007E2  
 1.400000000000000E9     1.426765998043746E-2   5.353080850105002E1   9.697472491756337E-1   1.585496299880591E2   9.690708466251706E-1   1.581715467991785E2   3.224905892671019E-2   1.377910841926764E2  
 1.450000000000000E9     1.227714282272661E-2   4.631387226377324E1   9.699891830652812E-1   1.513773521071879E2   9.692313252092899E-1   1.509581798576863E2   3.139150031634873E-2   1.401192800556640E2  
 1.500000000000000E9     9.411543457743980E-3   4.624993011966457E1   9.693075399139418E-1   1.441769591007545E2   9.695993126606946E-1   1.438085151100576E2   3.197438549563900E-2   1.415914678567219E2  
 1.550000000000000E9     6.525146338338601E-3   3.072586426998943E1   9.695327123358548E-1   1.370569314066769E2   9.689417323139532E-1   1.366222520728589E2   3.352662850071324E-2   1.446494162712809E2  
 1.600000000000000E9     3.414531630084042E-3   1.195498072327636E1   9.686464993046119E-1   1.298446407504426E2   9.686863144167280E-1   1.294691808419136E2   3.637195663159258E-2   1.439918006737423E2  
 1.650000000000000E9     2.627440809164850E-3  -8.003334930479711E1   9.685675718401845E-1   1.226916097183700E2   9.682929167870931E-1   1.223332885552380E2   3.923238801899678E-2   1.432749805789227E2  
 1.700000000000000E9     6.174541925099119E-3  -1.149378200091622E2   9.688230678567404E-1   1.155262059725670E2   9.681488693549943E-1   1.151387603355389E2   4.277166731640056E-2   1.410607054100155E2  
 1.750000000000000E9     1.246072900381535E-2  -1.230879162647153E2   9.685029224546906E-1   1.084310098411435E2   9.685821589563481E-1   1.079846586778051E2   4.596259227867060E-2   1.382882317597633E2  
 1.800000000000000E9     1.666173202595035E-2  -1.270676297275297E2   9.681766874584356E-1   1.012837386191072E2   9.685726725176403E-1   1.008774125780161E2   4.771554327925227E-2   1.340932953661137E2  
 1.850000000000000E9     2.207924406300434E-2  -1.314892563756400E2   9.692799065882334E-1   9.412132361401282E1   9.684151170682026E-1   9.367824144938396E1   4.898288679407090E-2   1.278549133348962E2  
 1.900000000000000E9     2.655355024867626E-2  -1.380094168401727E2   9.680186820906311E-1   8.701471348662471E1   9.684220841950191E-1   8.653805639686709E1   5.125662920885291E-2   1.237433116202746E2  
 1.950000000000000E9     3.193657017163163E-2  -1.434507847314223E2   9.681483276561121E-1   7.989786114771096E1   9.684642244522741E-1   7.943235448019931E1   5.266209107820511E-2   1.161309588359609E2  
 2.000000000000000E9     3.688651792696000E-2  -1.485841258137720E2   9.678286752536498E-1   7.277397643380269E1   9.683131404662148E-1   7.225880607331995E1   5.438613032629421E-2   1.084370791113225E2  
 2.050000000000000E9     4.188676614470428E-2  -1.521998908945610E2   9.689200375526184E-1   6.557103327032935E1   9.691944396975042E-1   6.511863257969682E1   5.445375175435117E-2   1.016053325704151E2  
 2.100000000000000E9     4.416040574349996E-2  -1.589575226626993E2   9.692857508389916E-1   5.847130540834927E1   9.685690339977744E-1   5.799937533256436E1   5.541116510882662E-2   9.627565083835306E1  
 2.150000000000000E9     4.764667992653332E-2  -1.644345307366117E2   9.691328793524207E-1   5.132505642049227E1   9.685661183399732E-1   5.082997717829210E1   5.694653663518118E-2   8.910895102085490E1  
 2.200000000000000E9     4.980044840138032E-2  -1.706041742936468E2   9.683595014922225E-1   4.420458120827638E1   9.693249151191639E-1   4.374454316918293E1   5.733104181758118E-2   8.312365037186541E1  
 2.250000000000000E9     4.961772655193336E-2  -1.773243899530312E2   9.685148720204797E-1   3.707051564979468E1   9.684280508777401E-1   3.649912682053065E1   5.824127996441864E-2   7.597411605277225E1  
 2.300000000000000E9     4.832175317266326E-2   1.742157510756949E2   9.677786467188440E-1   2.992168980617591E1   9.672387685846758E-1   2.943140368706390E1   6.159316207675315E-2   7.057870763036945E1  
 2.350000000000000E9     4.709487151080045E-2   1.659424734312425E2   9.676680577927709E-1   2.281724103395964E1   9.669444153540668E-1   2.226920738999793E1   6.396937773270971E-2   6.474017439085519E1  
 2.400000000000000E9     4.560583218181767E-2   1.560207131776780E2   9.674600336224297E-1   1.567566620021186E1   9.661582245828865E-1   1.518359789791016E1   6.761308112353913E-2   5.954930781740661E1  
 2.450000000000000E9     4.359974475095352E-2   1.469537530440497E2   9.665117722892431E-1   8.477160481705607   9.667075951062323E-1   8.000310357782453   6.840926168033192E-2   5.436231858009376E1  
 2.500000000000000E9     4.194578104627375E-2   1.335451307174155E2   9.670211050202142E-1   1.359363887470459   9.661627686653607E-1   8.769152416433093E-1   7.185309453902222E-2   4.945281913688110E1  
 2.550000000000000E9     3.960449022337744E-2   1.211837120796115E2   9.664734908474871E-1  -5.822076641829797   9.650934671690863E-1  -6.306893148292263   7.227509637327267E-2   4.410974602440902E1  
 2.600000000000000E9     4.070621127687959E-2   1.052291104119290E2   9.666735040515213E-1  -1.296125549016343E1   9.655267996317204E-1  -1.349113523430763E1   7.521128943217846E-2   3.856833048506162E1  
 2.650000000000000E9     4.086098051765024E-2   9.235474994501021E1   9.657729003133853E-1  -2.011242521100179E1   9.646665149868386E-1  -2.061599501294764E1   7.484657322399733E-2   3.252945202471732E1  
 2.700000000000000E9     4.340614860252919E-2   7.954150960904042E1   9.645993736595863E-1  -2.729056706562965E1   9.648121481745122E-1  -2.777008254328680E1   7.691208739834175E-2   2.652596926101356E1  
 2.750000000000000E9     4.593940935116340E-2   6.708894430672652E1   9.649694608665367E-1  -3.446240996286998E1   9.640507290425240E-1  -3.495677324674298E1   7.706755638658470E-2   2.031654813910448E1  
 2.800000000000000E9     4.978036004293441E-2   5.525097854561174E1   9.646145462599192E-1  -4.165746896690750E1   9.637110280047668E-1  -4.216384573696298E1   7.750884721096324E-2   1.344721541640466E1  
 2.850000000000000E9     5.356506894505122E-2   4.521234093951181E1   9.648373537971879E-1  -4.884068772597682E1   9.635842422791772E-1  -4.933835058272078E1   7.670494027676587E-2   6.292584161211537  
 2.900000000000000E9     5.803117492561491E-2   3.693952816621164E1   9.644021776607171E-1  -5.601447041428670E1   9.639786262993199E-1  -5.651447457866885E1   7.656201594905325E-2  -1.203493195226661  
 2.950000000000000E9     5.787615898287125E-2   2.693533177843979E1   9.635054372385958E-1  -6.321283894146728E1   9.639660651392583E-1  -6.372301027129665E1   7.488704590861420E-2  -8.846959815066038  
 3.000000000000000E9     5.999966851732382E-2   1.831038844023519E1   9.642280261912829E-1  -7.037520630059365E1   9.636962478839602E-1  -7.098420369769471E1   7.321037574001586E-2  -1.578584643876524E1  
 3.050000000000000E9     5.967039360614770E-2   1.036880205294016E1   9.639107539870486E-1  -7.759951988487542E1   9.640440814726700E-1  -7.821462174529445E1   7.035771674242858E-2  -2.456479931519149E1  
 3.100000000000000E9     6.153001600525765E-2   2.479199383495566   9.638236702046138E-1  -8.476048852728739E1   9.631843092588553E-1  -8.543950213651861E1   6.846627724067701E-2  -3.167684931087969E1  
 3.150000000000000E9     5.871596678514911E-2  -4.541647375097478   9.630848618608159E-1  -9.196326842124707E1   9.626133955913276E-1  -9.262603739701139E1   6.429580665734526E-2  -3.927748524760779E1  
 3.200000000000000E9     5.748946436440820E-2  -1.229818825357561E1   9.628350121022314E-1  -9.914908334678158E1   9.631950641640210E-1  -9.978303333799772E1   6.075949600648378E-2  -4.734028393972553E1  
 3.250000000000000E9     5.442840169936259E-2  -2.061421570212640E1   9.623708638699791E-1  -1.062722239057737E2   9.625070520231553E-1  -1.070437026414540E2   5.620989622999501E-2  -5.603848543232119E1  
 3.300000000000000E9     4.865213710297962E-2  -2.914637888400675E1   9.622577515268985E-1  -1.134736538953702E2   9.627248239775978E-1  -1.141323721487970E2   5.119771484137955E-2  -6.558612434198649E1  
 3.350000000000000E9     4.479658095471860E-2  -3.888712642008461E1   9.624727431441840E-1  -1.205844051465081E2   9.631268073159576E-1  -1.212772638703819E2   4.642945849083639E-2  -7.465576077941904E1  
 3.400000000000000E9     3.881834453034708E-2  -4.772417462232912E1   9.623023458456472E-1  -1.276961031800410E2   9.626310784264651E-1  -1.285056568075587E2   4.162215708085414E-2  -8.371669137569651E1  
 3.450000000000000E9     3.348317789146343E-2  -6.050841861453046E1   9.631082184368017E-1  -1.348981544387512E2   9.640214353166533E-1  -1.356801555944194E2   3.636992120026920E-2  -9.491109008024296E1  
 3.500000000000000E9     2.867332587031850E-2  -7.308168359551922E1   9.645657837093457E-1  -1.419939903466929E2   9.661545290284562E-1  -1.429752209380088E2   2.976817585442974E-2  -1.043139191809284E2  
 3.550000000000000E9     2.408117959069259E-2  -9.396296196178047E1   9.661211288495913E-1  -1.492528465006392E2   9.666464669872827E-1  -1.501810975702448E2   2.483929728330880E-2  -1.184077965140028E2  
 3.600000000000000E9     2.033632219800972E-2  -1.130352764717188E2   9.676100044813301E-1  -1.565056148271557E2   9.657926421953001E-1  -1.573803265428642E2   2.102176002676601E-2  -1.326771825825925E2  
 3.650000000000000E9     2.079316849682950E-2  -1.364367481118177E2   9.676068983289784E-1  -1.637142272995000E2   9.661578090460891E-1  -1.645342371175952E2   1.849162246030162E-2  -1.554051119021391E2  
 3.700000000000000E9     2.229548452093725E-2  -1.625238708043663E2   9.668694003286502E-1  -1.709529836910537E2   9.661572237576505E-1  -1.717467163141304E2   1.759308203677286E-2  -1.686405507486068E2  
 3.750000000000000E9     2.817698965384513E-2   1.769887639907128E2   9.666168726895520E-1  -1.781764344166954E2   9.659465412263417E-1  -1.789976668864993E2   1.541142289008522E-2   1.745805643908946E2  
 3.800000000000000E9     3.157537930064638E-2   1.585613542787942E2   9.658005574892729E-1   1.746764348692410E2   9.650567872157130E-1   1.738970696261409E2   1.351299574324596E-2   1.542712236785763E2  
 3.850000000000000E9     3.793079394315145E-2   1.457558195159050E2   9.650027017083642E-1   1.675075607173526E2   9.648663190295826E-1   1.667462913990952E2   1.429776101024839E-2   1.367563303583641E2  
 3.900000000000000E9     4.420988605751470E-2   1.342611935187581E2   9.642426668030325E-1   1.603523635906620E2   9.627076335904520E-1   1.595214205401173E2   1.519373513338220E-2   1.214070621758790E2  
 3.950000000000000E9     5.066145360469505E-2   1.263226531417457E2   9.629624026419185E-1   1.531227901785286E2   9.617166464395038E-1   1.523701541205324E2   1.603778095401988E-2   1.091732222242780E2  
 4.000000000000000E9     5.483679014867282E-2   1.170028607058092E2   9.625724942220429E-1   1.459736190436304E2   9.625997917657946E-1   1.451855741739668E2   1.694295039175016E-2   9.327474677777239E1  
 4.050000000000000E9     5.834937279952872E-2   1.117850337912335E2   9.618648590207196E-1   1.389311637637778E2   9.624769860673956E-1   1.380172950543599E2   1.816942556031346E-2   8.283872700336237E1  
 4.100000000000000E9     6.046331485677397E-2   1.037034212031103E2   9.614954024574424E-1   1.316624554157207E2   9.619421082781525E-1   1.308383226929400E2   1.908774492434838E-2   6.914423948621253E1  
 4.150000000000000E9     6.269144427970462E-2   9.646803311643910E1   9.615344320857819E-1   1.245217482873495E2   9.613320426960788E-1   1.236393416003749E2   2.110451378031314E-2   5.897916189940767E1  
 4.200000000000000E9     6.259038029234297E-2   8.996422589375854E1   9.617243483719347E-1   1.173318565154748E2   9.612134809726470E-1   1.165104659328002E2   2.289345069840549E-2   4.882675150777261E1  
 4.250000000000000E9     6.215704255664720E-2   8.271976609131278E1   9.614475164809303E-1   1.101883698880532E2   9.606735004893370E-1   1.093366301241492E2   2.525727324905643E-2   4.199725960797206E1  
 4.300000000000000E9     6.118233077685516E-2   7.524982717496880E1   9.606667354980784E-1   1.029942405608279E2   9.600377412182258E-1   1.022046916657117E2   2.840543996755009E-2   3.798615067951045E1  
 4.350000000000000E9     6.110304413123876E-2   6.783876649544317E1   9.605868924633997E-1   9.589385847326432E1   9.600094669040760E-1   9.502345139426507E1   2.793481053702070E-2   3.209790403255494E1  
 4.400000000000000E9     6.013427823343892E-2   5.898100957214567E1   9.601169311123442E-1   8.870061683812104E1   9.590755290368264E-1   8.786446730707760E1   2.932451763318863E-2   2.710980843764898E1  
 4.450000000000000E9     5.843520600490403E-2   5.276839692042243E1   9.595039779009386E-1   8.159048877700025E1   9.591417414272172E-1   8.067933552093093E1   2.818006646938761E-2   2.175508478341683E1  
 4.500000000000000E9     5.790534305235823E-2   4.363713429515605E1   9.593547918158103E-1   7.442537055000389E1   9.577424353864710E-1   7.353086476976033E1   2.912651792233051E-2   1.639772265277409E1  
 4.550000000000000E9     5.644334015531487E-2   3.608718662837448E1   9.586474623473812E-1   6.722862012944027E1   9.588797010925938E-1   6.640482804670020E1   2.803979379212458E-2   1.370569161608543E1  
 4.600000000000000E9     5.404361984044608E-2   2.812672669595201E1   9.589269464556685E-1   6.011238467801707E1   9.592317557170242E-1   5.923501688378760E1   2.579448851735828E-2   7.901886410587477  
 4.650000000000000E9     5.094150686530663E-2   1.936401072857854E1   9.594647214794679E-1   5.297592855898700E1   9.598925040364149E-1   5.208221898904112E1   2.593011919526667E-2   1.024320394385426E1  
 4.700000000000000E9     4.922779273019004E-2   1.276638336599751E1   9.601876113259368E-1   4.583721829900607E1   9.594999283428963E-1   4.492076967274187E1   2.307763812955726E-2   1.296642988311976E1  
 4.750000000000000E9     4.682578584570516E-2   4.445229358953433   9.609739909631553E-1   3.872410704424772E1   9.603492136955335E-1   3.777601176325634E1   2.084740024695538E-2   1.527146648394739E1  
 4.800000000000000E9     4.582035499262072E-2  -1.609709692149829   9.618081056731317E-1   3.157342402188239E1   9.604459083654425E-1   3.065033271640161E1   1.951762043328554E-2   1.880220582594379E1  
