#  HZ   S   MA   R     50.00 
! Rohde & Schwarz ZVA67 4Ports - Version 4.11 - 1305.7002k04 SN: 101051
! Date: 2023-05-31 11:54:00
! Measurements: S11 S21 S12 S22 
! 
 5.000000000000000E7     1.000936672741357  -6.829042913073986   2.220859853258829E-4   2.454825964185427E1   1.426215464203362E-4  -4.241506815110192   9.989611948865675E-1  -6.978784068032214  
 1.000000000000000E8     9.985050649994175E-1  -1.355685036965603E1   6.972027780702519E-5  -1.308956126582071E2   1.861510058181680E-5  -1.706709321027635E2   1.006957716370138  -1.375808172191602E1  
 1.500000000000000E8     1.003801758934810  -2.053128121317705E1   1.180018896491945E-4   1.110014869884900E2   3.098527957957590E-5   1.591072763571414E2   1.005032026802019  -2.035400572373655E1  
 2.000000000000000E8     1.003429298272810  -2.733263994341680E1   1.884404479414245E-5  -1.756962966980834E2   2.376846451675850E-5   2.213169207833514E1   1.010306347854062  -2.728034263563402E1  
 2.500000000000000E8     1.004850789199920  -3.414299179266073E1   9.257047768425474E-5  -4.638276145874043E1   7.446051966975607E-5  -1.791277366738824E2   1.009887252528874  -3.420357376895765E1  
 3.000000000000000E8     1.007061986214210  -4.093040287216355E1   6.511307724642029E-5   2.230215942483036E1   6.039528863263717E-5   8.949327465244073   1.012268420302023  -4.106401477383177E1  
 3.500000000000000E8     1.009195570735439  -4.765477158336078E1   8.987141883472631E-5  -1.552763662835334E2   8.791226932177430E-5   1.089729430721527E2   1.011041606271343  -4.803111584862007E1  
 4.000000000000000E8     1.012535531491570  -5.420607320329732E1   5.226349625378864E-5   4.910421690576722E1   6.113848526894098E-5   5.706147230843245E1   1.015463963677230  -5.487120415802880E1  
 4.500000000000000E8     1.013043443637074  -6.097661626029081E1   8.614391292581936E-5   3.479723620220234E1   1.217861964094961E-4   7.424144153289244E1   1.016010120088985  -6.177788560985466E1  
 5.000000000000000E8     1.015460858866574  -6.783082150419867E1   2.194307165665930E-5   5.537781452976372   5.572925619141618E-5  -1.693025776967875E1   1.015417579463797  -6.870176842165266E1  
 5.500000000000000E8     1.015009904598669  -7.461171649306365E1   6.509580542770228E-5   1.325619038975889E1   5.756238738175818E-5  -1.287888579156178E1   1.012395284027762  -7.575814252850900E1  
 6.000000000000000E8     1.015322005683108  -8.156441945655053E1   7.216260653333027E-5   1.853811466023729E1   8.226519503865990E-5  -1.379781652158760   1.011397727019410  -8.283383824838097E1  
 6.500000000000000E8     1.016257121183560  -8.845016620091187E1   8.756041218914255E-5  -4.465140110689506E1   7.129908968166133E-5  -1.216626736356828E1   1.010420225877186  -8.974011826221857E1  
 7.000000000000000E8     1.012556744220754  -9.548641306835333E1   5.676723438866476E-5   2.975608419639349   7.117416952270488E-5   2.128680018958438   1.008524498349458  -9.683952682663080E1  
 7.500000000000000E8     1.010161247395049  -1.026066329963799E2   9.691296466025503E-5   9.331385061561506E-1   8.627460857113826E-5  -1.627514689745355E1   1.002859291659082  -1.037613843132049E2  
 8.000000000000000E8     1.005251628491409  -1.096723827208188E2   7.470272529532017E-5  -4.686163852002830E1   7.897490723703865E-5  -1.235752852508199E1   9.981755407920835E-1  -1.108395807197924E2  
 8.500000000000000E8     1.002835912024462  -1.167766986204558E2   1.063047942355719E-4  -2.184691760558027E1   6.872056255430386E-5  -2.911405728864033E1   9.954585956887717E-1  -1.178157667744953E2  
 9.000000000000000E8     9.978588466774092E-1  -1.238657645296686E2   9.240328225264991E-5  -4.107208884375111E1   8.393616485639814E-5  -3.838286181771260E1   9.930255334053686E-1  -1.247471610917490E2  
 9.500000000000000E8     9.938099467382975E-1  -1.310484774566781E2   9.412782481611446E-5  -4.814215039817343E1   1.097283731710329E-4  -3.773267115286898E1   9.917123025890490E-1  -1.316209185434598E2  
 1.000000000000000E9     9.898632966004261E-1  -1.382470261387465E2   8.547368096306306E-5  -5.298793934357857E1   7.661238187543254E-5  -5.528118654286863E1   9.911051248847189E-1  -1.384788380669415E2  
 1.050000000000000E9     9.879616766593626E-1  -1.452156204884146E2   1.135420024612979E-4  -6.339623719835462E1   1.184421285822997E-4  -6.251306016111325E1   9.906727348076188E-1  -1.452947230018513E2  
 1.100000000000000E9     9.843481421026999E-1  -1.523351329061393E2   1.303078564763119E-4  -6.201994625479149E1   1.189391156023783E-4  -7.390748905685574E1   9.892375269214816E-1  -1.521110957729194E2  
 1.150000000000000E9     9.821279149985238E-1  -1.593424261976735E2   1.341180348185352E-4  -7.364982234436688E1   1.234323967243838E-4  -8.737335241873008E1   9.886362601136358E-1  -1.589280597859529E2  
 1.200000000000000E9     9.788586294524646E-1  -1.663585688100798E2   1.460673713519523E-4  -8.651724246975105E1   1.333296531102860E-4  -8.825829363123391E1   9.881217390135506E-1  -1.657020884463551E2  
 1.250000000000000E9     9.788037688267508E-1  -1.731604917655166E2   1.319125093864690E-4  -9.831265866930661E1   1.794780256039021E-4  -1.013220807158260E2   9.884600229310250E-1  -1.724140598847929E2  
 1.300000000000000E9     9.781269929100267E-1  -1.799817169516561E2   1.649281636776746E-4  -9.430667228322946E1   1.361348324733332E-4  -1.089043258793113E2   9.897403621398161E-1  -1.791253309981729E2  
 1.350000000000000E9     9.771942227475222E-1   1.731950762131553E2   1.617229057812154E-4  -1.056630667564291E2   1.960746544585060E-4  -1.059479441608381E2   9.898871584238890E-1   1.741977887113685E2  
 1.400000000000000E9     9.773161447704771E-1   1.664950839716167E2   1.841636606090004E-4  -1.180887287421145E2   1.836615712928199E-4  -1.136465437062897E2   9.903076236682614E-1   1.674866801602766E2  
 1.450000000000000E9     9.775293381084420E-1   1.598415856012567E2   2.058934454623566E-4  -1.249819294470138E2   1.993529154223711E-4  -1.178007838427287E2   9.917549839617001E-1   1.608501734370185E2  
 1.500000000000000E9     9.797931170068360E-1   1.532125812589395E2   2.126596872253191E-4  -1.282252227311863E2   2.216044701583816E-4  -1.331421119779678E2   9.927664573459926E-1   1.541568474739694E2  
 1.550000000000000E9     9.796983855114887E-1   1.466844868108724E2   2.873680604298248E-4  -1.392250811439630E2   2.558953325320120E-4  -1.402959549419704E2   9.928354415870120E-1   1.475142426957228E2  
 1.600000000000000E9     9.808543539855201E-1   1.400981282016598E2   3.076284951718556E-4  -1.529459171559402E2   2.709828906919510E-4  -1.524881447918517E2   9.924851692587570E-1   1.408348037849539E2  
 1.650000000000000E9     9.819913340202577E-1   1.335479715432164E2   3.242759032235259E-4  -1.662675454716184E2   3.432141816740257E-4  -1.636677747018759E2   9.930834168617927E-1   1.342183469106344E2  
 1.700000000000000E9     9.833747364414455E-1   1.270362791445747E2   4.270025320025218E-4  -1.787070896932793E2   4.066721723250365E-4  -1.790448803321149E2   9.919378991800628E-1   1.275666205133236E2  
 1.750000000000000E9     9.831322203099501E-1   1.205808447817551E2   4.692706002582420E-4   1.617040667477865E2   4.363086594309672E-4   1.581055636684348E2   9.909757165045205E-1   1.209264178232767E2  
 1.800000000000000E9     9.820649900505797E-1   1.140753742292188E2   4.524194906555548E-4   1.345897619348488E2   4.546840643154747E-4   1.361585583355553E2   9.889541161174767E-1   1.142336059181277E2  
 1.850000000000000E9     9.812958994304792E-1   1.074082712266461E2   4.262871090228885E-4   1.125705733386338E2   4.193425367703851E-4   1.132842570618639E2   9.872633184614816E-1   1.075242590946771E2  
 1.900000000000000E9     9.800156664930364E-1   1.008832516008517E2   3.944822790401769E-4   9.123368257596162E1   3.308538495348055E-4   9.620049297959699E1   9.849060413460529E-1   1.009103646645491E2  
 1.950000000000000E9     9.801828520268905E-1   9.425335728668964E1   2.596297672530339E-4   8.272365709705061E1   2.775525004851452E-4   8.823270830237838E1   9.820838444283584E-1   9.417802629407471E1  
 2.000000000000000E9     9.786703255400860E-1   8.756411323294364E1   2.671425911629797E-4   8.540100981639219E1   2.540501693494185E-4   7.781623973845444E1   9.808758033394597E-1   8.750996467785939E1  
 2.050000000000000E9     9.765181121880644E-1   8.069000425302353E1   2.562499300052811E-4   7.655173603483763E1   2.708895088439727E-4   7.416144593995026E1   9.797381756553082E-1   8.082455539866571E1  
 2.100000000000000E9     9.749688993284735E-1   7.389919043658748E1   2.282744134780342E-4   5.503409044621093E1   2.196737264816538E-4   6.156530009293125E1   9.789835916092439E-1   7.423313824334976E1  
 2.150000000000000E9     9.739261661116596E-1   6.709116746329498E1   2.269887865700403E-4   5.997586069126184E1   2.130806774510791E-4   5.686154674333515E1   9.766285607578407E-1   6.753009824500903E1  
 2.200000000000000E9     9.717389127515670E-1   6.024581312217871E1   2.257170940524038E-4   5.451177239745276E1   1.944334997917595E-4   5.472611495059435E1   9.762589470566766E-1   6.098579555300854E1  
 2.250000000000000E9     9.707320195914053E-1   5.325317267044006E1   2.165250441268743E-4   4.308981346802122E1   2.179856844283806E-4   4.245294252523431E1   9.753050488484946E-1   5.431712695649810E1  
 2.300000000000000E9     9.706839316587363E-1   4.635264307410191E1   2.895663382962531E-4   2.061658775249099E1   2.526994959397949E-4   2.271134157706797E1   9.760523862759587E-1   4.774123331685612E1  
 2.350000000000000E9     9.707442331323308E-1   3.941393744758086E1   2.041544590893772E-4   4.062780226376498   2.009817808890077E-4   3.446992361335012   9.768931775455891E-1   4.123520249413058E1  
 2.400000000000000E9     9.725294816955035E-1   3.261766768950402E1   1.437054601188886E-4   2.014233286730064E-1   1.612382373612484E-4  -2.161304474030228   9.771212129876208E-1   3.466440878936930E1  
 2.450000000000000E9     9.734171801897520E-1   2.559177096358858E1   1.865318493362295E-4  -1.191869848401479E1   1.459709291668255E-4  -4.679554892630260   9.776032695529319E-1   2.812752996722717E1  
 2.500000000000000E9     9.769461755767205E-1   1.879550946104984E1   1.266119703608810E-4  -2.861366844218689E1   1.530654899087486E-4  -4.320185875269338E1   9.777634774024832E-1   2.168408864056646E1  
 2.550000000000000E9     9.789673103767340E-1   1.184355224285458E1   1.237629549758975E-4  -7.104964035253191E1   5.343542838073983E-5  -8.241131516035233E1   9.775950861780333E-1   1.511874058587349E1  
 2.600000000000000E9     9.829364384704373E-1   5.053686379125809   7.301557276610023E-5  -4.534291938418091E1   6.240478179739724E-5  -3.011764668660909E1   9.761170138710910E-1   8.662142950751630  
 2.650000000000000E9     9.856639173873456E-1  -1.708851461952730   2.870517610791807E-5  -4.658216458158540E1   3.458853800598505E-5  -7.853664582085661E1   9.749628547868090E-1   2.108189031911718  
 2.700000000000000E9     9.892948013382378E-1  -8.550254979711083   2.020785812012581E-5   1.454700709089131E2   4.935154312796836E-5   3.518476970711684E1   9.746357386819783E-1  -4.459425056743536  
 2.750000000000000E9     9.920621119351682E-1  -1.526782984626610E1   3.487819856354432E-5   2.529383235774688E1   3.958273399740341E-5   8.887158069201270E1   9.734203253805264E-1  -1.104381002982158E1  
 2.800000000000000E9     9.949604422721919E-1  -2.207659808096430E1   9.933399082591561E-5   6.474191384731206E1   9.049610876642292E-5   7.092527103125326E1   9.722065820642811E-1  -1.764551261406225E1  
 2.850000000000000E9     9.988615533778525E-1  -2.875988390806407E1   1.351223305528887E-4   3.365400724047419E1   1.138143556591572E-4   2.202651671345992E1   9.727939084029035E-1  -2.421834489977228E1  
 2.900000000000000E9     9.986606939084556E-1  -3.560039278954076E1   1.343577902922870E-4   1.256902854751613E1   1.794813667633911E-4   6.967518851689629   9.733094875491355E-1  -3.078722419611594E1  
 2.950000000000000E9     1.001522236635391  -4.248885629743531E1   1.752025150851682E-4   1.182251029420811E1   1.673767543914104E-4  -9.859698281117730   9.725672926303258E-1  -3.735703401571901E1  
 3.000000000000000E9     1.000617386939964  -4.936540746116175E1   2.168278302191760E-4  -2.188837762499576E1   2.258366712629365E-4  -9.961330441977445   9.720260868193523E-1  -4.402072512081509E1  
 3.050000000000000E9     1.001619187950531  -5.635160802670391E1   2.252430331264122E-4  -4.548970507819957E1   2.046267931212322E-4  -3.790830374723102E1   9.725261184846600E-1  -5.073750954852078E1  
 3.100000000000000E9     1.001202562022666  -6.327931995830613E1   1.676481586452962E-4  -6.858821435309213E1   1.756578134525422E-4  -6.979699872925551E1   9.722500071644142E-1  -5.735000093538483E1  
 3.150000000000000E9     9.999057808211971E-1  -7.036579600117869E1   1.314664765455793E-4  -6.073521075914822E1   1.691571243317629E-4  -6.725422054989440E1   9.721972895439753E-1  -6.401900174371573E1  
 3.200000000000000E9     9.987222232539881E-1  -7.734361363929465E1   1.973748772695562E-4  -6.698598191543370E1   1.644109774149052E-4  -8.211395872816814E1   9.726902440421001E-1  -7.078539629195502E1  
 3.250000000000000E9     9.970109957776718E-1  -8.441260790845455E1   1.681987271490139E-4  -9.602237457161375E1   2.138167124394969E-4  -9.146465824402632E1   9.740300985155453E-1  -7.757246753458340E1  
 3.300000000000000E9     9.956853534994887E-1  -9.157140316689787E1   1.263372984227403E-4  -9.124393443140916E1   1.869001386381795E-4  -1.002038077187670E2   9.751848361626052E-1  -8.439183550538979E1  
 3.350000000000000E9     9.938550475516847E-1  -9.872240416838127E1   1.651402730040530E-4  -1.012603658114418E2   1.941083973775952E-4  -9.899241667537065E1   9.744225510805180E-1  -9.117106886488764E1  
 3.400000000000000E9     9.910830611106025E-1  -1.059406617554517E2   1.778730871538892E-4  -1.244886616426594E2   1.720618668559301E-4  -1.173562848109878E2   9.764857405041981E-1  -9.804490062538119E1  
 3.450000000000000E9     9.893219107587149E-1  -1.131431200713489E2   1.667411861855045E-4  -1.402616849242053E2   2.229346715062681E-4  -1.301732405586062E2   9.774946850610129E-1  -1.049913085046345E2  
 3.500000000000000E9     9.873585528209281E-1  -1.203363596974843E2   1.263631106903874E-4  -1.472590068453286E2   1.892867765466815E-4  -1.684479079352133E2   9.797535242465739E-1  -1.119554934482832E2  
 3.550000000000000E9     9.885156742219038E-1  -1.276557153122054E2   1.255975125985160E-4   1.784864384653456E2   1.265570456613237E-4   1.764731864432291E2   9.800663867269931E-1  -1.189828835138242E2  
 3.600000000000000E9     9.879423281944055E-1  -1.347728228617426E2   6.567342413418912E-5   1.609658186354473E2   9.497504406861493E-5  -1.664981244689584E2   9.797830373517269E-1  -1.261173550105421E2  
 3.650000000000000E9     9.865022868554678E-1  -1.421976023234099E2   7.618636641501692E-5  -1.708746487581523E2   1.165242401371223E-4  -1.779022599245315E2   9.824959249541018E-1  -1.329895183340345E2  
 3.700000000000000E9     9.859416287322332E-1  -1.493630714467728E2   8.001028468949767E-5  -1.593915817435670E2   8.804639645688948E-5  -1.649609948658523E2   9.855622796184972E-1  -1.400237459653486E2  
 3.750000000000000E9     9.856285846119530E-1  -1.565737043301263E2   6.971086177980517E-5   1.644575236356729E2   3.618453970013332E-5  -1.744321652872980E2   9.880362056062649E-1  -1.469406584556363E2  
 3.800000000000000E9     9.865810705376805E-1  -1.637704039339013E2   6.166709138219272E-5  -1.725616374556283E2   9.342582954440823E-5  -1.600972734714049E2   9.866366477362731E-1  -1.540239636486488E2  
 3.850000000000000E9     9.869862521459881E-1  -1.708923403765902E2   3.447173497480036E-5  -1.478409714221664E2   7.312353411509208E-5  -1.785556738212148E2   9.891724160370629E-1  -1.611216630039839E2  
 3.900000000000000E9     9.872071651516913E-1  -1.781130873513065E2   1.377430611102087E-5   9.448738408014472E1   3.490699082600946E-5  -1.428394303599169E2   9.905577197441393E-1  -1.681299999614333E2  
 3.950000000000000E9     9.896124842965317E-1   1.749354715420917E2   6.127460961325695E-5  -1.691083614929530E2   5.017576729855861E-5  -1.579040598905435E2   9.914371719978165E-1  -1.752052569778900E2  
 4.000000000000000E9     9.910843399605194E-1   1.679663971915371E2   5.270537604782644E-5  -1.600464468393393E2   8.347752069087563E-5   1.328723930449160E2   9.926431523735634E-1   1.776249929172360E2  
 4.050000000000000E9     9.951220844679305E-1   1.610180632723410E2   7.374615552839474E-5   1.642035434550904E2   7.116145875033116E-5   1.750307305789459E2   9.925075424762972E-1   1.706596911719602E2  
 4.100000000000000E9     9.962359133072658E-1   1.541577951777860E2   4.396056267707021E-5  -1.733491086441526E2   6.728502250041937E-5   1.600795946525046E2   9.921915784676769E-1   1.636125587384404E2  
 4.150000000000000E9     9.983842148852652E-1   1.472924777080754E2   7.979324131090781E-5   1.620308113352995E2   5.086402716326942E-5   1.633074619241369E2   9.918411883252254E-1   1.564538559744412E2  
 4.200000000000000E9     1.000388864880226   1.403957800687498E2   3.420680871035148E-5   1.436612894194850E2   4.953145252327587E-5   1.415026846466775E2   9.917571506792399E-1   1.494024819249757E2  
 4.250000000000000E9     1.001047285074944   1.336048617683998E2   5.954323214059998E-5   1.521974698037511E2   6.038551068531840E-5   1.315516791559426E2   9.914260584117559E-1   1.422338574844254E2  
 4.300000000000000E9     1.002246259029030   1.267919190253384E2   4.565771363379542E-5   1.568787295667320E2   6.007477863959898E-5   1.405986510546611E2   9.926605342426369E-1   1.351456356477916E2  
 4.350000000000000E9     1.001892833399482   1.199221447762639E2   3.920870623389167E-5   1.188243461007262E2   5.931031185186675E-5   1.115974776300200E2   9.939236682390544E-1   1.280627734952928E2  
 4.400000000000000E9     1.002567702322321   1.130947192392216E2   1.324685253329225E-5   4.428713749129413E1   4.263093278765887E-5   8.871574284487301E1   9.945035150562033E-1   1.209624196816662E2  
 4.450000000000000E9     1.002227651183587   1.063399471392707E2   3.373128484548302E-5   9.106608522114632E1   2.653769895020472E-5   1.032372032457053E2   9.962294116719551E-1   1.140214624699070E2  
 4.500000000000000E9     1.000955199584125   9.946772622141320E1   2.208972025151601E-5   1.123291083937921E2   4.704054805508021E-5  -1.780794679191205E2   9.961375169999394E-1   1.069703113204085E2  
 4.550000000000000E9     1.000521302509459   9.270943863136020E1   4.502174388314592E-5   1.759205020083979E2   4.954121233976908E-5   1.379261494778706E2   9.975385360858957E-1   9.995612232875435E1  
 4.600000000000000E9     9.985766078477065E-1   8.594917916490401E1   3.105426563496652E-5   1.569491103931132E2   6.003017323337023E-5   1.205065912045100E2   9.976715155314789E-1   9.297216910348826E1  
 4.650000000000000E9     9.995554628213289E-1   7.921930101400014E1   3.424851777552432E-5   1.309226633487555E2   4.208249417482990E-5   1.481499032674469E2   9.996300925001636E-1   8.590696659502714E1  
 4.700000000000000E9     9.989630524848142E-1   7.247416165049714E1   5.363499473608475E-5   1.146808091494679E2   2.869664345608753E-5   9.474470967947531E1   1.000661957138399   7.915007360345530E1  
 4.750000000000000E9     9.996407499616365E-1   6.569308208694544E1   3.923847670097849E-5   9.854923006675600E1   4.750766526371150E-5   1.088117532754774E2   1.001083030803622   7.222622222402123E1  
 4.800000000000000E9     1.001578537895313   5.899120459999076E1   5.894924594033385E-5   6.842638779904058E1   4.259051494011735E-5   1.102061735467213E2   9.988131567535699E-1   6.545634851498021E1  
 4.850000000000000E9     1.002855834788476   5.240150461293969E1   3.073276574235282E-5   1.017243785309265E2   4.408067239385827E-5   1.174770980831693E2   9.975663991355800E-1   5.851967652693605E1  
