#  HZ   S   MA   R     50.00 
! Rohde & Schwarz ZVA67 4Ports - Version 4.11 - 1305.7002k04 SN: 101051
! Date: 2023-05-31 12:42:10
! Measurements: S11 S21 S12 S22 
! 
 5.000000000000000E7     9.451736671905098E-3   4.243230929156948E1   9.939628794087623E-1  -6.791353861114382   9.927460856474251E-1  -6.977263533507183   1.013460960254926E-2   1.407115795769602E1  
 1.000000000000000E8     6.292901789261099E-3  -1.855171455075783E1   9.952471311501081E-1  -1.401901781349157E1   9.966283859476172E-1  -1.402127231706950E1   6.265231444367173E-3  -1.788714971256684E1  
 1.500000000000000E8     1.133628079926025E-2  -1.277206999627016E1   9.910718591522320E-1  -2.083606183676382E1   9.933978784825829E-1  -2.096692014758878E1   1.170094874790854E-2  -2.957539218451410E1  
 2.000000000000000E8     1.025823273163791E-2  -1.313790118746335E1   9.926212211065648E-1  -2.766605635402899E1   9.949052995738430E-1  -2.805736852960383E1   1.248500573076341E-2  -2.268716920766563E1  
 2.500000000000000E8     1.282663773466847E-2  -1.667245423291923E1   9.924719796342737E-1  -3.480867003474060E1   9.929978274270910E-1  -3.496529975233555E1   1.605009659351918E-2  -3.208089515325668E1  
 3.000000000000000E8     1.593031066815202E-2  -3.125052595247503E1   9.919210870686668E-1  -4.178706837762293E1   9.912042934082127E-1  -4.197727346769428E1   1.977018496870663E-2  -3.588329827305124E1  
 3.500000000000000E8     1.800971078021187E-2  -3.885396252609791E1   9.921461869409087E-1  -4.873583044330298E1   9.908814637696268E-1  -4.888642326010159E1   2.064653834905803E-2  -4.112050990610522E1  
 4.000000000000000E8     2.165132753074892E-2  -4.526896967972272E1   9.903541055953030E-1  -5.561175595596939E1   9.907178877896734E-1  -5.585210250792556E1   2.504365914515609E-2  -4.395254845938949E1  
 4.500000000000000E8     2.094141976156030E-2  -4.768575924571767E1   9.903368249564609E-1  -6.264579083922010E1   9.896481392368699E-1  -6.281036065706547E1   2.771091784660175E-2  -5.193716196736643E1  
 5.000000000000000E8     2.118628112420564E-2  -5.955804254726269E1   9.896823080662290E-1  -6.965035040367945E1   9.906935770878593E-1  -6.975838389094291E1   2.779842285352008E-2  -6.442152734989361E1  
 5.500000000000000E8     1.843039458686042E-2  -7.013679333202995E1   9.883304959929784E-1  -7.653042381514609E1   9.891640479028850E-1  -7.675858074401046E1   2.905352151090679E-2  -7.234509889864955E1  
 6.000000000000000E8     1.657021224731513E-2  -8.746555636073614E1   9.890332526975070E-1  -8.353477776883325E1   9.881979944911081E-1  -8.375396989027422E1   3.109526761990014E-2  -8.427621774709810E1  
 6.500000000000000E8     1.494036205316706E-2  -9.191650866586076E1   9.879741122798814E-1  -9.044861503359267E1   9.881476794212124E-1  -9.071837531006523E1   3.432914245468520E-2  -9.683937759013126E1  
 7.000000000000000E8     1.134685216983980E-2  -1.224916699380810E2   9.874378078048722E-1  -9.741933731792554E1   9.877832945529591E-1  -9.767785441832531E1   3.383262000916013E-2  -1.125606102118764E2  
 7.500000000000000E8     7.471781106892039E-3  -1.533689815695502E2   9.872555646232322E-1  -1.043880494385749E2   9.869574345970431E-1  -1.046491129926915E2   3.385164755139033E-2  -1.264284217284166E2  
 8.000000000000000E8     9.858423724695054E-3   1.520319288810183E2   9.872895263632566E-1  -1.113153755128335E2   9.861647909402398E-1  -1.115475288900309E2   3.237057449004344E-2  -1.433371293488376E2  
 8.500000000000000E8     1.145232818575572E-2   1.294742298593568E2   9.867722079889387E-1  -1.183329520121030E2   9.851581861905393E-1  -1.186155185390088E2   3.525494040589468E-2  -1.563913366796001E2  
 9.000000000000000E8     1.617847742664489E-2   1.046219853087717E2   9.849298210377933E-1  -1.252528335740306E2   9.845431288763087E-1  -1.255365390723023E2   3.818554278401592E-2  -1.701230798248543E2  
 9.500000000000000E8     1.984721342489885E-2   9.907005798425638E1   9.845580562886843E-1  -1.322138289158246E2   9.841061737343889E-1  -1.324971905293633E2   3.924850142673262E-2   1.795887610482025E2  
 1.000000000000000E9     2.344470260783703E-2   9.118653109407386E1   9.838673219966314E-1  -1.391735778617876E2   9.834081732278621E-1  -1.394628780273750E2   4.052765823036698E-2   1.679435957214676E2  
 1.050000000000000E9     2.513754939324099E-2   8.601692990346571E1   9.834107347921552E-1  -1.461207020598898E2   9.833244332313639E-1  -1.464133854029725E2   4.027492603067324E-2   1.606256736408697E2  
 1.100000000000000E9     2.680934715640120E-2   7.805867948603736E1   9.825052936518407E-1  -1.530821809918878E2   9.826008194973273E-1  -1.533573913082618E2   4.120481986079864E-2   1.497271842000405E2  
 1.150000000000000E9     2.962076418992747E-2   7.154255702349296E1   9.825136449749906E-1  -1.600140574715199E2   9.816139574398002E-1  -1.603152548955035E2   4.049315711734970E-2   1.408589514770596E2  
 1.200000000000000E9     3.059814955961340E-2   6.692391107991726E1   9.817759944606077E-1  -1.669646013422371E2   9.813216350771667E-1  -1.673071322963068E2   4.022666418254719E-2   1.309480092345511E2  
 1.250000000000000E9     2.981264677553630E-2   6.219475260752466E1   9.808640804868910E-1  -1.739296650462057E2   9.805253809971249E-1  -1.742313691975397E2   3.658846943698581E-2   1.269883174016973E2  
 1.300000000000000E9     2.874002697372752E-2   5.546657166364880E1   9.807162728319698E-1   1.791364549289456E2   9.808002059615730E-1   1.787641191921875E2   3.523290772513023E-2   1.223991381884603E2  
 1.350000000000000E9     2.902725763815907E-2   4.959172176701168E1   9.805975101377986E-1   1.721803289630854E2   9.803907080053287E-1   1.718355187798255E2   3.217534075768897E-2   1.178063842067010E2  
 1.400000000000000E9     2.621705649703847E-2   4.400235330749074E1   9.806636994093013E-1   1.652575122801890E2   9.800852808675095E-1   1.648790890207797E2   2.977224862294003E-2   1.142440526013884E2  
 1.450000000000000E9     2.482816275015841E-2   3.581916038635912E1   9.805086692802275E-1   1.583224496991364E2   9.802546727378750E-1   1.579168286902448E2   2.688302973302691E-2   1.143744567899936E2  
 1.500000000000000E9     2.205507352279873E-2   3.128483433497728E1   9.804028747660952E-1   1.513744381388187E2   9.806732033196239E-1   1.509834083759991E2   2.478465815120196E-2   1.160940526672286E2  
 1.550000000000000E9     2.002093815453408E-2   1.933298510175691E1   9.804178916696139E-1   1.444928872376856E2   9.810841583294594E-1   1.440607452952625E2   2.308084295397519E-2   1.208970733350372E2  
 1.600000000000000E9     1.802354268477734E-2   7.538532778571834   9.806200990653395E-1   1.375451029305182E2   9.809135106917457E-1   1.371306656021084E2   2.275306241307980E-2   1.247527906626932E2  
 1.650000000000000E9     1.634584499685498E-2  -1.053438611439441E1   9.810022917219293E-1   1.306070831366028E2   9.807987081788689E-1   1.302188959841077E2   2.369910870800627E-2   1.283761682863358E2  
 1.700000000000000E9     1.513564304094111E-2  -2.806930785953157E1   9.816286526449661E-1   1.236658436255612E2   9.808667434260139E-1   1.232865352234945E2   2.590263526673420E-2   1.325494570735297E2  
 1.750000000000000E9     1.712298276076521E-2  -5.465616600135450E1   9.808653379639462E-1   1.167840069990052E2   9.808590375681603E-1   1.163541300990318E2   2.815466775055873E-2   1.333268297124161E2  
 1.800000000000000E9     1.967609629543085E-2  -6.956824044917295E1   9.808204502555801E-1   1.098594275172058E2   9.811969834620702E-1   1.094308784999916E2   2.915385336986061E-2   1.319972081074574E2  
 1.850000000000000E9     2.443517639710845E-2  -8.336094419163153E1   9.820470636759842E-1   1.029459761956851E2   9.808162372275524E-1   1.025216507868731E2   3.016334557416000E-2   1.263434192676402E2  
 1.900000000000000E9     2.820327710678892E-2  -9.572573231471472E1   9.809499681962998E-1   9.605384788425475E1   9.811411132068497E-1   9.559391469702860E1   3.203568675321186E-2   1.250871315397699E2  
 1.950000000000000E9     3.303740610379676E-2  -1.059639338520250E2   9.807334764373917E-1   8.919465451644464E1   9.814392022686302E-1   8.872707045023695E1   3.343758442571359E-2   1.183636532739981E2  
 2.000000000000000E9     3.821068052401127E-2  -1.146090294295726E2   9.805604002405237E-1   8.228967203203919E1   9.807691165579889E-1   8.179408099021912E1   3.524826047587271E-2   1.101725907159005E2  
 2.050000000000000E9     4.344137693394483E-2  -1.209861866450096E2   9.806323244918423E-1   7.531773873275621E1   9.808811802771822E-1   7.487191449116615E1   3.566703589478770E-2   1.028545723612281E2  
 2.100000000000000E9     4.656864303491368E-2  -1.283970642181340E2   9.805449612619956E-1   6.845898512107513E1   9.804574846963420E-1   6.797039529397199E1   3.635678806031040E-2   9.838953823860824E1  
 2.150000000000000E9     5.032095385731596E-2  -1.349906751980801E2   9.801344565693454E-1   6.155934415108232E1   9.800396863901677E-1   6.104869484594453E1   3.801650824223319E-2   9.164441715333166E1  
 2.200000000000000E9     5.358408359827849E-2  -1.415403983403973E2   9.797957865405720E-1   5.468175126601488E1   9.802770743569799E-1   5.417434931822845E1   3.840535757337298E-2   8.518850379392461E1  
 2.250000000000000E9     5.443238868000105E-2  -1.480032174726957E2   9.796680277568423E-1   4.775001178453064E1   9.800118954954575E-1   4.719456387440302E1   3.912772826889618E-2   7.808293148623160E1  
 2.300000000000000E9     5.389665177386906E-2  -1.550307377644021E2   9.793717593305992E-1   4.083216555958334E1   9.787471067091347E-1   4.032528357088148E1   4.222402637027976E-2   7.357068027288618E1  
 2.350000000000000E9     5.309573755635820E-2  -1.619596914534360E2   9.789103373217108E-1   3.395212856886519E1   9.785711796149179E-1   3.338512927675016E1   4.440665622918767E-2   6.830083826215827E1  
 2.400000000000000E9     5.161711365005389E-2  -1.702566642195065E2   9.789350623369748E-1   2.704953221603400E1   9.780101743434662E-1   2.653163570744093E1   4.779352134464365E-2   6.411324694546379E1  
 2.450000000000000E9     4.998438337192152E-2  -1.771797930422611E2   9.781220623872912E-1   2.010811334659613E1   9.776901163195703E-1   1.956401665393727E1   4.865214765050823E-2   5.954511167681955E1  
 2.500000000000000E9     4.749010734172384E-2   1.729043668774424E2   9.789679635670371E-1   1.318762700544154E1   9.776288684662083E-1   1.269451629857994E1   5.209895766621842E-2   5.566609225740086E1  
 2.550000000000000E9     4.378564586590356E-2   1.637787337013062E2   9.781336225287313E-1   6.269866452405556   9.776802427622254E-1   5.802285888693558   5.304187773986421E-2   5.160841153045306E1  
 2.600000000000000E9     4.240895573333290E-2   1.498173984243657E2   9.784486348656244E-1  -6.296045339180855E-1   9.772439042269198E-1  -1.218098320743034   5.649659082443877E-2   4.689049405659950E1  
 2.650000000000000E9     4.043097732258958E-2   1.382352942839735E2   9.769925539501230E-1  -7.595773719620931   9.763220288113925E-1  -8.068819858580090   5.697192865340508E-2   4.166863229694592E1  
 2.700000000000000E9     4.019661712668204E-2   1.246581753034916E2   9.769815648685867E-1  -1.454407547000612E1   9.766371510933377E-1  -1.503850408914837E1   5.896366081098750E-2   3.620014173728328E1  
 2.750000000000000E9     4.050063045408277E-2   1.111134947726174E2   9.766732858077998E-1  -2.143346827143662E1   9.761540777284822E-1  -2.197224630672465E1   6.006022806491565E-2   3.081405574774620E1  
 2.800000000000000E9     4.188530921875732E-2   9.653838557971312E1   9.764633759037761E-1  -2.844307764566618E1   9.748094067798460E-1  -2.895135149577116E1   6.128490579108146E-2   2.412698173514611E1  
 2.850000000000000E9     4.490096915849700E-2   8.415253059668476E1   9.764409606160076E-1  -3.538229187733918E1   9.752469639152717E-1  -3.587642676167113E1   6.163867967362901E-2   1.743953878037506E1  
 2.900000000000000E9     4.916469700862536E-2   7.351831704158573E1   9.753793309444198E-1  -4.230802659128393E1   9.755005262565897E-1  -4.281865035054931E1   6.190166631940514E-2   1.037182056151510E1  
 2.950000000000000E9     4.957704120068483E-2   6.291578913088832E1   9.753634820001306E-1  -4.930078288959884E1   9.755806125019789E-1  -4.977927151632542E1   6.193753732402483E-2   2.627321083373405  
 3.000000000000000E9     5.166477234584092E-2   5.257259913582831E1   9.754231255810425E-1  -5.625711457928410E1   9.743675059145586E-1  -5.679491207959853E1   6.147120118069924E-2  -3.678167378102704  
 3.050000000000000E9     5.216177428506950E-2   4.450271742523353E1   9.742672083697257E-1  -6.319004415411145E1   9.752475446191141E-1  -6.378187893060432E1   5.931775081553124E-2  -1.255760972781190E1  
 3.100000000000000E9     5.485954396838678E-2   3.587993039260195E1   9.742202041331695E-1  -7.012417504275844E1   9.738523417989967E-1  -7.083089739348063E1   5.853088422195955E-2  -1.952137029179538E1  
 3.150000000000000E9     5.387667017340898E-2   2.951308417380444E1   9.743208346010546E-1  -7.708511345479812E1   9.735049865797305E-1  -7.775673341827340E1   5.556054341340978E-2  -2.739450136402093E1  
 3.200000000000000E9     5.379162081982779E-2   2.233156035839538E1   9.735402975339753E-1  -8.405890453856598E1   9.746255318185706E-1  -8.472671762719482E1   5.329514804153202E-2  -3.535856485707886E1  
 3.250000000000000E9     5.281842023630159E-2   1.620040885072870E1   9.736073565767427E-1  -9.094632548904372E1   9.740266231089467E-1  -9.170372112965991E1   4.852552228469128E-2  -4.364641694752958E1  
 3.300000000000000E9     4.862858603015986E-2   1.047770492423394E1   9.736592531569174E-1  -9.788566860817646E1   9.746899450057359E-1  -9.853139208390032E1   4.481624347442050E-2  -5.360798878992981E1  
 3.350000000000000E9     4.593448387630626E-2   3.447495610539225   9.737129246626197E-1  -1.047937180553055E2   9.752423893550418E-1  -1.054341366154368E2   4.040238093650616E-2  -6.252472000601926E1  
 3.400000000000000E9     4.087808216823899E-2  -1.205978684581878   9.739598159085030E-1  -1.116401080002225E2   9.744650487457666E-1  -1.124350317907691E2   3.613519345088116E-2  -7.268123176931626E1  
 3.450000000000000E9     3.563984380618091E-2  -8.180491713252890   9.745958399062300E-1  -1.185940477542507E2   9.754979589901013E-1  -1.193966706561007E2   3.171156337148950E-2  -8.461452674824666E1  
 3.500000000000000E9     3.098934887814207E-2  -1.355066327538972E1   9.771399667135543E-1  -1.255009691853764E2   9.772201266774073E-1  -1.263980535232428E2   2.585125172862508E-2  -9.817764200601525E1  
 3.550000000000000E9     2.326978615607534E-2  -2.151003307086104E1   9.769186417801984E-1  -1.324441340603952E2   9.776207985917036E-1  -1.334330571872377E2   2.210931430616378E-2  -1.133113794864896E2  
 3.600000000000000E9     1.766748402145661E-2  -2.417801432698149E1   9.782549554686736E-1  -1.394379549967188E2   9.770577490444532E-1  -1.403500551246570E2   1.824780194518553E-2  -1.318903037733077E2  
 3.650000000000000E9     1.242426398379276E-2  -3.296210026819496E1   9.789464649492730E-1  -1.464663918081955E2   9.769962750554270E-1  -1.472956924850616E2   1.820040372329723E-2  -1.593775633543343E2  
 3.700000000000000E9     6.066303464130505E-3  -4.642761552183113E1   9.781987774920145E-1  -1.534407178830053E2   9.767149186845556E-1  -1.542399803040348E2   1.801469859557015E-2  -1.760277641364552E2  
 3.750000000000000E9     3.782125926901001E-3  -1.601461321656521E2   9.785426673834263E-1  -1.604374042903463E2   9.772787029148174E-1  -1.612226618916600E2   1.835302942367515E-2   1.661285904097509E2  
 3.800000000000000E9     9.503399506688746E-3   1.438198134330186E2   9.771070257803098E-1  -1.673524252592848E2   9.764203837292740E-1  -1.681152048848023E2   1.774875119224141E-2   1.437916938775054E2  
 3.850000000000000E9     1.765210704275207E-2   1.356151658770247E2   9.760871615055524E-1  -1.743027824737990E2   9.764975183303247E-1  -1.750534989529016E2   2.038018160063095E-2   1.277194972056915E2  
 3.900000000000000E9     2.485404435131431E-2   1.276351266281240E2   9.768987930939161E-1   1.787404580790721E2   9.749391769713222E-1   1.779384111105009E2   2.264384603708695E-2   1.142484177495916E2  
 3.950000000000000E9     3.228604206748705E-2   1.229534162290099E2   9.752963260235122E-1   1.718142988680178E2   9.756646795314923E-1   1.710061935049079E2   2.470151811694976E-2   1.018192077788187E2  
 4.000000000000000E9     3.819403796990827E-2   1.153923790125471E2   9.755655265133493E-1   1.648925617040785E2   9.749721858717210E-1   1.641191213027182E2   2.780877269955847E-2   8.951306359108750E1  
 4.050000000000000E9     4.274415341025867E-2   1.113708796462162E2   9.754633130107995E-1   1.580275322726895E2   9.749538999759034E-1   1.571694055983569E2   3.002896711852318E-2   8.207380883015270E1  
 4.100000000000000E9     4.671884813181391E-2   1.047667611067458E2   9.743063415425213E-1   1.510552696335770E2   9.741852995448600E-1   1.501979948770922E2   3.169679631960663E-2   7.099744825686925E1  
 4.150000000000000E9     5.175101498638948E-2   9.825187861629080E1   9.735891925938570E-1   1.441118087556139E2   9.733202153858956E-1   1.432378800449852E2   3.474487720531387E-2   6.278083686709822E1  
 4.200000000000000E9     5.348096678747629E-2   9.235389529021367E1   9.736589153545877E-1   1.371928241827148E2   9.731654095638942E-1   1.363448992751304E2   3.760721362992225E-2   5.406217080501946E1  
 4.250000000000000E9     5.517659014257648E-2   8.508128517353961E1   9.728806554807847E-1   1.302924666690650E2   9.727332459601639E-1   1.293760061662648E2   4.132175466907460E-2   4.693323879196355E1  
 4.300000000000000E9     5.621049841816785E-2   7.745326428200714E1   9.727677731579987E-1   1.233179780062435E2   9.723150210929928E-1   1.225282135518553E2   4.527990898743706E-2   4.231572532992234E1  
 4.350000000000000E9     5.815758862846044E-2   7.019543404698095E1   9.727195304754852E-1   1.164337914306718E2   9.720582621183853E-1   1.155626040694391E2   4.733683332697784E-2   3.486778645314972E1  
 4.400000000000000E9     5.920816600132687E-2   6.095005966029740E1   9.722676636923571E-1   1.094883037827265E2   9.718034452174226E-1   1.086236987547371E2   4.986791798497985E-2   2.902120726506118E1  
 4.450000000000000E9     5.870215290358730E-2   5.421914245408961E1   9.724059598130289E-1   1.026058187222508E2   9.721087577076314E-1   1.017124430506933E2   5.062045323234421E-2   2.163075127218189E1  
 4.500000000000000E9     5.983165984101853E-2   4.510286639256531E1   9.721848687250423E-1   9.566310232219924E1   9.713175715723228E-1   9.480102178842986E1   5.299822866509915E-2   1.489700008589645E1  
 4.550000000000000E9     6.061823125283786E-2   3.714188885999126E1   9.719716150754296E-1   8.873096028356821E1   9.722633066078605E-1   8.786668109510164E1   5.374129379667721E-2   8.992275009655980  
 4.600000000000000E9     6.053620364739076E-2   2.864006589136917E1   9.720696492855289E-1   8.184148870610616E1   9.719829738714619E-1   8.093008155156073E1   5.309914869393400E-2   9.562695028950957E-1  
 4.650000000000000E9     6.048861976816435E-2   1.874743479463421E1   9.729408202513570E-1   7.497377419225019E1   9.722499163518752E-1   7.404057019974337E1   5.331526948631302E-2  -3.152554675549414  
 4.700000000000000E9     6.040729512498758E-2   1.063924104593887E1   9.727531828855738E-1   6.806959493854271E1   9.724009884378175E-1   6.711636120538279E1   5.079109210930798E-2  -8.263859461914185  
 4.750000000000000E9     6.113394270099865E-2   1.555307292300623   9.737396247489923E-1   6.117819087370645E1   9.731644728852915E-1   6.022260830440043E1   4.862832319616540E-2  -1.459238220098886E1  
 4.800000000000000E9     6.176003582905976E-2  -6.021886403169008   9.737825076228998E-1   5.422425744051375E1   9.731402782630405E-1   5.331676877982751E1   4.535104496560864E-2  -2.044222173149922E1  
