#  HZ   S   MA   R     50.00 
! Rohde & Schwarz ZVA67 4Ports - Version 4.11 - 1305.7002k04 SN: 101051
! Date: 2023-09-13 16:57:46
! Measurements: S11 S21 S12 S22 
! 
 6.705000000000000E10    1.015256181320638E-1  -3.640591430850454E1   3.625648262537123E-1  -3.028000796839181E1   3.626723108070944E-1  -2.609360055531571E1   4.597931475129539E-1   1.521454494256513E2  
 6.710000000000000E10    1.250901880430396E-1  -8.076998520787170E1   3.685950298109585E-1  -7.483548458835045E1   3.687870663873250E-1  -7.024482618737848E1   4.235032940724821E-1   1.431450367249899E2  
 6.715000000000000E10    8.596774412549163E-2  -1.035303315631973E2   3.712776135962466E-1  -1.195408027975238E2   3.728700353507687E-1  -1.151212990554252E2   3.965364053118176E-1   1.379143477389238E2  
 6.720000000000000E10    8.747404983457688E-2  -6.528078098300293E1   3.651308405336195E-1  -1.647826811692656E2   3.659943285231547E-1  -1.603399229239165E2   4.113520125466920E-1   1.351574290412763E2  
 6.725000000000000E10    1.927896374522562E-1  -7.716053063167830E1   3.484849604434753E-1   1.511931319136064E2   3.489582681411919E-1   1.555036898846160E2   4.703054841917537E-1   1.269870508797338E2  
 6.730000000000000E10    2.823708766430296E-1  -1.089635996528637E2   3.310211047675769E-1   1.095306714045726E2   3.317861215373597E-1   1.138588615740160E2   5.246913963396075E-1   1.126692832760940E2  
 6.735000000000000E10    3.230680838088333E-1  -1.432155304682216E2   3.236573031404968E-1   6.933625002294929E1   3.236685138568120E-1   7.394166484283215E1   5.482390713793371E-1   9.513967182969562E1  
 6.740000000000000E10    3.108984763955309E-1  -1.788950644953584E2   3.276367576517617E-1   2.976049265136292E1   3.280729471311855E-1   3.422333918283950E1   5.393437030831009E-1   7.711788681474451E1  
 6.745000000000000E10    2.425212233149476E-1   1.432152983705500E2   3.426083056636363E-1  -1.119232635531839E1   3.429421445507400E-1  -6.672801459144445   4.996506382994058E-1   5.993370463211839E1  
 6.750000000000000E10    1.311468830961611E-1   1.015618543761782E2   3.601763730713296E-1  -5.407355990858776E1   3.601205701929250E-1  -4.947035359849289E1   4.512459296621006E-1   4.557011130083878E1  
 6.755000000000000E10    2.145059860879233E-2  -8.236630445592141   3.711338672593779E-1  -9.800464542435664E1   3.717534026927343E-1  -9.347688523000207E1   4.120302969707627E-1   3.359327289713762E1  
 6.760000000000000E10    9.294854920607727E-2  -1.337989083026951E2   3.773942934511497E-1  -1.420841598025976E2   3.776190355743154E-1  -1.376096159080256E2   3.895598345939941E-1   2.139614234634041E1  
 6.765000000000000E10    1.246864756837050E-1  -1.700442381334597E2   3.809293146366021E-1   1.741965993664443E2   3.815300045694255E-1   1.785740348247875E2   3.580721757665051E-1   8.656593297328802  
 6.770000000000000E10    1.025412220024636E-1   1.696130272386521E2   3.860661298985638E-1   1.298973631717535E2   3.855501113617631E-1   1.341315434242287E2   3.193370541607758E-1  -1.793037030214624E-1  
 6.775000000000000E10    9.443688582022902E-2  -1.736107562223525E2   3.826768284651424E-1   8.512863842319388E1   3.835414526495330E-1   8.920636328547489E1   3.140794211168868E-1  -2.825674763521931  
 6.780000000000000E10    1.660157192416202E-1  -1.756336676709128E2   3.695573319365894E-1   4.053043879919874E1   3.701719868741568E-1   4.491255826294918E1   3.683660817447761E-1  -8.824621859656576  
 6.785000000000000E10    2.414057524808006E-1   1.570653721302157E2   3.526105243031564E-1  -1.968580075382457   3.532303461740827E-1   2.232177262372286   4.382249440477416E-1  -2.396524770614799E1  
 6.790000000000000E10    2.784016037832812E-1   1.227296319534528E2   3.400359186799410E-1  -4.305100010246015E1   3.411816449793638E-1  -3.863123147763448E1   4.872297462701101E-1  -4.340582443410515E1  
 6.795000000000000E10    2.716393697640353E-1   8.467422639642470E1   3.385368865474871E-1  -8.335480227223407E1   3.386862912240705E-1  -7.888607710615483E1   5.026787801113851E-1  -6.336292799735107E1  
 6.800000000000000E10    2.258213141000699E-1   4.120961267270203E1   3.451799641778197E-1  -1.238341946759424E2   3.465957790583817E-1  -1.194392836753375E2   4.899991892390930E-1  -8.183523618082710E1  
 6.805000000000000E10    1.595978092888385E-1  -1.182794176907740E1   3.564664024186685E-1  -1.655718473353119E2   3.575902236236247E-1  -1.613122040032442E2   4.627951163215290E-1  -9.809136359173601E1  
 6.810000000000000E10    1.044609941442853E-1  -8.241346431421316E1   3.668196942569647E-1   1.513439412168289E2   3.675025345835764E-1   1.558138412963403E2   4.328888849219488E-1  -1.113632451169629E2  
 6.815000000000000E10    8.506246930574717E-2  -1.652821352443870E2   3.730320453478922E-1   1.080326011123221E2   3.731943014357340E-1   1.124568311727446E2   4.134779221525480E-1  -1.230114141992753E2  
 6.820000000000000E10    7.582823401953043E-2   1.266887108272659E2   3.779927548402279E-1   6.476967235321246E1   3.783167144726036E-1   6.891945373023542E1   3.958232850302972E-1  -1.336396420920111E2  
 6.825000000000000E10    4.335213032048248E-2   6.685816342586963E1   3.810963578666917E-1   2.116775378385175E1   3.812733797788284E-1   2.519938987202905E1   3.765084433572814E-1  -1.421963769630315E2  
 6.830000000000000E10    1.138528616503302E-2  -1.485456523341301E2   3.803202457296482E-1  -2.317190316564552E1   3.807090203000248E-1  -1.880722531267726E1   3.727200772757909E-1  -1.471795986290780E2  
 6.835000000000000E10    6.838263480965816E-2   1.416580372940539E2   3.730116249607686E-1  -6.725314267302225E1   3.736540589589537E-1  -6.287305400600733E1   4.018404361692440E-1  -1.523427996758439E2  
 6.840000000000000E10    1.147908611636201E-1   8.275545091008736E1   3.590079724339280E-1  -1.107153405500460E2   3.598804039323490E-1  -1.061596902648558E2   4.558453518097819E-1  -1.613065122987873E2  
 6.845000000000000E10    1.549929300544240E-1   2.298692339839045E1   3.452934174260445E-1  -1.525566339471316E2   3.451604772610272E-1  -1.481401411797436E2   5.072852131999407E-1  -1.742141961325125E2  
 6.850000000000000E10    1.931091677732331E-1  -3.503563651550296E1   3.341342048101187E-1   1.666674184387111E2   3.342617199774861E-1   1.711705267778089E2   5.418282591540666E-1   1.711829444919297E2  
 6.855000000000000E10    2.289141214834830E-1  -8.686333757700044E1   3.301610220747516E-1   1.266992011175434E2   3.302930506127623E-1   1.310500298733321E2   5.553824771213024E-1   1.560695005961264E2  
 6.860000000000000E10    2.446820456664237E-1  -1.342272091836306E2   3.335536017870102E-1   8.672975472694048E1   3.339975837695405E-1   9.107872394714822E1   5.444286148308948E-1   1.413213384281208E2  
 6.865000000000000E10    2.249617656241133E-1  -1.786670079335559E2   3.440145696690411E-1   4.609627201045081E1   3.445663121770258E-1   5.032713383133478E1   5.151446801595583E-1   1.278952344823801E2  
 6.870000000000000E10    1.569140847977866E-1   1.401764608585907E2   3.576710208716925E-1   4.000822841173152   3.573457745945947E-1   8.398463539301437   4.738586168671283E-1   1.169766093912444E2  
 6.875000000000000E10    5.743285031184565E-2   1.127837343721926E2   3.669757173628370E-1  -3.900185950657243E1   3.680515342181757E-1  -3.480098201273868E1   4.404703259807711E-1   1.093158720206886E2  
 6.880000000000000E10    5.657616424360863E-2  -1.594300602725699E2   3.718394421597205E-1  -8.251267617913933E1   3.727184291173001E-1  -7.830397061442807E1   4.255577712173908E-1   1.029275879413548E2  
 6.885000000000000E10    1.184607672293737E-1   1.727811500683747E2   3.731645240376416E-1  -1.260786904472904E2   3.731558747531346E-1  -1.215222991313714E2   4.246352299206614E-1   9.623851364674988E1  
 6.890000000000000E10    1.146944352929652E-1   1.342134994123883E2   3.723563220710315E-1  -1.695631413788279E2   3.725699288116403E-1  -1.648697014139773E2   4.238853915380723E-1   8.930063950565072E1  
 6.895000000000000E10    4.171320874068329E-2   9.420297486276044E1   3.668479074171200E-1   1.470277603310442E2   3.679045157000515E-1   1.515345860413721E2   4.363795947743311E-1   8.303415944949650E1  
 6.900000000000000E10    7.584878900311619E-2  -1.291514903960130E2   3.551181898174105E-1   1.036923330128920E2   3.559168325621102E-1   1.084383767893417E2   4.748289577417676E-1   7.531880815120647E1  
 6.905000000000000E10    1.927989380404384E-1  -1.676203587419894E2   3.396570164644979E-1   6.212263078245047E1   3.404163733227025E-1   6.667076609274916E1   5.212570131039457E-1   6.351317219852442E1  
 6.910000000000000E10    2.744374304272770E-1   1.561883099586005E2   3.278446357272495E-1   2.211197761370063E1   3.289024991750428E-1   2.674924505473849E1   5.504183252975936E-1   4.850070258340406E1  
 6.915000000000000E10    3.061745136452492E-1   1.210226722173650E2   3.279530858163355E-1  -1.692509495847392E1   3.279846390573770E-1  -1.220200878370508E1   5.500730610085027E-1   3.214374413250977E1  
 6.920000000000000E10    2.817138217951402E-1   8.684646153191243E1   3.372941703561199E-1  -5.639894213243526E1   3.383141369201054E-1  -5.179279156796132E1   5.173660205317020E-1   1.609585886313277E1  
 6.925000000000000E10    2.004496878494674E-1   5.453936287960951E1   3.540525020100234E-1  -9.757065974666310E1   3.551670322771437E-1  -9.285914172905588E1   4.663747709795021E-1   2.625304912673789  
 6.930000000000000E10    8.872002333807642E-2   3.836438326597665E1   3.685497498099925E-1  -1.404458672078173E2   3.692182318175857E-1  -1.356489462566877E2   4.184226570868148E-1  -6.705592789074268  
 6.935000000000000E10    7.653666092390865E-2   9.841258853805019E1   3.745810006758050E-1   1.760879707362699E2   3.754281799109448E-1  -1.790108198725588E2   3.970698017935746E-1  -1.390816276979347E1  
 6.940000000000000E10    1.447990143529903E-1   8.537084823183972E1   3.769817766864581E-1   1.331049090488112E2   3.777243528714518E-1   1.378873601178733E2   3.918632032743619E-1  -2.323772572615195E1  
 6.945000000000000E10    1.581692268415318E-1   5.649747003474811E1   3.804882486057574E-1   9.029746670610226E1   3.805542476563563E-1   9.507317117218329E1   3.746377999963873E-1  -3.319548132068623E1  
 6.950000000000000E10    1.104003700649665E-1   3.439265161223326E1   3.815512562591051E-1   4.689581072360458E1   3.824931016661431E-1   5.160947846085850E1   3.547505995715210E-1  -3.944813880489087E1  
 6.955000000000000E10    7.149714711608120E-2   6.549121340807265E1   3.758952642893771E-1   3.143805668061660   3.765144703340503E-1   7.759357635954212   3.704887079086550E-1  -4.276861629817967E1  
 6.960000000000000E10    1.558803181526721E-1   7.291585948043482E1   3.622484837761038E-1  -3.985092843610097E1   3.629943108647818E-1  -3.534208321360701E1   4.293758604233049E-1  -5.106150925692517E1  
 6.965000000000000E10    2.423850963403023E-1   4.533335001425481E1   3.455833593836621E-1  -8.092109078580228E1   3.469283709215006E-1  -7.653755704649470E1   4.870183426578653E-1  -6.554809415404408E1  
 6.970000000000000E10    2.886900015533052E-1   1.230520294163236E1   3.366107533769677E-1  -1.205289733913125E2   3.373116878722397E-1  -1.161582597222124E2   5.167274368502904E-1  -8.294277173921498E1  
 6.975000000000000E10    2.876834526546551E-1  -2.249667750404873E1   3.377544421537726E-1  -1.598147174824551E2   3.380915912351174E-1  -1.553207007718444E2   5.145809987485090E-1  -1.007499180728156E2  
 6.980000000000000E10    2.390840042012093E-1  -5.847459806605148E1   3.479420309931375E-1   1.601549868651158E2   3.487905680159671E-1   1.647533148578406E2   4.834221852037327E-1  -1.170105978267486E2  
 6.985000000000000E10    1.486841837322672E-1  -9.314245027817580E1   3.617447798983803E-1   1.186961316758306E2   3.628118487096140E-1   1.234734334951125E2   4.377825546269838E-1  -1.301669285356641E2  
 6.990000000000000E10    3.960146389621685E-2  -1.059415847949385E2   3.726624369451217E-1   7.601227826887335E1   3.726526746245571E-1   8.103621726576766E1   4.015603218468232E-1  -1.399536996265749E2  
 6.995000000000000E10    7.672740768318313E-2  -1.927113540320024E1   3.767353194684408E-1   3.309875744575990E1   3.779539997441966E-1   3.808012369284068E1   3.827902822252380E-1  -1.488293837187329E2  
 7.000000000000000E10    1.391949497158987E-1  -4.742211870672513E1   3.804342052556382E-1  -9.309564901244398   3.803002519753503E-1  -4.546219259240688   3.644920485960516E-1  -1.586017593913073E2  
 7.005000000000000E10    1.465677001796469E-1  -7.651553889470263E1   3.827741931019682E-1  -5.208218248091855E1   3.835050705665450E-1  -4.733273488159465E1   3.348184049345074E-1  -1.667058171293013E2  
 7.010000000000000E10    1.116060349509373E-1  -9.049915264835732E1   3.842980550283704E-1  -9.535676387537403E1   3.843847693151184E-1  -9.074510275024741E1   3.131831199456606E-1  -1.688891795217553E2  
 7.015000000000000E10    1.167645243318162E-1  -7.274504923298122E1   3.768314744387094E-1  -1.389677054168228E2   3.769111326063597E-1  -1.342779987683809E2   3.437704605204502E-1  -1.691658954797574E2  
 7.020000000000000E10    2.014320131006479E-1  -8.028833769955193E1   3.600605534874296E-1   1.785805559658279E2   3.604188235066558E-1  -1.767877125349781E2   4.158604872167115E-1  -1.774073594310231E2  
 7.025000000000000E10    2.821184238611755E-1  -1.069428145815638E2   3.435041038200271E-1   1.379581212276102E2   3.438842448236639E-1   1.425770693843680E2   4.787421904565631E-1   1.672929593268276E2  
 7.030000000000000E10    3.254558542235564E-1  -1.373734030610244E2   3.343308791353456E-1   9.896005057911403E1   3.346325256090383E-1   1.036375587067400E2   5.084797022966539E-1   1.493864577054618E2  
 7.035000000000000E10    3.194093239930148E-1  -1.679483704629253E2   3.377316349390239E-1   5.998588302973084E1   3.380401728608851E-1   6.516997834421737E1   4.987140577943909E-1   1.313222623031341E2  
 7.040000000000000E10    2.614160150699256E-1   1.621570497717017E2   3.506287686554303E-1   2.019260011432386E1   3.515470566476594E-1   2.552770186750873E1   4.546576933629732E-1   1.148096423141600E2  
 7.045000000000000E10    1.624312648283535E-1   1.389568919987966E2   3.671988558725027E-1  -2.135485759487568E1   3.673442306596199E-1  -1.589506780890777E1   3.968408774605852E-1   1.028297734114562E2  
 7.050000000000000E10    7.952906120626481E-2   1.580184760600057E2   3.777558745203152E-1  -6.397848316363446E1   3.781544620448658E-1  -5.874186263199327E1   3.565001976843001E-1   9.578385569356448E1  
 7.055000000000000E10    1.274319846492415E-1  -1.759803650207126E2   3.817233275353639E-1  -1.068889761023107E2   3.821222191688805E-1  -1.018117486464254E2   3.425971913412751E-1   8.868378143242457E1  
 7.060000000000000E10    1.752035431990994E-1   1.673622361085740E2   3.835451294343391E-1  -1.493722246157458E2   3.838212585301439E-1  -1.443366407778213E2   3.268579466047087E-1   7.899903422940754E1  
 7.065000000000000E10    1.707490137684914E-1   1.505760347181958E2   3.845918080922130E-1   1.679970809126102E2   3.855637247400830E-1   1.731107791290985E2   2.912685194928483E-1   7.207074657045814E1  
 7.070000000000000E10    1.523961139748928E-1   1.507713541523898E2   3.830133806494210E-1   1.247410918644352E2   3.831865756362727E-1   1.298151341651461E2   2.736270383586693E-1   7.399954737026899E1  
 7.075000000000000E10    2.007458805161879E-1   1.553410499194966E2   3.719690878442459E-1   8.168825416342988E1   3.719268311668075E-1   8.676852094544255E1   3.258638712472923E-1   7.450339173662825E1  
 7.080000000000000E10    2.850094547394873E-1   1.398172514592729E2   3.548706814205483E-1   4.037576393787544E1   3.546853858864709E-1   4.521790646093042E1   4.075321671688593E-1   6.247401523375338E1  
 7.085000000000000E10    3.426864448505707E-1   1.153474819795669E2   3.408535591109422E-1   5.301371316477407E-1   3.408316117087868E-1   5.824183383400773   4.606955406740211E-1   4.403141787192995E1  
 7.090000000000000E10    3.588743056017745E-1   8.863153855972610E1   3.378610021056474E-1  -3.795184707669228E1   3.384087338142551E-1  -3.249902370521905E1   4.729193741332027E-1   2.351209784387465E1  
 7.095000000000000E10    3.266622164103140E-1   6.138136776782602E1   3.466612402384859E-1  -7.680225960149149E1   3.472432066609412E-1  -7.135590101988406E1   4.421717010533746E-1   3.440579866920461  
 7.100000000000000E10    2.518860588323562E-1   3.617459378231193E1   3.630067587547270E-1  -1.171374821952700E2   3.635983261971290E-1  -1.117541436664399E2   3.805454725259744E-1  -1.385126447320143E1  
 7.105000000000000E10    1.533274514301332E-1   2.193961355646994E1   3.796006127062255E-1  -1.590990578535703E2   3.795765518509889E-1  -1.537792592038412E2   3.156062297055113E-1  -2.427763379797537E1  
 7.110000000000000E10    1.038143806416606E-1   3.978563659236617E1   3.881146495762213E-1   1.580424205050522E2   3.884585135408925E-1   1.631136560810443E2   2.841305927769767E-1  -2.902545651691966E1  
 7.115000000000000E10    1.350570165400380E-1   4.788969900479913E1   3.895565539830829E-1   1.150615096286135E2   3.906913348646547E-1   1.202519474904989E2   2.821908520992556E-1  -3.679798649792580E1  
 7.120000000000000E10    1.508592983005789E-1   3.441013978797647E1   3.915161847162955E-1   7.279163307386688E1   3.916638704628174E-1   7.773259665036564E1   2.698337955562864E-1  -4.673813823684974E1  
 7.125000000000000E10    1.351598410900257E-1   2.586896183745756E1   3.916935641995760E-1   3.022566285701781E1   3.915909805732281E-1   3.493551653558307E1   2.459248433396754E-1  -5.261057073262140E1  
 7.130000000000000E10    1.370988354717462E-1   3.482556848342909E1   3.866846209280478E-1  -1.280807222695831E1   3.868572409508615E-1  -8.018404685190143   2.536895616353532E-1  -5.152394668482047E1  
 7.135000000000000E10    2.051171840989713E-1   3.195493829810932E1   3.738332838036008E-1  -5.536916423921215E1   3.741003494241992E-1  -5.038856828486235E1   3.159203679496261E-1  -5.623013592236333E1  
 7.140000000000000E10    2.813817874809010E-1   1.140903068743394E1   3.578351520859117E-1  -9.645969664915582E1   3.588237483299309E-1  -9.131232682193635E1   3.900973263407507E-1  -7.151331693124818E1  
 7.145000000000000E10    3.322306922514548E-1  -1.532002839867910E1   3.477785768481254E-1  -1.359722587740505E2   3.475528371457891E-1  -1.307562535228497E2   4.360896001153571E-1  -9.148020828799008E1  
 7.150000000000000E10    3.424825798281690E-1  -4.317508389325455E1   3.457383644153564E-1  -1.746161066577748E2   3.460778412928356E-1  -1.694288441676851E2   4.420747496502560E-1  -1.124181432854683E2  
 7.155000000000000E10    3.112110755650684E-1  -7.057314467439608E1   3.543698935630718E-1   1.462790443742281E2   3.550336554197479E-1   1.512953160981301E2   4.068355352201206E-1  -1.318824225422177E2  
 7.160000000000000E10    2.429920694535644E-1  -9.457716903233509E1   3.688361653791316E-1   1.057292938238957E2   3.696994700303890E-1   1.107972373632482E2   3.426411482168663E-1  -1.468821798308780E2  
 7.165000000000000E10    1.670230872396244E-1  -1.054773599398784E2   3.820590288511539E-1   6.351352548818574E1   3.820594432410219E-1   6.862065113969322E1   2.827894557452919E-1  -1.524401093641616E2  
 7.170000000000000E10    1.432658459616296E-1  -9.839191897032136E1   3.876368203356391E-1   2.095978553226063E1   3.879764901774244E-1   2.583693110285240E1   2.742484422232614E-1  -1.518047659102689E2  
 7.175000000000000E10    1.660461449361216E-1  -1.036090033787211E2   3.874701161989675E-1  -2.152447817258445E1   3.877903550901354E-1  -1.657434749326272E1   3.002829254605027E-1  -1.569654750975921E2  
 7.180000000000000E10    1.634534666795160E-1  -1.205189651314279E2   3.859475151289544E-1  -6.363043555052791E1   3.869947945864098E-1  -5.862074259490238E1   3.130634860047261E-1  -1.667250499677874E2  
