#  HZ   S   MA   R     50.00 
! Rohde & Schwarz ZVA67 4Ports - Version 4.11 - 1305.7002k04 SN: 101051
! Date: 2023-09-13 17:05:36
! Measurements: S11 S21 S12 S22 
! 
 6.705000000000000E10    5.204744983367839E-2  -1.316672337446067   3.253581641690369E-1   1.689025761341940E2   3.259020194460566E-1   1.745282537649570E2   4.789542103344400E-1   1.504492065639341E2  
 6.710000000000000E10    1.103203835800853E-1  -5.953573808075695E1   3.327501211011575E-1   1.242841592108941E2   3.327365368859777E-1   1.300335589239898E2   4.420458884161063E-1   1.402752376059323E2  
 6.715000000000000E10    1.136027233015543E-1  -9.196140964550196E1   3.376038942579784E-1   7.900950210075169E1   3.383279388333811E-1   8.489918243797919E1   4.054453530379936E-1   1.326551254921701E2  
 6.720000000000000E10    8.839078706997611E-2  -8.995526130836930E1   3.371761694286761E-1   3.317782712056572E1   3.375238818248155E-1   3.910336222939085E1   3.904006434773658E-1   1.295327596774330E2  
 6.725000000000000E10    1.458150057222419E-1  -7.947921210871630E1   3.267098856870581E-1  -1.222157042060346E1   3.271344194149418E-1  -6.505167471084386   4.285489631665106E-1   1.251599399744136E2  
 6.730000000000000E10    2.394813558537587E-1  -1.024071937056543E2   3.109961783818517E-1  -5.598970268344337E1   3.106690196877376E-1  -5.007415151035034E1   4.882371056806629E-1   1.139852456650740E2  
 6.735000000000000E10    2.975669465609387E-1  -1.339238030362942E2   2.984683924581214E-1  -9.746781236698359E1   2.986015764346012E-1  -9.150433906976653E1   5.295585632832932E-1   9.789279692024950E1  
 6.740000000000000E10    3.092134296214774E-1  -1.677861570584060E2   2.956861104375682E-1  -1.379761040241550E2   2.966518219356710E-1  -1.319933047943188E2   5.394411765166545E-1   8.002363674832314E1  
 6.745000000000000E10    2.651393225071411E-1   1.569143779461237E2   3.045797434930738E-1  -1.789576167753862E2   3.048013729032540E-1  -1.729066513359093E2   5.170496881770348E-1   6.209698901452031E1  
 6.750000000000000E10    1.756213179728503E-1   1.194893177571152E2   3.185588965557049E-1   1.386389912467110E2   3.188600261953052E-1   1.446323365276801E2   4.769527239386237E-1   4.594509192871977E1  
 6.755000000000000E10    5.944163604414308E-2   7.237373113128487E1   3.309687400365033E-1   9.476712628754346E1   3.319315864801891E-1   1.006040427876662E2   4.321728524940958E-1   3.212799376764776E1  
 6.760000000000000E10    4.971916252813272E-2  -1.155251240464816E2   3.393025634961168E-1   5.014285075294207E1   3.404115167629601E-1   5.596443678631422E1   4.029023501176147E-1   1.926030766384731E1  
 6.765000000000000E10    1.069974555314612E-1  -1.561677609057608E2   3.440128625595516E-1   5.700643436351552   3.448040625760674E-1   1.133998345028072E1   3.696637274608165E-1   6.206788386214749  
 6.770000000000000E10    1.109223383910394E-1   1.798619035030295E2   3.485605577648254E-1  -3.908033563886222E1   3.492718293504191E-1  -3.366819907451681E1   3.286764354601666E-1  -4.201395680670679  
 6.775000000000000E10    1.019381391960463E-1  -1.799538439645936E2   3.486617685385050E-1  -8.434395665379992E1   3.492991982519665E-1  -7.914132075993598E1   3.066265659998472E-1  -8.318590798367987  
 6.780000000000000E10    1.499945216800032E-1  -1.779808390087415E2   3.397162921319471E-1  -1.297258084419591E2   3.405500956373966E-1  -1.243648577644071E2   3.413791044408538E-1  -1.166793485990768E1  
 6.785000000000000E10    2.202550590633688E-1   1.597007709786768E2   3.254906057790659E-1  -1.737459154558222E2   3.257358795058912E-1  -1.682672879959149E2   4.112896602989121E-1  -2.381362902258737E1  
 6.790000000000000E10    2.619902078126385E-1   1.277301384118466E2   3.117803659646579E-1   1.440196389465398E2   3.128879605302946E-1   1.496876382947285E2   4.685436175508792E-1  -4.203427995846611E1  
 6.795000000000000E10    2.644731528616700E-1   9.133351174156250E1   3.073042748073481E-1   1.028088738886609E2   3.078484887627229E-1   1.086635690142868E2   4.961045437348447E-1  -6.155985986547272E1  
 6.800000000000000E10    2.281912045848031E-1   5.050407211709748E1   3.104548022654619E-1   6.181683918339620E1   3.115729630474423E-1   6.758782614773543E1   4.944429020413707E-1  -8.023922003694881E1  
 6.805000000000000E10    1.674938584955774E-1   1.589401668215557   3.190737891341357E-1   1.986111608321302E1   3.200224114567141E-1   2.537833632841190E1   4.744660967059862E-1  -9.736593309527507E1  
 6.810000000000000E10    1.070360373758927E-1  -6.094800466707927E1   3.283518222211611E-1  -2.317828351765022E1   3.296736753745491E-1  -1.771868944396666E1   4.468896701843393E-1  -1.118272883336020E2  
 6.815000000000000E10    7.640241697824679E-2  -1.412788525269552E2   3.349045840231409E-1  -6.698830120426442E1   3.360756821949669E-1  -6.140069469884230E1   4.238273956387840E-1  -1.243561994557715E2  
 6.820000000000000E10    6.491578444407933E-2   1.477598491943221E2   3.413472140092214E-1  -1.109582127207115E2   3.422125938242585E-1  -1.054938899834493E2   4.017051557789926E-1  -1.354252820005181E2  
 6.825000000000000E10    3.806602535117368E-2   9.621554782967209E1   3.439528267295522E-1  -1.552378354459941E2   3.453907788880288E-1  -1.498807390632792E2   3.791054914878351E-1  -1.442591338440637E2  
 6.830000000000000E10    1.646306057146516E-2   1.562477128342525E2   3.450261342126084E-1   1.600295683919033E2   3.462933529899273E-1   1.654342182983189E2   3.704287331012190E-1  -1.492854670957772E2  
 6.835000000000000E10    6.420109079536747E-2   1.355002912410548E2   3.389699932777118E-1   1.147405173696606E2   3.403423777433085E-1   1.207567805516072E2   3.955608677374937E-1  -1.539079433009692E2  
 6.840000000000000E10    1.062486834870213E-1   8.186679901704517E1   3.276779084949249E-1   7.082307288921834E1   3.286972236527329E-1   7.673423728614829E1   4.479957152615807E-1  -1.621730976606026E2  
 6.845000000000000E10    1.422777918681486E-1   2.346851576655532E1   3.143940689593695E-1   2.795658323655940E1   3.148566859837406E-1   3.387779200438384E1   5.000403292289523E-1  -1.746614785910445E2  
 6.850000000000000E10    1.780658010898100E-1  -3.418193878976726E1   3.035775510235899E-1  -1.370311168994209E1   3.050457524756911E-1  -7.561617707514488   5.365935710067981E-1   1.709660125952968E2  
 6.855000000000000E10    2.105278155153154E-1  -8.586075528768983E1   2.996075920215589E-1  -5.430038364959955E1   2.999840449758580E-1  -4.858177139887958E1   5.518552253920552E-1   1.559935226550740E2  
 6.860000000000000E10    2.257460057657925E-1  -1.321753513017968E2   3.021345025651119E-1  -9.481486274910793E1   3.025100339981463E-1  -8.920530148956912E1   5.442719149569009E-1   1.412992439135311E2  
 6.865000000000000E10    2.067387052425803E-1  -1.747558605825302E2   3.102705690471161E-1  -1.360192340091039E2   3.109211013304628E-1  -1.304608900279730E2   5.178930525720015E-1   1.278621830235059E2  
 6.870000000000000E10    1.452213407129527E-1   1.480837965343330E2   3.215215155218690E-1  -1.784776687446689E2   3.224926507193978E-1  -1.730372371177286E2   4.790975271155708E-1   1.166166890880102E2  
 6.875000000000000E10    6.283323359603261E-2   1.349217754814272E2   3.311632911229713E-1   1.381645438727397E2   3.317584562735313E-1   1.432818863632809E2   4.459014076227008E-1   1.083080116662542E2  
 6.880000000000000E10    6.878738029595247E-2  -1.762561311397255E2   3.357078166628129E-1   9.400119467171892E1   3.373000754645817E-1   9.929964271728647E1   4.266531114542859E-1   1.016690816368335E2  
 6.885000000000000E10    1.139598707257404E-1   1.637375273498537E2   3.383314563903341E-1   4.984712133527422E1   3.386553658190915E-1   5.546768118758214E1   4.215243542669453E-1   9.503547956334373E1  
 6.890000000000000E10    1.017222886211775E-1   1.289919163492617E2   3.376822854609957E-1   5.581220845985905   3.383652452193474E-1   1.130190977844435E1   4.203175939466392E-1   8.877865934812658E1  
 6.895000000000000E10    2.771457375436530E-2   1.042683951002513E2   3.325242596627270E-1  -3.873038794282653E1   3.333884969841169E-1  -3.297795874029088E1   4.372214338754627E-1   8.261187015529376E1  
 6.900000000000000E10    8.634202465013981E-2  -1.404868339473117E2   3.212950803837054E-1  -8.240487290129981E1   3.221008459174360E-1  -7.661018216805994E1   4.778988215190786E-1   7.442247945954148E1  
 6.905000000000000E10    1.929936312142722E-1  -1.748655353549714E2   3.078162080075658E-1  -1.244474711237043E2   3.085288951102446E-1  -1.187629548888428E2   5.208130429823853E-1   6.216030921679716E1  
 6.910000000000000E10    2.619255820634686E-1   1.504321491966607E2   2.990862237265227E-1  -1.650223341609719E2   2.997970233789356E-1  -1.593101562830469E2   5.451846394417668E-1   4.713578714861799E1  
 6.915000000000000E10    2.805465246574275E-1   1.167899733266417E2   2.990733853652834E-1   1.550262899509254E2   3.001578415237154E-1   1.609109746207018E2   5.401432880937515E-1   3.116354848479254E1  
 6.920000000000000E10    2.468168515181808E-1   8.454413500733679E1   3.087399424048597E-1   1.145137437164914E2   3.097346156830483E-1   1.202427735177213E2   5.078237805169853E-1   1.581589815692608E1  
 6.925000000000000E10    1.637088172307698E-1   5.824927163933665E1   3.224527320067084E-1   7.250324557784941E1   3.232908180386506E-1   7.819414902791175E1   4.622325315013607E-1   3.144349449035036  
 6.930000000000000E10    8.120377935423143E-2   6.418465985763338E1   3.329923851660610E-1   2.891116438876066E1   3.337756955345182E-1   3.486099718288500E1   4.237137671338712E-1  -6.349998516259033  
 6.935000000000000E10    1.093513160885802E-1   9.357026603071287E1   3.383285717860001E-1  -1.476108920426128E1   3.388426594622382E-1  -8.721004720431647   4.049969341479318E-1  -1.489658518307277E1  
 6.940000000000000E10    1.543722042689729E-1   7.561911847432197E1   3.417064641887817E-1  -5.825096010851873E1   3.425559734619971E-1  -5.211612348141129E1   3.911452858772853E-1  -2.490236790451398E1  
 6.945000000000000E10    1.462758911756047E-1   4.979314945680612E1   3.455713966427148E-1  -1.020005581209902E2   3.462210708452344E-1  -9.581711901339624E1   3.664302278701199E-1  -3.378613126824950E1  
 6.950000000000000E10    9.371476194189773E-2   3.993398385635096E1   3.461681977425508E-1  -1.460567697812583E2   3.466753064908201E-1  -1.402179652081819E2   3.537254508877158E-1  -3.838614103443075E1  
 6.955000000000000E10    9.605377183852384E-2   7.256297476554572E1   3.382570428841397E-1   1.697292689453476E2   3.392829652084297E-1   1.752894048185108E2   3.840609867609975E-1  -4.252798067884971E1  
 6.960000000000000E10    1.797141091999503E-1   6.331565288861939E1   3.253121927786722E-1   1.266684750901739E2   3.263062330349337E-1   1.320991066665947E2   4.438834171799027E-1  -5.296946514176236E1  
 6.965000000000000E10    2.458981892329324E-1   3.444722607069686E1   3.138679329776171E-1   8.540234387461371E1   3.143278089993528E-1   9.069283089464463E1   4.904026411087146E-1  -6.838167327291509E1  
 6.970000000000000E10    2.680740343643415E-1   2.020952942407146   3.084435843183364E-1   4.501977435687010E1   3.093600439562664E-1   5.037909602993411E1   5.075902172070528E-1  -8.561783012643464E1  
 6.975000000000000E10    2.439252992243337E-1  -3.160522596479374E1   3.121781094070844E-1   4.660644427973335   3.130891930297511E-1   1.013699547871426E1   4.962443024878075E-1  -1.023655691382914E2  
 6.980000000000000E10    1.769219736296370E-1  -6.421519226644527E1   3.223364868341443E-1  -3.662657963297396E1   3.223063890164856E-1  -3.119968381937969E1   4.638433989440174E-1  -1.170525067836008E2  
 6.985000000000000E10    8.449014320817130E-2  -8.353722130134672E1   3.316234241850233E-1  -7.938685678941837E1   3.316280277195301E-1  -7.341018972971850E1   4.286038079965669E-1  -1.288850089285343E2  
 6.990000000000000E10    5.757360973199675E-2  -2.969706482393076E1   3.373034478149292E-1  -1.226382766487299E2   3.384526538680934E-1  -1.163276193785260E2   4.056623271911620E-1  -1.390124136586861E2  
 6.995000000000000E10    1.215889209872266E-1  -3.429998874092338E1   3.411078655332763E-1  -1.656189823892449E2   3.418250065974887E-1  -1.594350661105348E2   3.873345841067274E-1  -1.494887279632808E2  
 7.000000000000000E10    1.500802580224064E-1  -6.185838482714819E1   3.453137681717897E-1   1.513899339946114E2   3.453928483104040E-1   1.574260821958142E2   3.595471222929174E-1  -1.596292812606481E2  
 7.005000000000000E10    1.302030426963764E-1  -8.408867673671126E1   3.487214670216703E-1   1.080388712703473E2   3.490877902350079E-1   1.138435077006188E2   3.260459867576150E-1  -1.654798101125575E2  
 7.010000000000000E10    1.028979585943141E-1  -8.043832946467116E1   3.471575421210897E-1   6.374777244163644E1   3.477152623687491E-1   6.951178238330540E1   3.244182764021867E-1  -1.658825605816305E2  
 7.015000000000000E10    1.527492778542597E-1  -7.186386098795576E1   3.375067039492413E-1   2.000035472156787E1   3.376997068550485E-1   2.576357491297635E1   3.747559663835113E-1  -1.698677974006607E2  
 7.020000000000000E10    2.320413089708415E-1  -9.128508336685894E1   3.238115766826132E-1  -2.228574676687129E1   3.240288747395737E-1  -1.652671761262870E1   4.394314128579507E-1   1.782687647942599E2  
 7.025000000000000E10    2.841471263978835E-1  -1.198850228355084E2   3.132810853203634E-1  -6.295651310246281E1   3.139655100171609E-1  -5.712803459462485E1   4.802964656201033E-1   1.618873374638516E2  
 7.030000000000000E10    2.927452055092999E-1  -1.496794464527901E2   3.113687236883019E-1  -1.027418258819317E2   3.123205305636052E-1  -9.699913083982524E1   4.854197407659061E-1   1.446604342102958E2  
 7.035000000000000E10    2.536538251087245E-1  -1.779638267943467E2   3.189435637988444E-1  -1.434789158922804E2   3.196243070927169E-1  -1.370528034516927E2   4.587022678292656E-1   1.287392066509330E2  
 7.040000000000000E10    1.729682000640456E-1   1.609784461864326E2   3.295048675865277E-1   1.746536128788484E2   3.309373037020161E-1  -1.786861819338619E2   4.148751288347881E-1   1.159353147510132E2  
 7.045000000000000E10    1.070084385428257E-1   1.687017530885647E2   3.392629135233132E-1   1.317019262366091E2   3.392943580775003E-1   1.384915613780574E2   3.814827574674499E-1   1.071742597062100E2  
 7.050000000000000E10    1.369472315384186E-1  -1.732371407088062E2   3.424626238098912E-1   8.892120438343549E1   3.432343124829428E-1   9.540070836513624E1   3.697931429434503E-1   9.892100200034656E1  
 7.055000000000000E10    1.807903753888212E-1   1.733114368530030E2   3.446724900007594E-1   4.612966687753344E1   3.452990317556375E-1   5.252366921520321E1   3.557434945810672E-1   8.829159925331589E1  
 7.060000000000000E10    1.818302474688389E-1   1.548380516322623E2   3.477614167458520E-1   3.461007219442413   3.483458822973096E-1   9.522924927509045   3.236548972058432E-1   7.854615238327085E1  
 7.065000000000000E10    1.525228174344869E-1   1.487241867922400E2   3.500415982604914E-1  -4.005712966819930E1   3.502775452170839E-1  -3.388282653719193E1   2.906352727287451E-1   7.575145115777660E1  
 7.070000000000000E10    1.686342744474914E-1   1.574778987568060E2   3.445701646880658E-1  -8.379177145214965E1   3.448770537492055E-1  -7.774749140891302E1   3.092836528292048E-1   7.688697143057892E1  
 7.075000000000000E10    2.414254883918987E-1   1.493619732318321E2   3.330839802706854E-1  -1.265273290465907E2   3.328253274016199E-1  -1.204695477181615E2   3.725985785373737E-1   6.936451410846905E1  
 7.080000000000000E10    3.025009889523488E-1   1.277418066109111E2   3.226574110524744E-1  -1.675132632767270E2   3.221075851269054E-1  -1.614475445849253E2   4.254640887138005E-1   5.343477118973075E1  
 7.085000000000000E10    3.200328444203089E-1   1.027127962341324E2   3.183197791360258E-1   1.523018096748350E2   3.186485931374090E-1   1.586320636868316E2   4.380850776005313E-1   3.499005001672366E1  
 7.090000000000000E10    2.947241474633144E-1   7.794937745014509E1   3.236791046792807E-1   1.118301592253811E2   3.243263517399908E-1   1.187742554055128E2   4.132339758076747E-1   1.679653549362628E1  
 7.095000000000000E10    2.305537277879537E-1   5.781030834564024E1   3.342000191376277E-1   7.063015858314591E1   3.342275509885255E-1   7.744688956354440E1   3.634655363288333E-1   2.495779639275982  
 7.100000000000000E10    1.656404809705522E-1   5.169343388708086E1   3.439897452748538E-1   2.798499351806285E1   3.441252427451311E-1   3.467885978697961E1   3.216073968035574E-1  -6.262442069378139  
 7.105000000000000E10    1.568944114274838E-1   5.880504064937093E1   3.487484275012909E-1  -1.488713032849644E1   3.486614741366079E-1  -8.374760618440291   3.153167281070916E-1  -1.271586559430051E1  
 7.110000000000000E10    1.819729808907098E-1   5.105607896340065E1   3.490748437186876E-1  -5.746774161101339E1   3.495963903033563E-1  -5.106728366146729E1   3.221990540072317E-1  -2.341258774404629E1  
 7.115000000000000E10    1.843523927224048E-1   3.392417284990599E1   3.507523033788106E-1  -9.998471734778353E1   3.515088635707662E-1  -9.347418751612082E1   3.110342520190423E-1  -3.698955397094268E1  
 7.120000000000000E10    1.491919153434413E-1   2.017836024055630E1   3.541352666367129E-1  -1.426249011551531E2   3.552798035878109E-1  -1.363653642851645E2   2.820148624762608E-1  -4.721430868165951E1  
 7.125000000000000E10    1.218648261071399E-1   2.767552947797530E1   3.546865300512578E-1   1.741240438277812E2   3.545817342352333E-1  -1.797956269984801E2   2.683255681359315E-1  -5.048453821426299E1  
 7.130000000000000E10    1.640997974395895E-1   3.600807089655648E1   3.483012106982650E-1   1.310015024560680E2   3.485517670035132E-1   1.370172609474480E2   3.015954850033358E-1  -5.458220201629273E1  
 7.135000000000000E10    2.348707710786596E-1   2.062098096083005E1   3.381260379339108E-1   8.878136863394164E1   3.392817083627530E-1   9.502855534588049E1   3.533998778713989E-1  -6.693983706986046E1  
 7.140000000000000E10    2.776560545266554E-1  -3.765264304275544   3.315617526552511E-1   4.767066331992837E1   3.322399405458833E-1   5.418537544694357E1   3.844626690892881E-1  -8.447694905032215E1  
 7.145000000000000E10    2.812862992774624E-1  -2.912749248425677E1   3.313076211251652E-1   7.029575782229074   3.321838227457855E-1   1.365855238124622E1   3.810387461505629E-1  -1.027908096812845E2  
 7.150000000000000E10    2.494444238392284E-1  -5.173079257251453E1   3.370101217133885E-1  -3.395546535066474E1   3.372953839219709E-1  -2.749315034220399E1   3.453062400118678E-1  -1.181200064305249E2  
 7.155000000000000E10    2.021084811472465E-1  -6.520225034824024E1   3.432042071626252E-1  -7.593800214870501E1   3.438111554646557E-1  -6.965718740055640E1   3.034326692695704E-1  -1.265522510096569E2  
 7.160000000000000E10    1.842459807037961E-1  -6.781216356011042E1   3.458483670745182E-1  -1.185017894703715E2   3.463908472519223E-1  -1.123904071732060E2   2.985357014843266E-1  -1.294970154774993E2  
 7.165000000000000E10    2.097860322547308E-1  -7.591408294150746E1   3.438174047208332E-1  -1.609438747345529E2   3.441028456523833E-1  -1.547562026272784E2   3.279325308306605E-1  -1.362429319389590E2  
 7.170000000000000E10    2.292899774083729E-1  -9.466373620314460E1   3.415793535624443E-1   1.573895046728287E2   3.423631310164740E-1   1.633488644622059E2   3.538508995062281E-1  -1.487127376709143E2  
 7.175000000000000E10    2.105736144440349E-1  -1.170983454255559E2   3.436496359260385E-1   1.156785721689134E2   3.446674160035656E-1   1.218130135448990E2   3.523919003915945E-1  -1.625039977897724E2  
 7.180000000000000E10    1.521601105957527E-1  -1.328858911778168E2   3.477841634746416E-1   7.350942888394886E1   3.485090922359082E-1   7.959329784281606E1   3.294732959272253E-1  -1.726177024671801E2  
