#  HZ   S   MA   R     50.00 
! Rohde & Schwarz ZVA67 4Ports - Version 4.11 - 1305.7002k04 SN: 101051
! Date: 2023-05-31 11:12:31
! Measurements: S11 S21 S12 S22 
! 
 5.000000000000000E7     1.500659762182195E-2   1.759620743108292E2   1.277028852096996E-4  -1.230070060350503E1   1.083173650717748E-4  -1.664034600920728E1   1.901758750893670E-2  -1.765519666124659E2  
 1.000000000000000E8     1.453243621733451E-2   1.682734930534612E2   1.135295149349386E-4   4.005031226460228E1   8.914579651391907E-5   3.843067272816859E1   1.623252281182782E-2   1.759486250500469E2  
 1.500000000000000E8     1.293189435115585E-2   1.600368683763077E2   1.208894925788550E-4  -1.023430702446738E2   7.698425677062627E-5   1.535868399580461E2   1.546340681172519E-2   1.724581959647950E2  
 2.000000000000000E8     1.215168220143476E-2   1.467087453333340E2   5.303162789693619E-5   8.752175754741000E1   9.695592676419616E-6  -2.689356594984781E1   1.414723443875276E-2   1.677043805905887E2  
 2.500000000000000E8     1.127872059075790E-2   1.401190406854719E2   4.924163855860437E-5   4.566692330043288E1   6.480977630860789E-5   5.849633619585136E1   1.293859510245348E-2   1.619543717224990E2  
 3.000000000000000E8     1.030845261929252E-2   1.279652787512260E2   1.205925643646908E-4   5.284274895621940E1   1.180090665169213E-4   2.745571253354378E1   1.148282481754352E-2   1.552483758647921E2  
 3.500000000000000E8     9.533823815175089E-3   1.109272736809660E2   5.266519391269905E-5   9.594677431761018E1   7.235443127682010E-5   7.178842766470179E1   1.122505248528934E-2   1.487224390093008E2  
 4.000000000000000E8     9.219401486609640E-3   8.772507568252729E1   9.649175000359106E-5   5.180503659310480E1   8.599416828891768E-5   1.195730507900634E1   9.695378269832520E-3   1.425175963906776E2  
 4.500000000000000E8     1.152604462545397E-2   7.476806486562539E1   9.757818602415464E-5   4.435708985113818E1   8.785349872843737E-5   3.446873730442280E1   9.311067301889773E-3   1.276108069766523E2  
 5.000000000000000E8     1.327400992528302E-2   6.648486725403676E1   1.206917175843742E-4   2.436997253897193E1   8.884636338118823E-5   1.990335551068547E1   9.764073058730451E-3   1.195182912950786E2  
 5.500000000000000E8     1.546562225551510E-2   5.927138281929265E1   1.228159080424608E-4   2.213175395196637E1   1.090322001525038E-4   1.936969896778117E1   1.066928635701760E-2   1.130196516206870E2  
 6.000000000000000E8     1.694478009993686E-2   5.506751232596461E1   1.161313892563173E-4   4.213410515519274   1.341184001108215E-4   4.408971604525295   1.071740439255674E-2   1.094453860824842E2  
 6.500000000000000E8     1.938480411353510E-2   4.935081498695823E1   1.536908598730850E-4   1.394961638727974E1   1.360722048793354E-4   2.604953929105328   1.160009358015740E-2   1.039087599051779E2  
 7.000000000000000E8     2.129709969008359E-2   4.834482011062770E1   1.749630570752576E-4  -3.476246026226174   1.612201748676679E-4  -8.465613824590959   1.223191891254092E-2   1.028389774922157E2  
 7.500000000000000E8     2.327644103166532E-2   4.594638767310485E1   1.539675551147741E-4  -4.032402542121732   1.477363256478130E-4  -1.057045956431743E1   1.321399621119903E-2   9.572591169319388E1  
 8.000000000000000E8     2.484081121123657E-2   4.531719374840411E1   1.683551555231420E-4  -1.509597782489484E1   1.730606511584133E-4  -1.435866523604837E1   1.537534000069401E-2   9.580430819540499E1  
 8.500000000000000E8     2.588345930799303E-2   4.276185971567763E1   1.881251560879083E-4  -2.163376157040936E1   1.639098417170224E-4  -3.652943949668892E1   1.620437005747863E-2   9.602228271730606E1  
 9.000000000000000E8     2.732878085517339E-2   4.113136650969262E1   1.926561265261940E-4  -2.688661496213883E1   1.968682121167796E-4  -3.332038838964181E1   1.651488463164054E-2   9.811101435138839E1  
 9.500000000000000E8     2.770711424988367E-2   4.024553867783966E1   1.987355729707787E-4  -3.755597381873042E1   2.093243139131156E-4  -3.326184500962481E1   1.599213267571359E-2   9.817533038500815E1  
 1.000000000000000E9     2.759255170766010E-2   3.964408986377269E1   2.213433890157377E-4  -4.629796951113177E1   2.268631708167962E-4  -3.741447806791361E1   1.625423464008612E-2   9.757801761848721E1  
 1.050000000000000E9     2.675540067462375E-2   3.732811890410551E1   2.471228011056583E-4  -5.432934742733449E1   2.324455554618993E-4  -5.302724166403856E1   1.587946943160059E-2   9.780769630082752E1  
 1.100000000000000E9     2.681773171340843E-2   3.499085241282935E1   2.422248056476744E-4  -5.611511771456455E1   2.510296236845887E-4  -5.817760251682269E1   1.611934867710032E-2   9.473697001394358E1  
 1.150000000000000E9     2.613962917125977E-2   3.399910275398686E1   2.882734710823544E-4  -6.584672662963430E1   2.804176127089142E-4  -6.796953005822526E1   1.648765798190856E-2   9.515450286373525E1  
 1.200000000000000E9     2.515581904108504E-2   3.347209199453156E1   2.693938695488531E-4  -7.356916641278700E1   2.970070616601563E-4  -7.326921798175090E1   1.675458634673649E-2   9.568514388549008E1  
 1.250000000000000E9     2.286347685310494E-2   3.177072242403697E1   3.033853134363125E-4  -8.004589383569270E1   2.845245862162077E-4  -8.091615887061371E1   1.668866469589464E-2   9.779879573503489E1  
 1.300000000000000E9     2.162395718256253E-2   2.810777538618176E1   3.020526003628316E-4  -8.975059982129832E1   3.166180182648296E-4  -8.869232953807510E1   1.656747610328274E-2   9.758321632231085E1  
 1.350000000000000E9     2.005065100294156E-2   2.688725352764132E1   3.141756355473812E-4  -9.365887444999018E1   3.379969361926841E-4  -9.466577454303032E1   1.627879658020976E-2   9.829067677461629E1  
 1.400000000000000E9     1.768764259986324E-2   2.343865491041067E1   3.291124480285136E-4  -1.002383574483947E2   3.518395637963872E-4  -1.007466757768001E2   1.624222687813919E-2   9.722190771571906E1  
 1.450000000000000E9     1.565040227117218E-2   2.128195520669199E1   3.649231626514394E-4  -1.104662601986133E2   3.855336205238717E-4  -1.071886343867753E2   1.658970250682263E-2   9.873049094008613E1  
 1.500000000000000E9     1.269077870964918E-2   1.631608006714645E1   3.975518102497788E-4  -1.157184721911773E2   3.914793481283089E-4  -1.146814489949819E2   1.584951076385237E-2   9.847160539366473E1  
 1.550000000000000E9     1.047529972804083E-2   7.690434857900201   4.261931109143509E-4  -1.258431617879328E2   4.294914706331749E-4  -1.230150279292939E2   1.564373182182053E-2   9.868461089742142E1  
 1.600000000000000E9     8.272370469486565E-3  -3.486418192781090   4.438661205089669E-4  -1.316266628265325E2   4.640194825639100E-4  -1.303614823056640E2   1.535315416127992E-2   9.728587281502094E1  
 1.650000000000000E9     6.269727058350788E-3  -1.882911717927063E1   4.722537550395683E-4  -1.434694882463837E2   4.973450256357239E-4  -1.398833810780085E2   1.544243686458762E-2   9.760889179229305E1  
 1.700000000000000E9     5.017194882829068E-3  -5.247942606331087E1   5.239646534342888E-4  -1.495390170515969E2   5.469363940829790E-4  -1.503513420004706E2   1.457882656678332E-2   9.608909209094720E1  
 1.750000000000000E9     6.557977184079890E-3  -9.073405029666273E1   5.598752207090196E-4  -1.637879074915368E2   5.298724142126849E-4  -1.610477358491369E2   1.437627765775568E-2   9.639359140032668E1  
 1.800000000000000E9     9.667348045741103E-3  -1.038518527040420E2   5.611044308647244E-4  -1.760503417064946E2   5.719555191523197E-4  -1.773792984008392E2   1.306809674821013E-2   9.445695220173094E1  
 1.850000000000000E9     1.220176917698365E-2  -1.113030950571974E2   5.302680849547777E-4   1.701237239305670E2   5.021087950276885E-4   1.707095124711767E2   1.305992293166990E-2   9.113791283922885E1  
 1.900000000000000E9     1.482654670818776E-2  -1.181152000667435E2   4.951291658800670E-4   1.623474542004197E2   5.099102001386328E-4   1.620387032754017E2   1.226001530594968E-2   9.012672116614327E1  
 1.950000000000000E9     1.763344653810822E-2  -1.234186179970116E2   4.639845869285564E-4   1.584766852900156E2   4.887756686485021E-4   1.567587902612875E2   1.179088547109391E-2   8.108686502025545E1  
 2.000000000000000E9     2.063995032900064E-2  -1.264890804760613E2   4.901245920655405E-4   1.545416314049845E2   5.121809931443641E-4   1.571096424014612E2   1.240686320865408E-2   7.539667329009959E1  
 2.050000000000000E9     2.293254557111021E-2  -1.272686457788913E2   4.970318297010039E-4   1.421905238350145E2   5.423319853705227E-4   1.426529688249069E2   1.300485095844794E-2   7.137994004567484E1  
 2.100000000000000E9     2.481369254110483E-2  -1.299725077698214E2   4.752860482019100E-4   1.335979369977360E2   4.927295563429047E-4   1.327118866729134E2   1.296907582600892E-2   6.943453590718804E1  
 2.150000000000000E9     2.690945045831908E-2  -1.320406426860147E2   4.844022835848657E-4   1.271908478090563E2   4.670709219585912E-4   1.310309947812517E2   1.329784749234328E-2   6.242718328471585E1  
 2.200000000000000E9     2.896322463246568E-2  -1.336492182602025E2   5.349576923109321E-4   1.203335257458301E2   5.239371009180482E-4   1.188451973355100E2   1.417458255715970E-2   5.968044177981642E1  
 2.250000000000000E9     3.001183258516306E-2  -1.335692928740628E2   5.626910996292191E-4   1.067991755162215E2   4.937924471454581E-4   1.078935593796700E2   1.500346847545383E-2   5.400790473978373E1  
 2.300000000000000E9     3.003862049359328E-2  -1.348040589706677E2   4.761616710186993E-4   9.972275144483764E1   4.762712444576637E-4   9.834833298420776E1   1.652941464150520E-2   5.200052942067679E1  
 2.350000000000000E9     3.010118340363222E-2  -1.369641948765242E2   4.162929034541045E-4   9.170682011022730E1   4.130714476632724E-4   8.901439800559160E1   1.795874519797312E-2   5.069525293664308E1  
 2.400000000000000E9     2.985620829167324E-2  -1.386515234751135E2   4.035966056261051E-4   8.389035091999378E1   4.006680504948003E-4   8.434580975461246E1   1.932530092494659E-2   4.900674500312554E1  
 2.450000000000000E9     2.953660168601803E-2  -1.406959437335861E2   4.429158382670445E-4   8.543128786910438E1   4.145810200856415E-4   7.985916852371427E1   2.047369225228640E-2   4.833842031683927E1  
 2.500000000000000E9     2.820195472028132E-2  -1.430721277147338E2   3.888051033042936E-4   7.979690201211747E1   3.992323326945159E-4   7.852472118014295E1   2.145304631289599E-2   4.954618543579254E1  
 2.550000000000000E9     2.680625431019934E-2  -1.464918982481595E2   3.248044823342667E-4   7.472108824599745E1   3.730918368236523E-4   7.673739660048446E1   2.234543076940246E-2   4.993923165897104E1  
 2.600000000000000E9     2.488972213375956E-2  -1.499026972665982E2   3.680719487819554E-4   7.225742580336187E1   3.817255604916255E-4   6.665283312609135E1   2.278128177015009E-2   5.037988876816863E1  
 2.650000000000000E9     2.316941839651181E-2  -1.555885511482148E2   3.727899287160889E-4   6.862367501290989E1   3.737362122248002E-4   6.772194331749189E1   2.247292985634997E-2   4.889422608629028E1  
 2.700000000000000E9     2.110380600320305E-2  -1.609787164523505E2   4.233843514441475E-4   5.682876311840437E1   3.630367497326413E-4   6.268214846024765E1   2.340873395243576E-2   4.626142513322568E1  
 2.750000000000000E9     1.915031343083087E-2  -1.697074410166919E2   4.731118925403549E-4   7.037960820686071E1   4.305898460700836E-4   6.636357934133575E1   2.394993346057052E-2   4.562532258743276E1  
 2.800000000000000E9     1.740184664085562E-2  -1.787891257433418E2   4.704634828416691E-4   4.944760174129605E1   4.901490369755124E-4   5.244031515973290E1   2.424984756527934E-2   4.343671547154245E1  
 2.850000000000000E9     1.616957763017827E-2   1.664412661010383E2   5.169390171241674E-4   4.153855935990141E1   4.619050188432117E-4   4.872333057875803E1   2.497399727482805E-2   4.333002378993690E1  
 2.900000000000000E9     1.684765350376029E-2   1.515649111086820E2   4.548350302796638E-4   3.172790942215507E1   5.112571645003585E-4   3.518511352715724E1   2.480041588987516E-2   4.110329023137877E1  
 2.950000000000000E9     1.795526189005314E-2   1.389290388942292E2   5.306549138779943E-4   2.304459380215675E1   5.543223709831325E-4   2.925462449731263E1   2.615562903831601E-2   3.980502359247876E1  
 3.000000000000000E9     1.940413904042398E-2   1.293717069519766E2   4.682842795980090E-4   2.152659915823760E1   5.364082526008307E-4   1.455259031353949E1   2.618897832963059E-2   3.826250538869572E1  
 3.050000000000000E9     2.109941835927741E-2   1.195662862021217E2   4.318026998407536E-4   6.741914931087932   4.588428738616765E-4   6.551539643753507   2.647794820710400E-2   3.544047780260017E1  
 3.100000000000000E9     2.389698623677950E-2   1.093215625129402E2   4.572100270507577E-4   6.693132616740434   4.538270166431530E-4   3.968581604089192   2.733033072948026E-2   3.343249217901796E1  
 3.150000000000000E9     2.669550369304577E-2   1.028086942120254E2   3.931937860379154E-4   1.826092844492096E-1   4.517116617182968E-4  -8.251205217761422   2.810343751521227E-2   3.212320464264688E1  
 3.200000000000000E9     2.975525919936492E-2   9.731697376536880E1   4.265540144396043E-4  -1.219349147260280E1   4.501257462846289E-4  -6.754607169835288   2.876212633372227E-2   3.038428337692203E1  
 3.250000000000000E9     3.297672963169481E-2   9.309171629469650E1   4.364979757842638E-4  -1.353992928745821E1   4.673913826598064E-4  -1.946534947612227E1   2.891359408715633E-2   2.986473181195942E1  
 3.300000000000000E9     3.569068682392860E-2   8.880756307914245E1   4.466204506602234E-4  -2.477426268739260E1   4.220832170835742E-4  -1.862560334501886E1   2.939705948789207E-2   2.860296106756754E1  
 3.350000000000000E9     3.844755187353621E-2   8.527401105367937E1   4.739714911632932E-4  -2.574250811336878E1   4.456811293892499E-4  -2.672348236778531E1   2.929752314738727E-2   2.739454982317813E1  
 3.400000000000000E9     4.069300741080869E-2   8.218692698529523E1   4.075956232320405E-4  -3.224024485561391E1   4.357605514581687E-4  -3.554395722832899E1   2.959213583783069E-2   2.517752266738191E1  
 3.450000000000000E9     4.314417181290743E-2   7.933742636035144E1   4.543758576918333E-4  -4.389589651947350E1   4.400582853794761E-4  -4.024606117174822E1   2.976008051506723E-2   2.407532915065934E1  
 3.500000000000000E9     4.569469799303422E-2   7.633114908920655E1   4.279422058750895E-4  -4.521841505757813E1   4.201333243913002E-4  -5.112065285577274E1   2.952429554364502E-2   2.181332356168575E1  
 3.550000000000000E9     4.735384529069073E-2   7.362374569450306E1   4.183060872770388E-4  -4.808645018902856E1   4.096014102702726E-4  -4.674460894272476E1   3.054934743641045E-2   2.075858623502560E1  
 3.600000000000000E9     4.853285370142817E-2   7.057085289323719E1   4.414522066403664E-4  -4.919984957466470E1   4.420794246209280E-4  -5.175976907591419E1   2.967876465689231E-2   2.209939051341557E1  
 3.650000000000000E9     5.066008233356896E-2   6.757984560630175E1   4.622500972337082E-4  -5.928657667225586E1   4.163745351065464E-4  -5.931942972141573E1   2.828178138077233E-2   2.035033313269616E1  
 3.700000000000000E9     5.217953664478163E-2   6.526533397868732E1   4.422806099661226E-4  -6.038674650079921E1   4.348310616116409E-4  -5.887660067836204E1   2.767853227809826E-2   1.790685382229289E1  
 3.750000000000000E9     5.301594863035486E-2   6.211655719666255E1   4.772557914186818E-4  -7.545155992468804E1   5.113098639778380E-4  -6.570300381483988E1   2.689263589147863E-2   1.249638189526719E1  
 3.800000000000000E9     5.420449260302920E-2   5.993664962761775E1   5.174359627850022E-4  -8.077933381278355E1   4.418601810961372E-4  -7.437237887023746E1   2.839040516308661E-2   1.087850395303007E1  
 3.850000000000000E9     5.478161586357089E-2   5.817775985609645E1   4.945783761946166E-4  -8.143383668381361E1   5.092362485658570E-4  -7.990442763669765E1   2.734631946438721E-2   9.392408543783523  
 3.900000000000000E9     5.521504336720888E-2   5.569844475330456E1   4.594421937667024E-4  -9.318010661618980E1   5.388563062256218E-4  -9.393470696133744E1   2.758050610229813E-2   5.422883222814078  
 3.950000000000000E9     5.474664998299382E-2   5.386357286202859E1   5.133925783702391E-4  -9.286837556704668E1   5.602836243423417E-4  -9.625688898928677E1   2.766319732668820E-2   3.614826164215301  
 4.000000000000000E9     5.424299781620488E-2   5.099369595040550E1   5.302512743512055E-4  -1.021861015663028E2   4.855526991338067E-4  -1.059478819465325E2   2.749938958295600E-2   2.609414684759255  
 4.050000000000000E9     5.315865914550531E-2   4.862913620100348E1   5.134846407644458E-4  -1.108654571732543E2   5.188328119720898E-4  -1.116507553926512E2   2.710201368265522E-2  -5.683297666755580E-1  
 4.100000000000000E9     5.173556302220210E-2   4.533231541575726E1   5.090963685424092E-4  -1.163794141731278E2   5.266709623978150E-4  -1.166328568670039E2   2.786246749070069E-2  -4.032651330334407  
 4.150000000000000E9     5.066951526418347E-2   4.211948242116704E1   5.109252804718905E-4  -1.227672123833302E2   5.393989509017638E-4  -1.238003302887644E2   2.822182094016123E-2  -5.627131322444821  
 4.200000000000000E9     4.917481650752249E-2   3.844441949125267E1   5.233975747016569E-4  -1.315152523959094E2   5.135379206859594E-4  -1.307552916252606E2   2.885308014399045E-2  -8.779852169026222  
 4.250000000000000E9     4.750958789945305E-2   3.447584666344194E1   5.274040250721143E-4  -1.378086706813712E2   5.074132767256364E-4  -1.346100635289483E2   2.941986526446321E-2  -8.270728430403924  
 4.300000000000000E9     4.604391046062811E-2   2.966483435830145E1   4.884656439984385E-4  -1.418146653270212E2   5.268180355637019E-4  -1.423222460899627E2   2.905798036091611E-2  -8.829997337041650  
 4.350000000000000E9     4.551424192398770E-2   2.495387523383015E1   5.190689776879160E-4  -1.465389673173122E2   5.381741130824148E-4  -1.492048074816366E2   2.926140285132759E-2  -9.115553115379452  
 4.400000000000000E9     4.447190530994680E-2   2.099240762336443E1   5.009072079064758E-4  -1.498989828562789E2   4.946325191909851E-4  -1.526915235303047E2   2.854450848160114E-2  -1.065152909922854E1  
 4.450000000000000E9     4.287948573898543E-2   1.554366064734497E1   5.243865865492870E-4  -1.581097554809872E2   5.281271930584630E-4  -1.568363925010268E2   2.850510155807071E-2  -1.273812974648417E1  
 4.500000000000000E9     4.281744905121949E-2   1.028807667900720E1   5.232194250221269E-4  -1.603041926502610E2   5.407067367613347E-4  -1.641556674457347E2   2.893040461275486E-2  -1.415741265628284E1  
 4.550000000000000E9     4.204042680769274E-2   5.835922347414229   5.493373427115998E-4  -1.654168069123983E2   5.826786797377067E-4  -1.695513706263376E2   2.886234768760394E-2  -1.396614580676349E1  
 4.600000000000000E9     4.137817430041784E-2   1.062180749769388E-1   5.677309669072620E-4  -1.751217507892702E2   5.591347930265120E-4  -1.762475647651237E2   2.835550430311343E-2  -1.683860148976823E1  
 4.650000000000000E9     4.163856360797600E-2  -4.898211879037711   5.924635418108777E-4   1.783627886938274E2   5.814672839402701E-4   1.768819276151531E2   2.919693372956512E-2  -1.581072367367440E1  
 4.700000000000000E9     4.122582887268531E-2  -9.978287733910298   5.818165915810561E-4   1.695013900824604E2   6.134623390656323E-4   1.718727654748785E2   2.732200897710349E-2  -1.559965097761497E1  
 4.750000000000000E9     4.205876388700144E-2  -1.476701330319453E1   5.903877382683825E-4   1.648496554302679E2   5.943368282434510E-4   1.636555003487250E2   2.656699324706595E-2  -1.834845325552474E1  
 4.800000000000000E9     4.247481244159880E-2  -1.805100027033103E1   6.063881414997693E-4   1.585449709144630E2   6.019251442213957E-4   1.580528653169403E2   2.540803136475651E-2  -2.098475388699735E1  
 4.850000000000000E9     4.212994555471972E-2  -2.118995870627482E1   6.191450577511373E-4   1.500898085120570E2   5.909016292341652E-4   1.508455811473316E2   2.625804849503245E-2  -2.519497887877667E1  
