#  HZ   S   MA   R     50.00 
! Rohde & Schwarz ZVA67 4Ports - Version 4.11 - 1305.7002k04 SN: 101051
! Date: 2023-05-31 11:12:00
! Measurements: S11 S21 S12 S22 
! 
 5.000000000000000E7     1.665394814188358E-2   1.777517758253553E2   6.521323082038966E-6  -4.675117299626272E1   1.328891132128559E-4   5.497340530366905E1   1.920212696532778E-2  -1.772651752939355E2  
 1.000000000000000E8     1.448932256262131E-2   1.682666047998984E2   1.102242268676922E-4   7.745377427850812E1   9.060557884492556E-5   8.156209638367555E1   1.628365513651255E-2   1.772998851294408E2  
 1.500000000000000E8     1.277945623290061E-2   1.603820154095714E2   4.185922788757763E-5   8.487470122803534E1   7.615715101530562E-5   1.135038204809791E2   1.486786048647780E-2   1.698492967140185E2  
 2.000000000000000E8     1.223774498260601E-2   1.477890749325900E2   7.648811876853036E-5   1.042309802794666E2   9.927351758706249E-5   9.769462951592035E1   1.405649705890575E-2   1.672977818635224E2  
 2.500000000000000E8     1.161911792228165E-2   1.398590631537691E2   7.703087716303455E-5   5.467377710136527E1   2.422734067282507E-5   4.248371181446077E1   1.255465452315977E-2   1.626926619152422E2  
 3.000000000000000E8     1.013682303707243E-2   1.274678142115668E2   6.182940667285175E-5   7.435789748675829E1   5.567393982919411E-5   1.951664931472039E1   1.133412391699619E-2   1.547749396415457E2  
 3.500000000000000E8     9.622565770474019E-3   1.110188893274139E2   4.318478838116340E-5   6.848863865087559E1   7.978127117667735E-5   4.760584714348121E1   1.082862491854235E-2   1.476552276616548E2  
 4.000000000000000E8     9.542826675327515E-3   8.968068980704396E1   8.663649733936625E-5   5.911866670197023   8.405942187546372E-5   5.345458764575255E1   9.678464599508430E-3   1.425056331321993E2  
 4.500000000000000E8     1.175996095190435E-2   7.544152507959704E1   8.337056474364666E-5   3.433901666338517E1   9.129746130658529E-5   1.491152737983323E1   9.261541565008769E-3   1.274737747815360E2  
 5.000000000000000E8     1.358818554288995E-2   6.645583238480802E1   1.098738348610959E-4   1.709914357285316E1   9.971887630518249E-5   1.795371424993637E1   9.812226472410184E-3   1.193251114110052E2  
 5.500000000000000E8     1.559480247935461E-2   5.984756524162874E1   1.111751635190735E-4   1.954986752756846E1   1.406528420877580E-4   1.589272610159069E1   1.062823308732258E-2   1.136748523298969E2  
 6.000000000000000E8     1.702465871142600E-2   5.537141644657557E1   1.393827462386740E-4   5.760278105481018   1.185045265501695E-4   1.461324072495801   1.081347764545891E-2   1.100023700083706E2  
 6.500000000000000E8     1.950040937172820E-2   4.953695228344073E1   1.491771870347900E-4   5.197881140146302   1.433010527721126E-4   1.387504065898191   1.147899228227013E-2   1.044894633095735E2  
 7.000000000000000E8     2.144962760166465E-2   4.843155678240711E1   1.738640822979873E-4  -1.093373288998068E1   1.582545035706620E-4  -5.502888738949795   1.218798224583563E-2   1.026443195740801E2  
 7.500000000000000E8     2.335855400254823E-2   4.650538482706920E1   1.774704434680955E-4  -9.786506599195358   1.753748981094066E-4  -1.155102353964072E1   1.345483292755460E-2   9.598246767171004E1  
 8.000000000000000E8     2.500909372738058E-2   4.558316811980825E1   1.896514288095964E-4  -1.975142899734731E1   1.786639196123528E-4  -1.722333487460831E1   1.537796513222960E-2   9.570810242103748E1  
 8.500000000000000E8     2.595965161562375E-2   4.285553281871431E1   1.856612851356070E-4  -2.021475275062106E1   1.704598429654496E-4  -2.468873859231351E1   1.630167775857551E-2   9.623201152077122E1  
 9.000000000000000E8     2.735070991200358E-2   4.139205959838922E1   1.845408596768573E-4  -3.190970287617548E1   1.861244622365118E-4  -3.375235180497183E1   1.654997697973894E-2   9.813787135831471E1  
 9.500000000000000E8     2.780588930747178E-2   3.998051911700917E1   2.023832885666377E-4  -3.989385067085771E1   2.095706182927279E-4  -3.979292098649873E1   1.594795729665819E-2   9.803452837831887E1  
 1.000000000000000E9     2.763167778602051E-2   3.965484483193781E1   2.272278778222340E-4  -4.372893814200258E1   2.280013283219890E-4  -4.070449632910783E1   1.633230671794819E-2   9.785562143911612E1  
 1.050000000000000E9     2.692483795161602E-2   3.732033916661533E1   2.373794739074824E-4  -5.137393788164730E1   2.235960659708150E-4  -5.149453133788300E1   1.584464807259034E-2   9.810757801603273E1  
 1.100000000000000E9     2.695597590377222E-2   3.497726064464511E1   2.742719545848842E-4  -6.021314418216036E1   2.511438897863521E-4  -5.848129041836073E1   1.614374927746001E-2   9.479309225509545E1  
 1.150000000000000E9     2.623930542152340E-2   3.391369631457658E1   2.742431753472986E-4  -6.512323833043041E1   2.789199714126722E-4  -6.530306713160846E1   1.650138377177611E-2   9.546495936089337E1  
 1.200000000000000E9     2.513812790830831E-2   3.326878074311205E1   2.843866289501434E-4  -7.437568444767810E1   2.622972032020390E-4  -7.472844759211996E1   1.672181074135666E-2   9.564501209618625E1  
 1.250000000000000E9     2.295756690044460E-2   3.171171562405268E1   2.956344397922296E-4  -7.973126249586582E1   3.029062063707553E-4  -7.949740852542919E1   1.677622806687138E-2   9.787620868541029E1  
 1.300000000000000E9     2.170083657462035E-2   2.774205501155391E1   3.156904571091800E-4  -8.906266017461554E1   3.080021153860949E-4  -8.388233161824925E1   1.657746998247484E-2   9.767922762853958E1  
 1.350000000000000E9     1.996261267655574E-2   2.693288671206036E1   3.253492061629360E-4  -9.473615588280566E1   3.171155075545609E-4  -9.313696522873512E1   1.635588136120005E-2   9.781852474824348E1  
 1.400000000000000E9     1.771168610471286E-2   2.306659794406092E1   3.333549507674445E-4  -1.030828604750130E2   3.540510985116408E-4  -1.059539309149163E2   1.623353866266449E-2   9.661435673281997E1  
 1.450000000000000E9     1.572393316369977E-2   2.086528427573368E1   3.758559845474525E-4  -1.083703914106600E2   3.715010932875258E-4  -1.068361219253590E2   1.637908610213347E-2   9.882168169068693E1  
 1.500000000000000E9     1.279908896870351E-2   1.569290968694240E1   3.993001031608496E-4  -1.142432151921080E2   3.829353076180890E-4  -1.132567359948153E2   1.592395067900269E-2   9.859246874244575E1  
 1.550000000000000E9     1.041813770816549E-2   7.802298748582863   4.362118852402566E-4  -1.262548842046805E2   4.491199955559270E-4  -1.257223277709226E2   1.569206285787238E-2   9.863610343948865E1  
 1.600000000000000E9     8.345533241042842E-3  -3.929690085477100   4.424594771983980E-4  -1.312320609106361E2   4.715755424311522E-4  -1.297036330028092E2   1.538315422216213E-2   9.716335677308949E1  
 1.650000000000000E9     6.244448297390914E-3  -1.875291842150723E1   4.711731509036040E-4  -1.400071783581403E2   4.683034992423726E-4  -1.364660011363229E2   1.543966433635860E-2   9.735508130566838E1  
 1.700000000000000E9     5.048515557324486E-3  -5.182773362253718E1   5.559392975910298E-4  -1.502691010534156E2   5.055724391602969E-4  -1.488956718203151E2   1.459476381054953E-2   9.622756424762221E1  
 1.750000000000000E9     6.546338419478102E-3  -8.951884097906660E1   5.552142568815422E-4  -1.632012059394243E2   5.557766945835795E-4  -1.617434178360268E2   1.426598620084261E-2   9.682496750149375E1  
 1.800000000000000E9     9.740199101205896E-3  -1.028410252611265E2   5.620261034862493E-4  -1.755845050846878E2   5.744488174871903E-4  -1.777065106578743E2   1.325843811820071E-2   9.454493042064883E1  
 1.850000000000000E9     1.231086192392804E-2  -1.115535926375113E2   5.340262454145301E-4   1.716866696378969E2   5.224305177727889E-4   1.717372341431130E2   1.303560933062572E-2   9.077030052737052E1  
 1.900000000000000E9     1.491437475108085E-2  -1.181226006407956E2   4.974544627267121E-4   1.631641566157599E2   4.888441620341650E-4   1.632610061095654E2   1.227899845027430E-2   9.006766004721644E1  
 1.950000000000000E9     1.771245722187259E-2  -1.232202243253483E2   4.636016221376633E-4   1.588409010338822E2   4.687604463906223E-4   1.568321522306364E2   1.157427359545583E-2   8.126574195420045E1  
 2.000000000000000E9     2.064509145605666E-2  -1.266193425829416E2   5.001022465227782E-4   1.545016726739733E2   4.928397177749072E-4   1.558832811199276E2   1.235465501055711E-2   7.497284470068028E1  
 2.050000000000000E9     2.321855834626161E-2  -1.272342886462660E2   5.195460127469635E-4   1.439394676420463E2   5.194214642771146E-4   1.418337985914114E2   1.295436127739237E-2   7.159800011844375E1  
 2.100000000000000E9     2.485826594380362E-2  -1.299684507452780E2   4.693528084261899E-4   1.330195938059337E2   4.768027736814675E-4   1.333932807315300E2   1.298428793700806E-2   6.910864489023244E1  
 2.150000000000000E9     2.704834561434683E-2  -1.322509466250399E2   4.702933722597463E-4   1.297729179530083E2   4.660597434149424E-4   1.306487755134401E2   1.338301358693963E-2   6.240579190482283E1  
 2.200000000000000E9     2.895647257565285E-2  -1.334927853407961E2   5.125108459386773E-4   1.199792024432409E2   5.058786641228605E-4   1.220731084046322E2   1.417573891471709E-2   5.929479913591267E1  
 2.250000000000000E9     2.999402728011113E-2  -1.336267203165477E2   5.100796951031937E-4   1.089987374072198E2   5.563706502979019E-4   1.073377299733220E2   1.489611113890646E-2   5.441083699479826E1  
 2.300000000000000E9     3.006441133191005E-2  -1.349054784203470E2   4.478156325747446E-4   9.609529882945765E1   4.813592444476111E-4   9.644252784987940E1   1.658942925271080E-2   5.182052713668319E1  
 2.350000000000000E9     3.016743962050166E-2  -1.369218822986840E2   4.206938355692077E-4   8.816903552925891E1   3.869251061988665E-4   9.655589613471631E1   1.797007498035036E-2   5.037737742635478E1  
 2.400000000000000E9     3.004591560070978E-2  -1.385090195409115E2   4.346490108745721E-4   9.090920324128116E1   4.331138764404053E-4   9.001452261956544E1   1.937319059936045E-2   4.946869541231717E1  
 2.450000000000000E9     2.974397051912920E-2  -1.406221901052408E2   4.026000454567495E-4   8.191179123595239E1   3.928739842624889E-4   8.256364286968045E1   2.039161754926872E-2   4.855073429681174E1  
 2.500000000000000E9     2.821258357322129E-2  -1.429616364636454E2   3.381800681857167E-4   7.901824382078419E1   3.514829749879271E-4   7.837616698848646E1   2.153797615699543E-2   4.937456146923927E1  
 2.550000000000000E9     2.684783823665662E-2  -1.463786171589238E2   3.657327501709921E-4   7.769006794749272E1   3.861036082836792E-4   7.674790757015694E1   2.214443683866924E-2   5.002571127989361E1  
 2.600000000000000E9     2.505505363757926E-2  -1.499820719120712E2   3.269827813670883E-4   7.001108407137802E1   3.659602416002447E-4   6.906225545979059E1   2.272745182659528E-2   5.006469163753301E1  
 2.650000000000000E9     2.323720669972422E-2  -1.554234186657482E2   3.631660789542569E-4   7.058465847865942E1   3.363349834495433E-4   6.906009633848490E1   2.241485333897745E-2   4.880193146524062E1  
 2.700000000000000E9     2.124163516831765E-2  -1.613853224912557E2   3.851810976646763E-4   6.572925463197083E1   3.773998003215273E-4   6.741442503769285E1   2.342524426004549E-2   4.609342891009481E1  
 2.750000000000000E9     1.914303458809299E-2  -1.697156789184200E2   3.952621944410737E-4   6.042822809100466E1   4.200118935046741E-4   6.453456370799813E1   2.387963701357494E-2   4.588491671429397E1  
 2.800000000000000E9     1.746894151437172E-2  -1.785049647862178E2   4.628584398191218E-4   5.310070311688544E1   4.670941497584938E-4   5.592621167428558E1   2.439684118527185E-2   4.322113996301370E1  
 2.850000000000000E9     1.615276569596958E-2   1.667938207318325E2   4.705448154535136E-4   4.193772457131963E1   5.023290098237088E-4   4.265166198705830E1   2.528499975251848E-2   4.321475500009693E1  
 2.900000000000000E9     1.691162055224543E-2   1.510273505819978E2   5.248734503541578E-4   3.314582211451892E1   4.969447344720554E-4   3.675991179755628E1   2.506834563890093E-2   4.101648549566048E1  
 2.950000000000000E9     1.813981934786515E-2   1.390134316976835E2   5.380275509821682E-4   3.099584879658726E1   4.318718411718744E-4   2.653366033939995E1   2.608902491234053E-2   3.864944792617742E1  
 3.000000000000000E9     1.949986689660279E-2   1.295815863569754E2   4.878071956266302E-4   1.422026628330677E1   5.123082573416589E-4   1.650227627002814E1   2.646195625241367E-2   3.849025359333889E1  
 3.050000000000000E9     2.123322902765712E-2   1.195372177907236E2   5.033697776903731E-4   1.069993921953249   4.728272566544515E-4   9.433694581644554   2.634378792081184E-2   3.577857884953040E1  
 3.100000000000000E9     2.392619824224623E-2   1.092349050438857E2   4.613607012572202E-4   4.471942951151608   4.318859875491063E-4   2.492875885455379   2.711961488883570E-2   3.367187058873540E1  
 3.150000000000000E9     2.690256490459218E-2   1.029319690464531E2   4.382260496562897E-4  -1.277633929571649   4.527086725141159E-4  -7.999571900130168   2.827550634547960E-2   3.208867839330990E1  
 3.200000000000000E9     2.991164109802268E-2   9.740949059147422E1   4.359937991134164E-4  -8.015001210127544   4.904567104997941E-4  -1.293350437308461E1   2.881453765271672E-2   3.074269945233205E1  
 3.250000000000000E9     3.293120567174453E-2   9.281859089522287E1   4.189350285817839E-4  -1.740650071241176E1   4.392279566313589E-4  -1.366645539031628E1   2.908763395632561E-2   2.973133333973248E1  
 3.300000000000000E9     3.568383664613421E-2   8.890822403848806E1   4.250421035163987E-4  -1.746205040983173E1   4.291998568105839E-4  -2.103734282399987E1   2.929293774483863E-2   2.804097383119767E1  
 3.350000000000000E9     3.867132275423366E-2   8.538629136891369E1   4.788488557997734E-4  -2.781796083625885E1   4.643732094628960E-4  -3.089926046721702E1   2.971909739480008E-2   2.745588529826375E1  
 3.400000000000000E9     4.066144262915939E-2   8.232960591128781E1   4.516724824648237E-4  -3.184972756472752E1   4.613070785949151E-4  -4.017508513826326E1   2.944829510138277E-2   2.553538244043903E1  
 3.450000000000000E9     4.334675299644484E-2   7.928684579000428E1   4.233445917731440E-4  -3.597062322979524E1   4.518580544888760E-4  -4.005844444471369E1   2.971448692436536E-2   2.388543460784847E1  
 3.500000000000000E9     4.575171349339637E-2   7.610205875568803E1   4.411581020021192E-4  -4.840457751087732E1   4.277559561664690E-4  -4.182601511032257E1   2.965055475027803E-2   2.155563479625355E1  
 3.550000000000000E9     4.734778834708565E-2   7.365006711694031E1   4.023683343348654E-4  -4.593068081967163E1   4.379999763512591E-4  -4.625277426626047E1   3.078384765236910E-2   2.098810987703666E1  
 3.600000000000000E9     4.862762333155733E-2   7.055503987459393E1   4.710121074638113E-4  -5.355963745647712E1   4.328492213488917E-4  -5.500574153524180E1   2.991672882864199E-2   2.223884407753702E1  
 3.650000000000000E9     5.054023527160467E-2   6.758444628906500E1   4.067215599599912E-4  -5.927869037596455E1   4.366386814846127E-4  -5.420124146166260E1   2.837610395441277E-2   2.000671561556285E1  
 3.700000000000000E9     5.210965774156267E-2   6.535713238782294E1   4.121616594326418E-4  -6.376728845421751E1   4.516940432254063E-4  -6.712141636199249E1   2.771499632135313E-2   1.807272891204551E1  
 3.750000000000000E9     5.303122390554015E-2   6.225062415015024E1   4.722401469201755E-4  -6.815694383394482E1   4.858633657826936E-4  -7.166102842222254E1   2.717123382857837E-2   1.255884878387371E1  
 3.800000000000000E9     5.432244355489656E-2   5.987633587934901E1   5.440959879561203E-4  -7.710411319645704E1   4.892446458006980E-4  -7.776342552000217E1   2.825190877533057E-2   1.071988780501946E1  
 3.850000000000000E9     5.477727971514608E-2   5.801922379046573E1   4.732223494230806E-4  -8.115228817352393E1   4.884333014789228E-4  -8.068251783745789E1   2.730152584011454E-2   9.396791005455265  
 3.900000000000000E9     5.526493555784116E-2   5.529661543618153E1   5.127361683461486E-4  -9.223104611643858E1   5.405737877436057E-4  -8.914378115712934E1   2.742079879614128E-2   5.563979485446807  
 3.950000000000000E9     5.502390730878742E-2   5.388425048532397E1   5.090181078273012E-4  -9.504897447941376E1   4.953231284785798E-4  -9.889965125190030E1   2.765536704691915E-2   3.519717485707409  
 4.000000000000000E9     5.411645621141716E-2   5.079623285194619E1   4.930873948985150E-4  -1.060526336441174E2   5.146233647154893E-4  -1.044014779882860E2   2.742783956772367E-2   2.800108759903122  
 4.050000000000000E9     5.316984081969367E-2   4.844945513499157E1   5.255650277369797E-4  -1.125055159606392E2   5.408428903886411E-4  -1.112238982882255E2   2.704487166768835E-2  -5.665859953116764E-1  
 4.100000000000000E9     5.178353935350421E-2   4.528215291559715E1   5.020719513670761E-4  -1.180742888334729E2   5.057677353470885E-4  -1.185963870310480E2   2.789702745835678E-2  -4.127725220260174  
 4.150000000000000E9     5.072231074118923E-2   4.195455034464348E1   5.075433268229163E-4  -1.255636177163564E2   4.938090014510666E-4  -1.215086717726238E2   2.826321299139117E-2  -5.259242994724956  
 4.200000000000000E9     4.918053424632491E-2   3.835160003814848E1   5.230923682995485E-4  -1.291234627583725E2   5.016004331757511E-4  -1.291595996266983E2   2.881553046793283E-2  -8.706951424704444  
 4.250000000000000E9     4.761854675299249E-2   3.439041077717794E1   5.049634214606418E-4  -1.374290068004325E2   5.301175158761685E-4  -1.375476954863166E2   2.951156737777311E-2  -8.245403908795769  
 4.300000000000000E9     4.610890242194579E-2   2.954103090950837E1   5.257794500605628E-4  -1.443432134929583E2   5.246495080589875E-4  -1.415210390374235E2   2.913778255034774E-2  -8.982207075814088  
 4.350000000000000E9     4.562494577432138E-2   2.489292501770468E1   5.191712212368520E-4  -1.497495020743300E2   5.063891804521969E-4  -1.464343761028835E2   2.924474875447546E-2  -9.533062029469845  
 4.400000000000000E9     4.438670761545497E-2   2.094975958188256E1   4.946529168665320E-4  -1.501363986545149E2   5.296443014868761E-4  -1.524729970401236E2   2.849084251802241E-2  -1.059167506561018E1  
 4.450000000000000E9     4.294398080277791E-2   1.554992064116792E1   5.065457973333103E-4  -1.578504231390367E2   5.188671724693820E-4  -1.558719979131120E2   2.836498767912979E-2  -1.297006940613310E1  
 4.500000000000000E9     4.281970362128064E-2   1.011273063408705E1   5.540765328238114E-4  -1.638760637291821E2   5.561663910180543E-4  -1.648123290911905E2   2.879644009863809E-2  -1.402228515310319E1  
 4.550000000000000E9     4.209101919542596E-2   5.719785757000593   5.853757352961877E-4  -1.721854230389226E2   5.729531113619654E-4  -1.691433829381055E2   2.871257471716756E-2  -1.408476383881522E1  
 4.600000000000000E9     4.141570545926954E-2   4.052268700830158E-2   5.705849199754583E-4  -1.785847447153765E2   5.719504379823358E-4  -1.778384475114159E2   2.835293849399526E-2  -1.713197450515593E1  
 4.650000000000000E9     4.162930875689010E-2  -5.135421128223088   5.849420121031607E-4   1.776130560438763E2   5.923897778776033E-4   1.781657224808184E2   2.914207625128537E-2  -1.579996534645357E1  
 4.700000000000000E9     4.130700066091297E-2  -1.016010134532989E1   6.160599216359222E-4   1.699290226162792E2   5.897732312889575E-4   1.700537554035445E2   2.741722818663885E-2  -1.574104483160210E1  
 4.750000000000000E9     4.213251350416673E-2  -1.492593760966380E1   5.873363343763816E-4   1.646343340121184E2   6.147887101311063E-4   1.662868882307209E2   2.658550110427069E-2  -1.815589264258387E1  
 4.800000000000000E9     4.230352362522972E-2  -1.810413922390976E1   5.926528825529340E-4   1.565843145408390E2   5.971422037279565E-4   1.576491064807098E2   2.536703673150866E-2  -2.142656629562990E1  
 4.850000000000000E9     4.216694082994562E-2  -2.149870646503400E1   6.344794976384565E-4   1.526442627117965E2   5.982488782705793E-4   1.518061511062024E2   2.628437786334422E-2  -2.559223222296240E1  
