#  HZ   S   MA   R     50.00 
! Rohde & Schwarz ZVA67 4Ports - Version 4.11 - 1305.7002k04 SN: 101051
! Date: 2023-09-13 16:54:45
! Measurements: S11 S21 S12 S22 
! 
 6.705000000000000E10    3.473528515449852E-1   1.040906161071285E2   4.995109586421932E-3   1.522251607617477E2   5.051612539710635E-3   1.554671335469490E2   3.696159090772936E-1   1.084275292497635E2  
 6.710000000000000E10    3.513392547226146E-1   4.766860390607701E1   5.411111708066424E-3   9.672589817716960E1   5.380879862134536E-3   1.008720937984839E2   8.374378975698699E-2   1.122885088767256E2  
 6.715000000000000E10    3.920949621667844E-1  -2.974108491278363   5.038860037347229E-3   4.046573121786278E1   4.786391832369257E-3   4.705808727173770E1   2.783270222306695E-1  -1.654874205036532E2  
 6.720000000000000E10    4.469280656566581E-1  -4.573180341918535E1   4.334424301735685E-3  -4.694644726978422   4.025022128733215E-3  -4.931777522613345E-1   5.049416151285937E-1   1.689626864407464E2  
 6.725000000000000E10    4.909508608336218E-1  -8.277320949686983E1   3.519030173336752E-3  -4.994663157143335E1   3.458549083582941E-3  -4.277896282452783E1   6.300304280272199E-1   1.437951190032607E2  
 6.730000000000000E10    5.234853199302150E-1  -1.162599709360377E2   3.165047519007087E-3  -8.946546330798951E1   3.173891702173926E-3  -8.277941988863894E1   6.913249652902049E-1   1.210503661127392E2  
 6.735000000000000E10    5.334311999294333E-1  -1.484556844539956E2   3.097154369640350E-3  -1.198352505219469E2   2.807923523634856E-3  -1.155024509548408E2   7.158473303145531E-1   9.952521199181693E1  
 6.740000000000000E10    5.257046431820157E-1   1.785790105921380E2   3.206587192672504E-3  -1.545335778644378E2   3.048436022187647E-3  -1.500927840816343E2   7.181073062691215E-1   7.828783235996855E1  
 6.745000000000000E10    4.933299842592088E-1   1.431173441201686E2   3.328405406119049E-3   1.655465370003763E2   3.325908445055412E-3   1.699069767192872E2   6.971659619949858E-1   5.613673861418749E1  
 6.750000000000000E10    4.408384694320242E-1   1.025480134316324E2   3.656298663625550E-3   1.284752924380756E2   3.713231110707765E-3   1.328231396482984E2   6.540908896237810E-1   3.266657798087858E1  
 6.755000000000000E10    3.811719947080948E-1   5.363280160924303E1   4.247092683112651E-3   8.391124518759614E1   4.274435392589281E-3   8.846032220301001E1   5.698842200998829E-1   6.256045763678775  
 6.760000000000000E10    3.460333178088942E-1  -3.228446480369038   4.944455805290855E-3   3.590851976791923E1   4.862570519455373E-3   4.266681563349987E1   4.332329402387778E-1  -2.456524751218201E1  
 6.765000000000000E10    3.663560510764767E-1  -5.988240001105944E1   5.276309469194659E-3  -1.271354966139788E1   5.319666696932530E-3  -9.296439549101164   2.175997112344516E-1  -6.381403747662777E1  
 6.770000000000000E10    4.164056446971483E-1  -1.084471324341622E2   5.155448408017437E-3  -6.416785160548912E1   5.259075015020983E-3  -6.259270846656020E1   7.250560172712757E-2   1.215410590846982E2  
 6.775000000000000E10    4.630845853865821E-1  -1.489153761302918E2   4.591519692709485E-3  -1.181511083510449E2   4.818957271737231E-3  -1.119706208776652E2   3.173256519814391E-1   5.945794250053361E1  
 6.780000000000000E10    4.946641617540846E-1   1.754416706501966E2   4.069369840529549E-3  -1.607732720165306E2   4.143851611193687E-3  -1.558337074382416E2   4.940557780797253E-1   2.423611373428164E1  
 6.785000000000000E10    5.091185659045193E-1   1.421083825400955E2   3.518829350713009E-3   1.568543116665913E2   3.410005460241478E-3   1.608308939496288E2   5.991782795517308E-1  -5.377354500900605  
 6.790000000000000E10    5.073144524281197E-1   1.086639411099346E2   3.174044217716086E-3   1.195643765457465E2   3.531358535259901E-3   1.256845200526893E2   6.587026606269923E-1  -3.188470324995537E1  
 6.795000000000000E10    4.898458445638033E-1   7.335263620295406E1   3.138287375198200E-3   8.513809531798479E1   3.382164538892443E-3   8.809741265528318E1   6.886761269436132E-1  -5.616728835705299E1  
 6.800000000000000E10    4.627653380906171E-1   3.460007152967334E1   2.945910334011637E-3   5.051117592753325E1   3.156489710771398E-3   4.969879210488040E1   6.963699841266737E-1  -7.915189865919911E1  
 6.805000000000000E10    4.349064658563207E-1  -8.693021899960653   3.321346606457974E-3   7.915993135767536   3.269966509354261E-3   1.360382184970708E1   6.851900896695206E-1  -1.021992144258848E2  
 6.810000000000000E10    4.186249875822397E-1  -5.600010429852073E1   3.636109173317743E-3  -3.085594142111458E1   3.910563117506985E-3  -3.023461930933076E1   6.466977010731282E-1  -1.255628445375109E2  
 6.815000000000000E10    4.140474491730717E-1  -1.045961119123160E2   4.235072571510318E-3  -7.575891074970487E1   4.324657610109550E-3  -7.061031351117649E1   5.731303463779014E-1  -1.508145520979013E2  
 6.820000000000000E10    4.221772314246971E-1  -1.520365981302258E2   4.753397002459606E-3  -1.222774881282486E2   4.753762499268598E-3  -1.162605113433534E2   4.357850295930137E-1  -1.788958462979801E2  
 6.825000000000000E10    4.284236352016373E-1   1.633590690317148E2   5.246875891914933E-3  -1.669993256904128E2   5.260130081692555E-3  -1.664763425090416E2   2.034595287299955E-1   1.492577999890041E2  
 6.830000000000000E10    4.298382295926778E-1   1.206007570867609E2   5.262408113192488E-3   1.392724212881960E2   5.199544940795907E-3   1.416009719191710E2   1.046856520936524E-1  -7.272711289669535E1  
 6.835000000000000E10    4.269036155592557E-1   7.873533111919070E1   4.566145166944699E-3   8.990641450683228E1   4.428886997571007E-3   9.219796396632766E1   3.803595633211505E-1  -1.041847982334096E2  
 6.840000000000000E10    4.229204318724470E-1   3.685225613057195E1   4.014477866062329E-3   4.242566292546917E1   3.849708820039461E-3   4.556234144404198E1   5.627279477168686E-1  -1.333187714008598E2  
 6.845000000000000E10    4.280001148235603E-1  -5.274058853584355   3.343050343625159E-3   4.211609851937724   3.413611251973267E-3   6.003822908402404   6.628165707204839E-1  -1.581488938753467E2  
 6.850000000000000E10    4.413341195806265E-1  -4.730524732283327E1   3.119634726539728E-3  -3.601687170858038E1   3.142122890337794E-3  -3.290047364418108E1   7.133472214179225E-1  -1.798164430977243E2  
 6.855000000000000E10    4.619872399577138E-1  -8.770847330190428E1   2.769004669925826E-3  -7.608410704620084E1   2.913262330756169E-3  -6.653432911264707E1   7.354671042554246E-1   1.601185030895616E2  
 6.860000000000000E10    4.831381440238987E-1  -1.264269725533062E2   2.998370481968943E-3  -1.049916304169126E2   2.952492153046249E-3  -1.016112274526748E2   7.348379036870181E-1   1.407675716166337E2  
 6.865000000000000E10    4.961696191077248E-1  -1.639926509641013E2   3.067965427942860E-3  -1.446483159846940E2   3.278797764262988E-3  -1.359415318126942E2   7.118569122886040E-1   1.213209032488363E2  
 6.870000000000000E10    4.901898992995703E-1   1.584541037579307E2   3.270493982764892E-3   1.787558151717432E2   3.578176040750478E-3  -1.775233571517818E2   6.565106535946171E-1   1.005165871144261E2  
 6.875000000000000E10    4.630720526204578E-1   1.195006663483583E2   3.989892848718975E-3   1.386368868084374E2   4.071632603461975E-3   1.427500703541618E2   5.487608572711241E-1   7.722374343628356E1  
 6.880000000000000E10    4.165690146032386E-1   7.675590383209962E1   4.759330683707276E-3   9.060236022246447E1   4.869251500375658E-3   9.692590888983330E1   3.495718451387427E-1   5.102722798195543E1  
 6.885000000000000E10    3.639654070492257E-1   2.815805320805759E1   5.202682060756929E-3   3.647770065428767E1   5.208205559074930E-3   4.308500664251039E1   6.050425836130095E-2   5.752429981805046E1  
 6.890000000000000E10    3.377202403324289E-1  -2.661214203058136E1   4.931816865478824E-3  -1.419386552997689E1   4.956387074617998E-3  -1.095339109126295E1   2.863629851778261E-1   1.464835913140457E2  
 6.895000000000000E10    3.575636302338122E-1  -8.034212446212874E1   4.258103064653731E-3  -6.436986787714339E1   4.197973065017388E-3  -5.959163707367004E1   5.129418431097481E-1   1.196833339786360E2  
 6.900000000000000E10    4.082402850381313E-1  -1.271101067195761E2   3.639366693965643E-3  -1.095021446623937E2   3.489557633006123E-3  -1.044172974818240E2   6.406908214726842E-1   9.497707909097616E1  
 6.905000000000000E10    4.631944343688871E-1  -1.665154179338756E2   2.956653569880946E-3  -1.484512050550201E2   3.104702245868679E-3  -1.399555405526061E2   7.035224140690499E-1   7.309824901645207E1  
 6.910000000000000E10    5.052256737239094E-1   1.589499812812524E2   2.445834758907626E-3  -1.798873575308157E2   2.781174642771133E-3  -1.752508760950758E2   7.294846782385319E-1   5.273757097533179E1  
 6.915000000000000E10    5.301242429127978E-1   1.266257755158283E2   2.797273981917192E-3   1.503512091719203E2   2.758910417783113E-3   1.488911933128036E2   7.318203719240016E-1   3.294285297020995E1  
 6.920000000000000E10    5.357490299497909E-1   9.484856181059081E1   2.876341481932836E-3   1.134163357119798E2   2.817336845263870E-3   1.147856371326108E2   7.123330158579181E-1   1.251806823954872E1  
 6.925000000000000E10    5.146562320539145E-1   6.170328063252443E1   3.231091750366192E-3   7.853268679426866E1   3.310115416582298E-3   7.953199988050574E1   6.716217029508818E-1  -9.091568870725212  
 6.930000000000000E10    4.698546587704761E-1   2.521335861754649E1   3.721970116975535E-3   3.665587210241854E1   3.704730911519180E-3   4.140549310705922E1   5.885961960646413E-1  -3.327611714080295E1  
 6.935000000000000E10    4.026819528518527E-1  -1.766207008183035E1   4.443480801379662E-3  -8.750448967208452   4.633147399426498E-3  -4.883076541029114   4.413617299590169E-1  -6.143725072671757E1  
 6.940000000000000E10    3.335355424455512E-1  -7.007170465528503E1   4.964242603633913E-3  -5.842882831383361E1   5.038010675988099E-3  -5.532142218729479E1   2.104276117417357E-1  -9.695544769654488E1  
 6.945000000000000E10    3.079530387068046E-1  -1.307818641627710E2   5.108447269404778E-3  -1.121672937005781E2   5.322425545711765E-3  -1.088060713392043E2   9.220498959209487E-2   6.744737091151391E1  
 6.950000000000000E10    3.420543195266360E-1   1.715690188779427E2   4.903225703513790E-3  -1.653420308185177E2   4.601245800792962E-3  -1.597127318167876E2   3.586562471920324E-1   2.247726422365085E1  
 6.955000000000000E10    4.014728037086949E-1   1.247861924710251E2   3.982691903505084E-3   1.490395884468974E2   3.919077614225576E-3   1.543904157348651E2   5.364424717145750E-1  -8.883891161998703  
 6.960000000000000E10    4.552234397257399E-1   8.575333281282622E1   3.318064927374832E-3   1.065662785415633E2   3.191794518687669E-3   1.121612703452499E2   6.378762597477412E-1  -3.551452304257222E1  
 6.965000000000000E10    4.952875001199034E-1   5.121118499480372E1   2.962236361990212E-3   7.613785023608463E1   3.108379559364810E-3   7.757583210886003E1   6.891978592087378E-1  -5.902206446887018E1  
 6.970000000000000E10    5.197015693776125E-1   1.858132852490972E1   2.694969616021472E-3   3.913193277831115E1   2.655106889303077E-3   4.384143735391248E1   7.099655910343389E-1  -8.103824431523623E1  
 6.975000000000000E10    5.252670534853781E-1  -1.364421353947866E1   2.773836467374312E-3   2.177540024114021   2.819528631042448E-3   8.449426958415552   7.095127386211093E-1  -1.024036637006385E2  
 6.980000000000000E10    5.163615216492867E-1  -4.694781658903056E1   3.007042420989215E-3  -3.564689047623762E1   3.017950963864319E-3  -2.704695247273519E1   6.871823202318019E-1  -1.240996431782687E2  
 6.985000000000000E10    4.887163597285334E-1  -8.221364626000293E1   3.180704026693369E-3  -7.005075016207796E1   3.229726717943038E-3  -6.288000678490119E1   6.369001238934174E-1  -1.471079742964560E2  
 6.990000000000000E10    4.415642174405750E-1  -1.214943885073616E2   3.869639569210430E-3  -1.119496601569220E2   3.772804461896735E-3  -1.035211129822915E2   5.432247211248077E-1  -1.728679111370190E2  
 6.995000000000000E10    3.808414963439853E-1  -1.666249762678379E2   4.446017036275704E-3  -1.529059244188799E2   4.502109073892784E-3  -1.497715486777525E2   3.835825135066682E-1   1.562281305970571E2  
 7.000000000000000E10    3.246737527692680E-1   1.400608708023021E2   5.185330474350874E-3   1.545014656810817E2   4.999084934474768E-3   1.590312979272238E2   1.454867276811331E-1   1.106147319056859E2  
 7.005000000000000E10    3.089647770326964E-1   8.002799911462193E1   4.981335465847990E-3   1.026049331684907E2   4.949946919062101E-3   1.053221045165294E2   1.603225588556378E-1  -6.524802525165265E1  
 7.010000000000000E10    3.444795535716370E-1   2.406401866533724E1   4.409979968506305E-3   4.763574129706639E1   4.367445867349639E-3   5.684460770793522E1   3.997855486507397E-1  -1.095587588634508E2  
 7.015000000000000E10    4.057551996822016E-1  -2.225256456338481E1   3.680916003932715E-3   6.267520837067274   3.712174846139693E-3   1.123135107511951E1   5.565232132395942E-1  -1.405713005267041E2  
 7.020000000000000E10    4.650882878434534E-1  -6.072732419801367E1   3.138115123213805E-3  -3.361276722720705E1   3.199754644353237E-3  -2.821943627607978E1   6.448667116064749E-1  -1.666204106981080E2  
 7.025000000000000E10    5.105518939425398E-1  -9.467236493337121E1   2.892269526358936E-3  -6.679430116393263E1   2.842363180948198E-3  -6.339571349921132E1   6.874820984254543E-1   1.701977576269650E2  
 7.030000000000000E10    5.411058952734591E-1  -1.261005575906746E2   2.587175888820026E-3  -9.982851970288024E1   2.733503649850531E-3  -9.842030927443174E1   7.017716091231172E-1   1.483857439692249E2  
 7.035000000000000E10    5.536876451609993E-1  -1.560145494979042E2   2.746297670269667E-3  -1.373095649544114E2   2.677157205088737E-3  -1.317276462075355E2   6.919326904402358E-1   1.268156407204197E2  
 7.040000000000000E10    5.451972188864086E-1   1.736514364844174E2   2.922345761131779E-3  -1.699688487960032E2   2.849284345615601E-3  -1.685930631077204E2   6.566852205625944E-1   1.042363869133386E2  
 7.045000000000000E10    5.133074476556746E-1   1.415127343376664E2   3.292206491390460E-3   1.510698497483878E2   3.395862237724936E-3   1.552254679826423E2   5.860298911090245E-1   7.966376985436588E1  
 7.050000000000000E10    4.508773820333115E-1   1.052921324701785E2   3.954077949352969E-3   1.088489261478422E2   3.925055131739026E-3   1.136260380135451E2   4.634047181009772E-1   5.103127845751051E1  
 7.055000000000000E10    3.614285118942248E-1   6.103485377780912E1   4.432376201959804E-3   6.059262749988675E1   4.535888626175562E-3   6.616585223818646E1   2.703735863172346E-1   1.304211278080150E1  
 7.060000000000000E10    2.786357382555948E-1   2.273113547050387   4.901526258682750E-3   1.124758240243855E1   4.939280301188687E-3   1.712586771467134E1   8.139802778295115E-2  -9.366048469419282E1  
 7.065000000000000E10    2.759323784205531E-1  -6.840255581116308E1   4.697861017860549E-3  -3.920754519371865E1   4.528599254787603E-3  -3.786117347256384E1   2.729442566897476E-1   1.608423316691040E2  
 7.070000000000000E10    3.548499820578636E-1  -1.255928380784385E2   4.080554370388854E-3  -8.836633996061256E1   4.042117472923879E-3  -8.481647152246227E1   4.614571742267166E-1   1.228643268596594E2  
 7.075000000000000E10    4.423189556719473E-1  -1.675989781308215E2   3.299377706237479E-3  -1.297972218640056E2   3.482012017615247E-3  -1.266423495021611E2   5.803525969810709E-1   9.338434708181489E1  
 7.080000000000000E10    5.090829771899220E-1   1.584524812569090E2   3.035069091049193E-3  -1.761457724145145E2   3.046853981385449E-3  -1.629750209734206E2   6.457917223411575E-1   6.749815701912286E1  
 7.085000000000000E10    5.502071801013264E-1   1.284849429263805E2   2.883722179165049E-3   1.576907367059562E2   2.644526430676428E-3   1.570761302841476E2   6.710140277086482E-1   4.373073897872733E1  
 7.090000000000000E10    5.707007198129422E-1   1.002221383677648E2   2.421086111042544E-3   1.165556036174162E2   2.606110205817376E-3   1.257793129198693E2   6.728812285129653E-1   2.023352850564487E1  
 7.095000000000000E10    5.711195350354827E-1   7.220458919759616E1   2.562232447612579E-3   8.833458188543189E1   2.762876642075339E-3   9.010733060887752E1   6.489923115736326E-1  -3.693540495027464  
 7.100000000000000E10    5.521608526758690E-1   4.299050672555870E1   3.153712170609005E-3   5.104345843214039E1   2.871980780856049E-3   5.679715861664710E1   5.970784717867352E-1  -2.960862750812641E1  
 7.105000000000000E10    5.064177990290255E-1   1.083290933352279E1   3.543135406620104E-3   1.194690650263292E1   3.315754490608888E-3   1.753317136928304E1   5.069855994525052E-1  -5.855935874572947E1  
 7.110000000000000E10    4.330410658302498E-1  -2.700000932263799E1   3.914799531203641E-3  -3.341984400049581E1   3.975172092284257E-3  -2.638905098340800E1   3.687920781013688E-1  -9.395264556714507E1  
 7.115000000000000E10    3.455563274180549E-1  -7.377181407252459E1   4.383640160463199E-3  -7.918758745900642E1   4.356479738431137E-3  -7.329751390796167E1   1.945387794474813E-1  -1.481421138947990E2  
 7.120000000000000E10    2.823877719471130E-1  -1.354839196737901E2   4.645101630852310E-3  -1.319407459002705E2   4.592927963767385E-3  -1.255884933524343E2   1.579787675104399E-1   9.598509065375782E1  
 7.125000000000000E10    2.998770294060988E-1   1.578381718965667E2   4.247016768159227E-3  -1.798218995662034E2   4.491479039317227E-3  -1.745899563609444E2   3.283690333482813E-1   3.003525472832327E1  
 7.130000000000000E10    3.749558018578619E-1   1.048120249114745E2   3.715856990694850E-3   1.359380884398596E2   3.645482357822210E-3   1.386784339765067E2   4.759336998608303E-1  -8.506763844955909  
 7.135000000000000E10    4.517417237873391E-1   6.371362935994347E1   3.361236013584478E-3   9.301619764605093E1   3.175732336403451E-3   9.687790438015188E1   5.725078507529973E-1  -3.924029658938532E1  
 7.140000000000000E10    5.083238153363119E-1   2.925900393873869E1   2.902423489989754E-3   5.432623557023636E1   2.889268123119683E-3   6.092091008116134E1   6.285927698349144E-1  -6.622726088972107E1  
 7.145000000000000E10    5.464758493542198E-1  -1.697894232731120   2.645758517285615E-3   1.952572194189182E1   2.703044535200632E-3   2.519538283738755E1   6.553337965340536E-1  -9.136820666119931E1  
 7.150000000000000E10    5.667188965366019E-1  -3.103428792177173E1   2.553441899744180E-3  -1.189580811780127E1   2.577710075160392E-3  -1.137620375676036E1   6.543806073312060E-1  -1.155860587633442E2  
 7.155000000000000E10    5.693519390006107E-1  -5.979842238071384E1   2.744405786828967E-3  -5.056142258668594E1   2.516050772951217E-3  -4.385670939400887E1   6.277663335298263E-1  -1.400293141640388E2  
 7.160000000000000E10    5.531389187398621E-1  -8.941234185748274E1   2.865045968679626E-3  -8.449588802920853E1   3.019436234533737E-3  -7.821091221619008E1   5.701265620538306E-1  -1.661366361015211E2  
 7.165000000000000E10    5.181283851382443E-1  -1.211094066307732E2   3.330894739717709E-3  -1.264319192589524E2   3.286359798967237E-3  -1.185960905307258E2   4.654103492131175E-1   1.644149025705851E2  
 7.170000000000000E10    4.573253310439466E-1  -1.565544029126924E2   3.965206128488142E-3  -1.655644321539306E2   3.863486677103150E-3  -1.612327406418969E2   3.021552796728099E-1   1.273133638253623E2  
 7.175000000000000E10    3.750541870529953E-1   1.608314804014068E2   4.150286375669467E-3   1.474693245196369E2   4.260946878655619E-3   1.501582635462633E2   1.154810219069431E-1   5.221877360944815E1  
 7.180000000000000E10    2.941531069185150E-1   1.052334692751277E2   4.326710251912649E-3   9.565957198218659E1   4.432678842761412E-3   1.027922661713441E2   2.183892171901957E-1  -7.023543212394705E1  
