#  HZ   S   MA   R     50.00 
! Rohde & Schwarz ZVA67 4Ports - Version 4.11 - 1305.7002k04 SN: 101051
! Date: 2023-05-31 11:09:01
! Measurements: S11 S21 S12 S22 
! 
 5.000000000000000E7     1.003005088034301  -6.784026255957148   8.983810112840734E-6  -1.699052890933363E2   1.470073470661277E-4   6.577798529354399E1   9.912362176194781E-1  -7.161112947313874  
 1.000000000000000E8     9.996374500191535E-1  -1.311968441342864E1   1.200292030904882E-4   7.605662080935288E1   8.771999005540263E-5   1.220903450161292E2   1.005160282903284  -1.383385471812496E1  
 1.500000000000000E8     1.003334033877518  -1.983978127560181E1   8.465952345497956E-5   9.772001036518833E1   3.552807913338737E-5   1.498552781085427E2   1.008622869901956  -2.034620473876700E1  
 2.000000000000000E8     1.004297324559653  -2.629529951335507E1   8.908643756121275E-5   7.447783029222694E1   9.859948554287348E-5   4.702574056894884E1   1.008513676543775  -2.729993058603711E1  
 2.500000000000000E8     1.004460876763145  -3.284448098121226E1   7.551650497529346E-5   1.290697461064415E1   1.404801853539372E-4   4.761548332878905E1   1.007628718271609  -3.415365993439031E1  
 3.000000000000000E8     1.006054217590132  -3.941082780321948E1   9.408956442183176E-5   7.145536964383499E1   1.316306339716233E-4   1.875571551413932E1   1.012399008514971  -4.105308034861714E1  
 3.500000000000000E8     1.008762459620954  -4.586673262028899E1   7.749872277203792E-5   2.558196592828856E1   5.213136308573406E-5   4.868917099474578E1   1.011482328669949  -4.797760235590821E1  
 4.000000000000000E8     1.012337992610744  -5.223590552456751E1   1.365946946212400E-4   3.358387715863583E1   1.055158732822450E-4   5.916916663930095E1   1.016004128563191  -5.489068544039254E1  
 4.500000000000000E8     1.011476174145688  -5.874587166797330E1   1.557114477098050E-4   3.312563201506736E1   1.585515019619375E-4   6.434913791654034E1   1.016227037037029  -6.172216040530773E1  
 5.000000000000000E8     1.014483452160763  -6.533806668506631E1   1.579381085716848E-4   2.340674157149694E1   1.659603676079149E-4   1.920373127917592E1   1.015799502671985  -6.871223026671582E1  
 5.500000000000000E8     1.014628372939202  -7.188259230291561E1   1.821118071438250E-4   2.923295212220316E1   1.493085890879951E-4   1.217132187648462E1   1.012848071455350  -7.574537402552994E1  
 6.000000000000000E8     1.015180118720290  -7.854693888134005E1   1.786750539680769E-4   7.869217362555631   1.538746014558665E-4   3.101460565582267   1.011720276717223  -8.281100381045002E1  
 6.500000000000000E8     1.017235187203188  -8.517517777883410E1   1.841924487492490E-4   1.862459050666508   1.781367559861353E-4   1.232032564430144E1   1.010205846291861  -8.971094139988216E1  
 7.000000000000000E8     1.012517234800128  -9.202518160143826E1   2.073965010019627E-4  -3.072475931921496   2.504613782914787E-4  -7.393547132096396   1.008233011382132  -9.682501888886918E1  
 7.500000000000000E8     1.011506669618271  -9.881218222003358E1   2.096325404704174E-4  -1.018813377942140E1   2.506029495481909E-4  -9.668051074270842   1.003142528126109  -1.037680592360769E2  
 8.000000000000000E8     1.006644353723473  -1.056282687352929E2   2.604606856886919E-4  -1.477927236606905E1   2.574511832332471E-4  -1.743687612225194E1   9.984001318203289E-1  -1.108263705867361E2  
 8.500000000000000E8     1.003756242674422  -1.124778137160512E2   2.458221730060873E-4  -2.758044109529863E1   2.621524135599477E-4  -3.210388207749411E1   9.953337964226526E-1  -1.177959451714049E2  
 9.000000000000000E8     9.993720958502312E-1  -1.193207303775839E2   3.003374330260294E-4  -3.433631204960290E1   2.782518436666860E-4  -3.833350147020127E1   9.934114399795753E-1  -1.247312760320936E2  
 9.500000000000000E8     9.956804116370430E-1  -1.262427994117522E2   2.791341416670704E-4  -4.130337000676332E1   2.825202213164211E-4  -3.761134383308700E1   9.924749483418777E-1  -1.315987613799847E2  
 1.000000000000000E9     9.915785142960762E-1  -1.331244829309933E2   2.854500540560783E-4  -4.642759033717730E1   3.019105537953863E-4  -4.619599785443065E1   9.915602143869207E-1  -1.384378117634317E2  
 1.050000000000000E9     9.899224906701991E-1  -1.399220265867249E2   3.058448717284942E-4  -5.237488733803286E1   3.144201842379836E-4  -5.588295634502645E1   9.911348777851550E-1  -1.452629571687399E2  
 1.100000000000000E9     9.865829881680602E-1  -1.467762511980105E2   3.234181573727987E-4  -6.451740620863752E1   3.056953519477549E-4  -5.818756616421579E1   9.899220703528235E-1  -1.520919492396606E2  
 1.150000000000000E9     9.835189487481512E-1  -1.535460660334424E2   3.699833667305995E-4  -6.664324422510234E1   3.357384676421132E-4  -6.883968701805188E1   9.886262018559732E-1  -1.589085690426638E2  
 1.200000000000000E9     9.804697876640545E-1  -1.603431431620802E2   3.500319794708048E-4  -7.533834196166723E1   3.709014149080772E-4  -7.646424910139508E1   9.882912677371903E-1  -1.656875980885140E2  
 1.250000000000000E9     9.800063304986361E-1  -1.669259702915870E2   3.747910498058750E-4  -8.614042633778909E1   3.657958947437202E-4  -8.598189717409812E1   9.890026334808494E-1  -1.724225179871287E2  
 1.300000000000000E9     9.788376789101684E-1  -1.735254737255479E2   3.790099155940899E-4  -9.007950849805648E1   3.826290607807839E-4  -9.127017086545169E1   9.895880856038044E-1  -1.791193557100665E2  
 1.350000000000000E9     9.779006547626877E-1   1.798606673970932E2   3.824882515264193E-4  -9.630214274947778E1   4.041124833520733E-4  -9.453931349567920E1   9.904595043854623E-1   1.742084336451524E2  
 1.400000000000000E9     9.778587835228009E-1   1.733985328177460E2   4.141082369886258E-4  -1.027025320125600E2   4.233840138588483E-4  -1.052990269818793E2   9.905621771490054E-1   1.675186201557891E2  
 1.450000000000000E9     9.780573745904058E-1   1.669702127835708E2   4.663708603039123E-4  -1.125287076728271E2   4.415652955721829E-4  -1.120821504445779E2   9.917261309750431E-1   1.608401328919485E2  
 1.500000000000000E9     9.794802594493051E-1   1.606098006409191E2   4.672179848399630E-4  -1.165528216297801E2   4.470475082588243E-4  -1.125377685471069E2   9.926041308892231E-1   1.541635099667378E2  
 1.550000000000000E9     9.797807065586139E-1   1.542292766856139E2   5.054320501079520E-4  -1.256054854844074E2   4.806468773672530E-4  -1.239561698310339E2   9.925958054251800E-1   1.475041824628115E2  
 1.600000000000000E9     9.808715394253620E-1   1.479176347875556E2   4.953659257128245E-4  -1.312892731310948E2   4.710852661644700E-4  -1.351197804394118E2   9.927270952818627E-1   1.408719022142800E2  
 1.650000000000000E9     9.818511013794160E-1   1.415906765942741E2   5.195775554609046E-4  -1.361028283784357E2   5.076009670828961E-4  -1.380675159418801E2   9.934424186643694E-1   1.342269312610631E2  
 1.700000000000000E9     9.834021634493134E-1   1.353533597738110E2   5.615535538493263E-4  -1.452708305010693E2   5.688096527004774E-4  -1.450694478243216E2   9.922423041009728E-1   1.275932527555879E2  
 1.750000000000000E9     9.841157291468716E-1   1.291281724992074E2   5.816239890787219E-4  -1.543229970842676E2   5.744720204855714E-4  -1.533061039074777E2   9.917910334748263E-1   1.209502079667533E2  
 1.800000000000000E9     9.840621016571776E-1   1.228400719520098E2   5.964891173218116E-4  -1.693844126748855E2   6.339662136642774E-4  -1.631215543473477E2   9.897977246129766E-1   1.142635826432467E2  
 1.850000000000000E9     9.825585632683697E-1   1.164212903914456E2   5.844506128860078E-4  -1.740516129303269E2   6.148798173075074E-4  -1.750091372049146E2   9.877576750969618E-1   1.075528503563299E2  
 1.900000000000000E9     9.820749561196041E-1   1.101268493312894E2   5.802017236997571E-4   1.787422117996773E2   5.774355202244200E-4   1.795926631176335E2   9.853825114666853E-1   1.009254123481350E2  
 1.950000000000000E9     9.815429003365949E-1   1.037575095655629E2   5.587941982890393E-4   1.727024529693366E2   5.835019164169052E-4   1.749551222599879E2   9.829047460871686E-1   9.418954400043974E1  
 2.000000000000000E9     9.797272512415077E-1   9.734234116773425E1   6.219968073544051E-4   1.657263697191411E2   6.016678997636226E-4   1.664275236947207E2   9.814123299015162E-1   8.750309217363258E1  
 2.050000000000000E9     9.778036088501181E-1   9.075661748102628E1   6.235028667736975E-4   1.555370572122728E2   6.147845805694859E-4   1.581224516300699E2   9.802963898460311E-1   8.082856638255377E1  
 2.100000000000000E9     9.756868043364483E-1   8.423358971159453E1   6.182366497906844E-4   1.489981507277765E2   6.400787681475204E-4   1.522230929223688E2   9.796347466729901E-1   7.426354028934169E1  
 2.150000000000000E9     9.744808777729352E-1   7.771867706587784E1   5.873856516544134E-4   1.453826173277307E2   6.220227259854574E-4   1.449595340906059E2   9.768381505067519E-1   6.752694837079393E1  
 2.200000000000000E9     9.723938037550318E-1   7.111319810339556E1   6.523781964318999E-4   1.402928709691136E2   6.574010128442108E-4   1.367598451402762E2   9.762462793349963E-1   6.096727854982661E1  
 2.250000000000000E9     9.707742895075376E-1   6.443100393282958E1   6.576864577200059E-4   1.302330585410775E2   6.781589765074280E-4   1.280957126345616E2   9.756302227455969E-1   5.433845248550301E1  
 2.300000000000000E9     9.698148671558698E-1   5.776320891293108E1   7.072342830981241E-4   1.187555664498349E2   6.729049962831266E-4   1.179607433070474E2   9.763157150082875E-1   4.776798256013183E1  
 2.350000000000000E9     9.695524021016170E-1   5.107347280114291E1   6.736067177101674E-4   1.093296409936531E2   6.840705158758779E-4   1.096297741113255E2   9.770716735477789E-1   4.120734017071577E1  
 2.400000000000000E9     9.704097450832698E-1   4.452379074679058E1   6.516295196499938E-4   1.023325395787961E2   6.605964833776021E-4   1.049133177794662E2   9.775389517819594E-1   3.467544789389974E1  
 2.450000000000000E9     9.707342209171155E-1   3.775801858631362E1   6.536253523690190E-4   9.629941511677446E1   6.633324169462354E-4   9.484079841689128E1   9.783637735478669E-1   2.812243758874844E1  
 2.500000000000000E9     9.736238482452040E-1   3.118231298262367E1   6.479360726187916E-4   8.773418943746749E1   6.083665701876792E-4   8.552507513673200E1   9.779672880788541E-1   2.164034910038308E1  
 2.550000000000000E9     9.753852711827694E-1   2.449078836054226E1   6.201107968826525E-4   8.126763713378644E1   5.992687460820488E-4   8.171373940949185E1   9.776423828966099E-1   1.511856703557011E1  
 2.600000000000000E9     9.784812993876016E-1   1.794145291231210E1   6.390854305118141E-4   7.953031263755928E1   5.617530262600673E-4   7.485793539125191E1   9.772926501770380E-1   8.690286653248851  
 2.650000000000000E9     9.814039866705507E-1   1.140250118562648E1   5.657424204417209E-4   7.373795227792773E1   5.701602939640521E-4   7.389107751598256E1   9.752703306420978E-1   2.092912652307011  
 2.700000000000000E9     9.842325510738689E-1   4.786662697689762   5.572534726843623E-4   7.211404908014335E1   5.491575040794780E-4   6.941649534293356E1   9.749739197583671E-1  -4.484786379777196  
 2.750000000000000E9     9.870587318687114E-1  -1.640746534314285   6.345762922368868E-4   6.894840014410367E1   5.910441872582188E-4   7.331589642261392E1   9.737481794414515E-1  -1.103611076864624E1  
 2.800000000000000E9     9.909288325712807E-1  -8.218527455380666   6.545371422730944E-4   6.340302222541525E1   7.027929726890852E-4   6.165582039362072E1   9.721010528504196E-1  -1.765833559249967E1  
 2.850000000000000E9     9.942793460132137E-1  -1.466134568918869E1   7.254514911662465E-4   5.213025575788051E1   7.124665217750555E-4   5.566359600441049E1   9.734087510611192E-1  -2.417265497667531E1  
 2.900000000000000E9     9.955070543247807E-1  -2.116328629223545E1   7.378418166489134E-4   4.769435940979724E1   7.031552128431292E-4   4.766904035018017E1   9.737756399366166E-1  -3.074461133720344E1  
 2.950000000000000E9     9.985423627505422E-1  -2.775124349241338E1   7.769356343246852E-4   3.885075771795258E1   7.785319567860473E-4   3.854537053315843E1   9.733074472958796E-1  -3.736370939469809E1  
 3.000000000000000E9     9.978599164386784E-1  -3.434583663488204E1   8.322077037454315E-4   3.366496599266399E1   7.907043427575986E-4   2.849751544977123E1   9.725442387741049E-1  -4.399900327410928E1  
 3.050000000000000E9     9.994700629442818E-1  -4.089592778912238E1   8.020817827471822E-4   2.073426015984644E1   7.806310205527376E-4   1.767491931459992E1   9.732386234574253E-1  -5.069787546313839E1  
 3.100000000000000E9     9.998894298307836E-1  -4.754613974091560E1   8.160545215406056E-4   1.283218783253726E1   8.209901063847709E-4   1.333965440536010E1   9.737339553584640E-1  -5.734596794023138E1  
 3.150000000000000E9     9.998825109062599E-1  -5.425281626955516E1   7.456442333149534E-4   7.948273994619092   7.841794531706364E-4   6.334083979721699   9.736994306035872E-1  -6.404266362237109E1  
 3.200000000000000E9     9.991131537736709E-1  -6.093028801159836E1   8.196280828310862E-4  -9.999119464998401E-1   7.986414111494148E-4   1.714438002724776   9.746393109415349E-1  -7.077386603074115E1  
 3.250000000000000E9     9.977681017336385E-1  -6.769619584131354E1   7.808001688376676E-4  -8.971931746947439   7.817526031901381E-4  -1.021757213441005E1   9.752343012413660E-1  -7.759272966261746E1  
 3.300000000000000E9     9.972954912735081E-1  -7.450910856400641E1   7.748883568232834E-4  -1.564639345881677E1   7.549212811045273E-4  -1.308274855085027E1   9.759630816188621E-1  -8.438595568660185E1  
 3.350000000000000E9     9.957043393999157E-1  -8.133953296844547E1   7.867323407355886E-4  -1.900450483469405E1   8.075386512385992E-4  -2.169760526776729E1   9.756377287615590E-1  -9.119380540980072E1  
 3.400000000000000E9     9.940106880823620E-1  -8.824698306204768E1   8.146690869206133E-4  -2.880287182973292E1   8.184930932075464E-4  -2.843507127611754E1   9.762359702979772E-1  -9.808725356742897E1  
 3.450000000000000E9     9.917869750730468E-1  -9.509313587184317E1   7.858813252180198E-4  -3.563997741074225E1   7.993570881409906E-4  -3.529873121044120E1   9.773295526680859E-1  -1.050356181006180E2  
 3.500000000000000E9     9.902222304036755E-1  -1.021105472072175E2   7.102918237181892E-4  -3.969383840479024E1   7.997405788714809E-4  -4.175079811330728E1   9.804796400048120E-1  -1.120494737228486E2  
 3.550000000000000E9     9.906406573456599E-1  -1.090750431052783E2   7.546951239335828E-4  -4.718558814420796E1   7.462309493126400E-4  -4.796208191842261E1   9.796087077656427E-1  -1.189644816902650E2  
 3.600000000000000E9     9.885532940272714E-1  -1.159886178817997E2   7.472343463298181E-4  -5.328351864966804E1   7.896439008669093E-4  -5.256530106218057E1   9.795705798715785E-1  -1.261072137659427E2  
 3.650000000000000E9     9.884075957870023E-1  -1.230702794012289E2   7.810884500515586E-4  -5.966107951958254E1   7.600394091719347E-4  -5.728143663371473E1   9.826338381647519E-1  -1.329825120485546E2  
 3.700000000000000E9     9.866828138670913E-1  -1.299969703480878E2   7.882843622893084E-4  -6.219552837402186E1   8.284804872696063E-4  -6.560848604873131E1   9.849683605401208E-1  -1.400126881073499E2  
 3.750000000000000E9     9.854719969478221E-1  -1.369902992551950E2   8.218780698109188E-4  -7.444247134871829E1   8.098720534996734E-4  -7.215310770264634E1   9.884501236588215E-1  -1.469463645531785E2  
 3.800000000000000E9     9.853047555640623E-1  -1.439460705305289E2   8.811271665839350E-4  -7.689626362809075E1   8.701102169805482E-4  -7.853684459126981E1   9.878627927947484E-1  -1.539883567456481E2  
 3.850000000000000E9     9.850481884627581E-1  -1.508462468376483E2   8.692820580334412E-4  -8.414540602039568E1   8.453816402292344E-4  -8.544037119866715E1   9.900992461700345E-1  -1.611030570286130E2  
 3.900000000000000E9     9.850393315407044E-1  -1.578938745965219E2   8.766230099460942E-4  -9.352485146978526E1   9.071928701399251E-4  -9.110984162808909E1   9.911203919197951E-1  -1.681474643316207E2  
 3.950000000000000E9     9.874054119337365E-1  -1.647139900970171E2   9.147969472724183E-4  -9.986366757979688E1   8.522350050815973E-4  -9.723684291220492E1   9.915411702034706E-1  -1.752001216097342E2  
 4.000000000000000E9     9.891982100384886E-1  -1.715505679475554E2   8.895874599721008E-4  -1.092733417776591E2   9.110137004081869E-4  -1.065191160514441E2   9.929751109693858E-1   1.776220437303028E2  
 4.050000000000000E9     9.914521097742656E-1  -1.783120018991148E2   9.033644431763557E-4  -1.140716855028429E2   9.245702479981876E-4  -1.147064921983407E2   9.933895015735895E-1   1.706599106466564E2  
 4.100000000000000E9     9.930850179649571E-1   1.749377315561399E2   9.005916440251401E-4  -1.229773046433716E2   8.799837985594574E-4  -1.224410716633463E2   9.931136873467239E-1   1.636034082544111E2  
 4.150000000000000E9     9.953925470666204E-1   1.682406208081541E2   8.815067217836614E-4  -1.290695867537301E2   9.210730188256856E-4  -1.301551219351953E2   9.922815692967327E-1   1.564544831573514E2  
 4.200000000000000E9     9.980023552728422E-1   1.615839588749935E2   8.770006857300500E-4  -1.371943663457798E2   8.697881156497442E-4  -1.376232199263810E2   9.922749112183956E-1   1.494058825284541E2  
 4.250000000000000E9     9.989509916101861E-1   1.549117540850167E2   8.979680312579066E-4  -1.405531355979550E2   8.672565694186136E-4  -1.415055581793151E2   9.918780426325047E-1   1.422533723661737E2  
 4.300000000000000E9     1.000852920356943   1.483337530951661E2   8.818839881269097E-4  -1.479257067671350E2   8.535480413063319E-4  -1.490026908834956E2   9.933500649461917E-1   1.351629187173351E2  
 4.350000000000000E9     1.001210246150310   1.416016696172317E2   8.401366292794255E-4  -1.553399399341976E2   8.621007068065663E-4  -1.557686312930115E2   9.945429794749551E-1   1.280718548532661E2  
 4.400000000000000E9     1.002748596512413   1.349444953984876E2   8.081191938024516E-4  -1.599874469444087E2   8.326591009764697E-4  -1.596420639030367E2   9.955113610893860E-1   1.209795948206206E2  
 4.450000000000000E9     1.003114343125510   1.283531266731644E2   8.989830611637903E-4  -1.636334773668632E2   8.598668731915623E-4  -1.647289331343844E2   9.967196302082052E-1   1.140263034272544E2  
 4.500000000000000E9     1.002955418084865   1.216904026033386E2   8.940166489975683E-4  -1.710270535377189E2   9.146978932612462E-4  -1.711613241291763E2   9.975532724556753E-1   1.069981596010795E2  
 4.550000000000000E9     1.002865635570807   1.150848774186519E2   9.568860598379861E-4  -1.792452362307918E2   9.089929545800397E-4  -1.775243671389973E2   9.982165911985342E-1   9.991598298383805E1  
 4.600000000000000E9     1.001803957821124   1.084957471288734E2   8.892933523740170E-4   1.749882121720614E2   9.133799263941734E-4   1.764494434805204E2   9.987217995885001E-1   9.298848866959528E1  
 4.650000000000000E9     1.001969073046186   1.019548875732697E2   9.278813499297544E-4   1.683872136262789E2   9.039859384347371E-4   1.685155618939640E2   1.000012192778512   8.593716188869043E1  
 4.700000000000000E9     1.001375986688699   9.539034796709794E1   8.831298250022217E-4   1.604628542662084E2   9.173068946144915E-4   1.620740492164756E2   1.001859000233683   7.917231499182067E1  
 4.750000000000000E9     1.001998346239166   8.873290199172025E1   9.245841516028139E-4   1.557710655718742E2   9.223030027765483E-4   1.559328349084492E2   1.001732425080860   7.224821434231997E1  
 4.800000000000000E9     1.003003541449688   8.218650511882322E1   9.000118734351565E-4   1.485238602369139E2   9.120357859095026E-4   1.486432229392148E2   9.996672010947163E-1   6.548874869649210E1  
 4.850000000000000E9     1.003295083199991   7.571430233789225E1   9.617578976754289E-4   1.424434100596813E2   9.201424274370772E-4   1.419986218312910E2   9.982502950930704E-1   5.852458935744578E1  
