#  HZ   S   MA   R     50.00 
! Rohde & Schwarz ZVA67 4Ports - Version 4.11 - 1305.7002k04 SN: 101051
! Date: 2023-09-13 16:54:25
! Measurements: S11 S21 S12 S22 
! 
 6.705000000000000E10    5.647372749145598E-2   8.307492920794221E1   3.525717951671351E-1   1.591808840344495E1   3.528536135314587E-1   1.997991451871946E1   5.015791137867808E-1   1.527284066058888E2  
 6.710000000000000E10    1.126974410958092E-1  -2.630535822275185E1   3.586364921686143E-1  -2.759313878383426E1   3.590689365187223E-1  -2.340063236212941E1   4.757095855816478E-1   1.416937752864611E2  
 6.715000000000000E10    1.606147371890865E-1  -7.570946651400649E1   3.634934961604465E-1  -7.108585440410812E1   3.657554482699375E-1  -6.686263729699054E1   4.453244454370115E-1   1.305853333146507E2  
 6.720000000000000E10    1.464662541756841E-1  -1.093669101377312E2   3.711769642511013E-1  -1.150691866472825E2   3.716703982162808E-1  -1.109080947085019E2   4.025519787752644E-1   1.223199926048815E2  
 6.725000000000000E10    9.958621255858349E-2  -1.129032911948391E2   3.728296073673576E-1  -1.599917765761379E2   3.733830364846058E-1  -1.559615252142054E2   3.835599002533159E-1   1.191464138802968E2  
 6.730000000000000E10    1.459027900473638E-1  -9.526609029056874E1   3.628607205755529E-1   1.551081397413324E2   3.626210897713809E-1   1.594022988662285E2   4.199178525906079E-1   1.154232274775377E2  
 6.735000000000000E10    2.383280518007277E-1  -1.160328841975841E2   3.448916826337958E-1   1.122696340369106E2   3.461906849320869E-1   1.163817396380781E2   4.810302248904589E-1   1.039419569237560E2  
 6.740000000000000E10    2.976169448703303E-1  -1.478223269600007E2   3.337491394675328E-1   7.139971739973780E1   3.339226035665233E-1   7.554698946771727E1   5.240916882500961E-1   8.738183697963933E1  
 6.745000000000000E10    3.024207523010345E-1   1.776133265876464E2   3.330551365641175E-1   3.130512232041776E1   3.332055915159887E-1   3.552854177911964E1   5.305510758062432E-1   6.887171320127746E1  
 6.750000000000000E10    2.527238129699502E-1   1.398275920310189E2   3.419908349431159E-1  -9.085111420065566   3.430782371249878E-1  -5.068939808548940   5.075172187315373E-1   5.100473782401085E1  
 6.755000000000000E10    1.545942175605550E-1   9.494185274023735E1   3.569052777205550E-1  -5.143450029275905E1   3.578502672985125E-1  -4.732281344491000E1   4.637341850085665E-1   3.502265507283375E1  
 6.760000000000000E10    5.044238872512184E-2   8.986987560233409   3.690788125063741E-1  -9.506577305600602E1   3.691614393621749E-1  -9.086921899650832E1   4.302055671324564E-1   2.157571347631183E1  
 6.765000000000000E10    9.881517720531191E-2  -1.151973994169217E2   3.743130513489908E-1  -1.387018474728977E2   3.742357886203137E-1  -1.345525287675176E2   4.068538995435132E-1   8.430629885487269  
 6.770000000000000E10    1.539142252957529E-1  -1.618965120463827E2   3.761253140379721E-1   1.778215364465768E2   3.772393633987140E-1  -1.779720987220593E2   3.808730296985138E-1  -5.896828115060423  
 6.775000000000000E10    1.532278247152198E-1   1.656644074562084E2   3.820063292242656E-1   1.343398862258002E2   3.826570965150800E-1   1.383779192882904E2   3.397994281394502E-1  -1.877273296909063E1  
 6.780000000000000E10    1.179681379378291E-1   1.522866824182717E2   3.845405098520303E-1   8.986580808761275E1   3.852232920345491E-1   9.416138002982900E1   3.030916190868621E-1  -2.415913303140306E1  
 6.785000000000000E10    1.267121443854750E-1   1.631272432350820E2   3.793798833905265E-1   4.537906436527248E1   3.798061636603120E-1   4.950333977231925E1   3.231681639389104E-1  -2.572899142183081E1  
 6.790000000000000E10    1.923731434618469E-1   1.488422889041523E2   3.643193950608583E-1   1.633425783645663   3.655286512070259E-1   5.828020527861388   3.947514992296737E-1  -3.527927403958478E1  
 6.795000000000000E10    2.426921489135281E-1   1.185255478822111E2   3.498136933051729E-1  -4.032834688744921E1   3.509062632448461E-1  -3.613124696773085E1   4.618551726294308E-1  -5.236315103938861E1  
 6.800000000000000E10    2.537566118123276E-1   8.114686442510245E1   3.428236258255521E-1  -8.091242009018350E1   3.436599099497433E-1  -7.675702620632663E1   4.971066925125334E-1  -7.145402067994350E1  
 6.805000000000000E10    2.304773571630347E-1   3.734440558732667E1   3.439553165777590E-1  -1.214589512395031E2   3.444162137211054E-1  -1.171873905138686E2   5.032755080752293E-1  -9.044869100244721E1  
 6.810000000000000E10    1.879431519755763E-1  -1.538198131900151E1   3.514534623549289E-1  -1.626187479149420E2   3.522562428524646E-1  -1.583473733777613E2   4.856883028528560E-1  -1.073039258461478E2  
 6.815000000000000E10    1.449088037966452E-1  -7.958880260442602E1   3.606225286954607E-1   1.551915015434113E2   3.606235215566852E-1   1.592898913883835E2   4.621942708859632E-1  -1.219251005002843E2  
 6.820000000000000E10    1.256309302506133E-1  -1.505638852851867E2   3.677619876460077E-1   1.122912886472128E2   3.687441244831126E-1   1.164709631765143E2   4.404306040246272E-1  -1.343898761363171E2  
 6.825000000000000E10    1.096049279295042E-1   1.441923602093980E2   3.727769798428279E-1   6.926722459860099E1   3.738231420752803E-1   7.336990989871418E1   4.195465231589690E-1  -1.457899947796830E2  
 6.830000000000000E10    7.812052202532978E-2   8.323896053480064E1   3.769265028675159E-1   2.600385305520462E1   3.781801906378238E-1   3.001715838475025E1   3.977002683216939E-1  -1.551406016377951E2  
 6.835000000000000E10    2.938767439853572E-2   1.776765253291036E1   3.795596625859454E-1  -1.781072806554393E1   3.798401544638163E-1  -1.372069386590492E1   3.811162653041686E-1  -1.616792534723818E2  
 6.840000000000000E10    2.473167981291271E-2   1.695424978051451E2   3.755965503860870E-1  -6.194263207807089E1   3.771873728975868E-1  -5.780090576242657E1   3.936255861281982E-1  -1.659613492832671E2  
 6.845000000000000E10    7.039308187412449E-2   9.158250370215666E1   3.662753870204570E-1  -1.055627285172040E2   3.663580908471068E-1  -1.015116433855345E2   4.358792657577611E-1  -1.727355448142133E2  
 6.850000000000000E10    1.153277284231071E-1   2.526306004598368E1   3.505030927732294E-1  -1.483365584861315E2   3.521987709500661E-1  -1.440493949924155E2   4.892620031528841E-1   1.767189481486231E2  
 6.855000000000000E10    1.695263411850870E-1  -3.492955083699088E1   3.373999870999337E-1   1.705755890114679E2   3.381375446763128E-1   1.746499603993526E2   5.338272763836847E-1   1.630253127978639E2  
 6.860000000000000E10    2.255806866002252E-1  -8.645439887925880E1   3.292938506056362E-1   1.303690826196124E2   3.306578303887360E-1   1.347341213590020E2   5.568692020244319E-1   1.482510793131195E2  
 6.865000000000000E10    2.626415823413036E-1  -1.325956045114469E2   3.298949853194839E-1   9.075099043979418E1   3.302470072110542E-1   9.512794739929133E1   5.576361641943999E-1   1.332237478488747E2  
 6.870000000000000E10    2.625303870498600E-1  -1.754541712984928E2   3.391357156291582E-1   5.072167070656417E1   3.388209362459744E-1   5.512256636022634E1   5.326518648775735E-1   1.188996109206376E2  
 6.875000000000000E10    2.118842536662448E-1   1.437967792177997E2   3.532217433130108E-1   9.489121200736713   3.532403290286582E-1   1.367840175413564E1   4.893731873957767E-1   1.066864526838635E2  
 6.880000000000000E10    1.161606276696104E-1   1.071340194431487E2   3.664435952980824E-1  -3.334703970043898E1   3.676291640896082E-1  -2.907136389305594E1   4.425065708552550E-1   9.816536581351531E1  
 6.885000000000000E10    2.620419362668869E-2   1.501286245756157E2   3.737323962387814E-1  -7.707658587880042E1   3.745104110998095E-1  -7.280593145493828E1   4.204495322871907E-1   9.283037107591241E1  
 6.890000000000000E10    9.691631316912376E-2   1.759070073938519E2   3.747235590043180E-1  -1.205869824569649E2   3.751102406787102E-1  -1.164368586014137E2   4.211400480833201E-1   8.686157858659360E1  
 6.895000000000000E10    1.229524196834147E-1   1.410008100177700E2   3.730499761650071E-1  -1.639090987370595E2   3.734280268922451E-1  -1.596867922166660E2   4.260193821639000E-1   7.935347294278152E1  
 6.900000000000000E10    7.654593011002618E-2   1.058130267505209E2   3.693328191286774E-1   1.526006756614523E2   3.695903462768963E-1   1.570848274623122E2   4.352485455100732E-1   7.223569146049604E1  
 6.905000000000000E10    3.159393680858388E-2  -1.461550683860570E2   3.597431332478466E-1   1.095560511431228E2   3.608055972378580E-1   1.138117635902146E2   4.615080318623827E-1   6.480118286657812E1  
 6.910000000000000E10    1.524989680789328E-1  -1.659650288363017E2   3.455692051122253E-1   6.741418907763467E1   3.457709037501713E-1   7.167952933331119E1   5.043411912018908E-1   5.407314665076922E1  
 6.915000000000000E10    2.541359064580465E-1   1.589770510142002E2   3.318806251202607E-1   2.689255076361270E1   3.323026493683832E-1   3.131406820821863E1   5.406066492520352E-1   3.972790937973782E1  
 6.920000000000000E10    3.106424355693943E-1   1.241869214830656E2   3.271817400938776E-1  -1.209155669906924E1   3.273727612765766E-1  -7.711757110243560   5.498303960857452E-1   2.313027956998108E1  
 6.925000000000000E10    3.130443151014356E-1   9.038177721438417E1   3.338385507585080E-1  -5.105478958377400E1   3.347794919678672E-1  -4.664726905234287E1   5.287602040518018E-1   6.202668482080664  
 6.930000000000000E10    2.602442236361708E-1   5.708507149705179E1   3.501547437784284E-1  -9.140164974819108E1   3.512796263069951E-1  -8.699121937964740E1   4.751925177212292E-1  -9.236454133529287  
 6.935000000000000E10    1.582781157955972E-1   2.857243907646604E1   3.692254255669986E-1  -1.337317465456757E2   3.699744461840201E-1  -1.293491738309678E2   4.093244485764132E-1  -1.994008352544222E1  
 6.940000000000000E10    6.281363234461997E-2   4.266205749318293E1   3.803124872726161E-1  -1.774456564906956E2   3.808765877904799E-1  -1.731231497840621E2   3.733719541935106E-1  -2.556462439170350E1  
 6.945000000000000E10    1.092934071438984E-1   7.553178067870334E1   3.830826104704456E-1   1.389720765293056E2   3.832681688977030E-1   1.432628388794920E2   3.735982925889781E-1  -3.162470578274212E1  
 6.950000000000000E10    1.504233347282296E-1   5.151883462539212E1   3.822443608223491E-1   9.597839153520002E1   3.825305533707630E-1   1.002843427689838E2   3.786117453231254E-1  -4.082235417918975E1  
 6.955000000000000E10    1.278640280313628E-1   2.275730290798855E1   3.809606022470674E-1   5.300758898414853E1   3.824698607558867E-1   5.725397193860754E1   3.736717742083868E-1  -4.972243705933082E1  
 6.960000000000000E10    6.194616557087079E-2   1.895431415702271E1   3.784678479537468E-1   9.570832924477010   3.789421758688068E-1   1.392350224551058E1   3.801170036265895E-1  -5.610649125486246E1  
 6.965000000000000E10    9.734389580324644E-2   6.983237394333202E1   3.676285254004927E-1  -3.349566492052092E1   3.682843452798355E-1  -2.916715188923464E1   4.186599625628990E-1  -6.365642567835916E1  
 6.970000000000000E10    1.974469834990215E-1   4.936581269263325E1   3.527059072068470E-1  -7.525975544351937E1   3.522458390010588E-1  -7.083045288770863E1   4.725641630322279E-1  -7.627017111889306E1  
 6.975000000000000E10    2.680377328951709E-1   1.664997033864237E1   3.403632787370645E-1  -1.153248100289020E2   3.407014073214340E-1  -1.108664246016321E2   5.112429920019027E-1  -9.277473393041176E1  
 6.980000000000000E10    2.958217458856400E-1  -1.807907415128693E1   3.378677666347790E-1  -1.543705852407336E2   3.377864353035915E-1  -1.499608074794323E2   5.181074495364155E-1  -1.103802776370391E2  
 6.985000000000000E10    2.776322097117814E-1  -5.312898113745074E1   3.457846995881835E-1   1.663309607961040E2   3.459706709052609E-1   1.707271491291051E2   4.920199594756362E-1  -1.276386127379147E2  
 6.990000000000000E10    2.123951855360169E-1  -8.835005240315725E1   3.598907467706696E-1   1.255010431763008E2   3.610741530650828E-1   1.300734435870917E2   4.412955157290240E-1  -1.422776668639097E2  
 6.995000000000000E10    1.120217498198980E-1  -1.164119814555901E2   3.751819596601730E-1   8.311693191265418E1   3.758106290935891E-1   8.762388224178152E1   3.871217676463725E-1  -1.523189913551781E2  
 7.000000000000000E10    4.497787380774585E-2  -6.979413276847147E1   3.834294282807566E-1   3.995677921293693E1   3.837241299626711E-1   4.430227921894202E1   3.599317937605387E-1  -1.581482791895745E2  
 7.005000000000000E10    1.134820525242575E-1  -5.734053386462045E1   3.841382539548774E-1  -3.087173153730160   3.848150502927757E-1   1.180037373482141   3.564413640574461E-1  -1.650044427597346E2  
 7.010000000000000E10    1.515449909255025E-1  -8.534501893610357E1   3.843567401599833E-1  -4.580907875595374E1   3.849777094368063E-1  -4.144873696869272E1   3.512655931876846E-1  -1.736943695864450E2  
 7.015000000000000E10    1.341286587829274E-1  -1.092336361478862E2   3.844580454243423E-1  -8.858526569817839E1   3.844002268915529E-1  -8.414422411599277E1   3.367574210686029E-1   1.795227559885257E2  
 7.020000000000000E10    9.687082242051626E-2  -1.043496035396610E2   3.803145594075379E-1  -1.317763940797398E2   3.805355038774375E-1  -1.273378635664543E2   3.432712619951855E-1   1.766126823287696E2  
 7.025000000000000E10    1.485200870229114E-1  -8.927345697260621E1   3.676565545380096E-1  -1.745505774213366E2   3.680511597545573E-1  -1.702368701779001E2   3.924233532297565E-1   1.710314464018014E2  
 7.030000000000000E10    2.433890416444907E-1  -1.084332244450112E2   3.510326212968608E-1   1.439914963052034E2   3.509543189708884E-1   1.484601708057135E2   4.570629998471781E-1   1.585199051649575E2  
 7.035000000000000E10    3.109561086447066E-1  -1.366401643959497E2   3.390371350903302E-1   1.043890051408909E2   3.387835087969034E-1   1.090111799782159E2   4.987686604018907E-1   1.417473793688964E2  
 7.040000000000000E10    3.332255814431952E-1  -1.667093395317243E2   3.378499804894828E-1   6.565141594399128E1   3.377721617929578E-1   7.057653512201492E1   5.032075989584598E-1   1.233842833525807E2  
 7.045000000000000E10    3.048050273023565E-1   1.632354248248396E2   3.467766725725267E-1   2.670542444919046E1   3.473628491081885E-1   3.173710622028122E1   4.700103332553165E-1   1.058015663240420E2  
 7.050000000000000E10    2.233826326704858E-1   1.360886074231270E2   3.645997022056547E-1  -1.405974707144654E1   3.644763558617871E-1  -9.045050147632709   4.070873177901360E-1   9.134522638937617E1  
 7.055000000000000E10    1.171033217919131E-1   1.259524328643147E2   3.799626096677553E-1  -5.655073109296355E1   3.799174698029426E-1  -5.161027961758280E1   3.460383966784222E-1   8.328709427057524E1  
 7.060000000000000E10    1.011799006564954E-1   1.638803558414113E2   3.866304579614220E-1  -9.978422868149698E1   3.861590336515769E-1  -9.486627480157480E1   3.244069093949358E-1   7.926663171947132E1  
 7.065000000000000E10    1.635076631766481E-1   1.612063231930659E2   3.861245433728108E-1  -1.426784529290549E2   3.866649862545819E-1  -1.376540592558990E2   3.233053296995703E-1   7.210048149789863E1  
 7.070000000000000E10    1.834081675382973E-1   1.429305223950408E2   3.863182314358996E-1   1.748641568080192E2   3.866292326303168E-1   1.799278162865123E2   3.061396944703191E-1   6.298843966210696E1  
 7.075000000000000E10    1.646930780337117E-1   1.331322069283366E2   3.859356432407203E-1   1.321980724424630E2   3.859833048100430E-1   1.371377187113178E2   2.794234694883451E-1   5.923649730028542E1  
 7.080000000000000E10    1.746958459830914E-1   1.386964304583609E2   3.790921706292938E-1   8.926435307550840E1   3.792895231029916E-1   9.398535905196806E1   2.972767263005728E-1   6.063056894969010E1  
 7.085000000000000E10    2.441702989544012E-1   1.325385347139554E2   3.635434954238643E-1   4.683360723801975E1   3.641134374222904E-1   5.178806113645234E1   3.672512832891048E-1   5.426172648087987E1  
 7.090000000000000E10    3.183422819196650E-1   1.117934381298010E2   3.471727936327300E-1   6.430647174058905   3.481481009036941E-1   1.150240937751810E1   4.362658289160889E-1   3.806693958084868E1  
 7.095000000000000E10    3.554495697967024E-1   8.584640480287006E1   3.387831062213557E-1  -3.234855911868828E1   3.398401736784626E-1  -2.731163493368939E1   4.704934043733932E-1   1.802533182856994E1  
 7.100000000000000E10    3.493928335681986E-1   5.841360704994337E1   3.425412894301537E-1  -7.074699143546501E1   3.427743929523687E-1  -6.577693556388667E1   4.615684497978625E-1  -3.144731313870475  
 7.105000000000000E10    2.946656339038399E-1   3.074192543963889E1   3.568052738102482E-1  -1.102067244892905E2   3.568451271351292E-1  -1.052377933525274E2   4.158303468502350E-1  -2.272878578127792E1  
 7.110000000000000E10    1.996398962925165E-1   5.933648326427266   3.742080400367791E-1  -1.513289003147306E2   3.744116411607509E-1  -1.465343455006800E2   3.461945619386215E-1  -3.805366118875315E1  
 7.115000000000000E10    1.004555718508486E-1   2.319476692000692   3.873636326254721E-1   1.658642143119510E2   3.877164278301989E-1   1.707579384191526E2   2.883376607558195E-1  -4.607122036017925E1  
 7.120000000000000E10    9.391015094610819E-2   3.854029593079360E1   3.926186395267958E-1   1.228866600068131E2   3.930950523049492E-1   1.276061915116019E2   2.704888474546578E-1  -5.067891637555623E1  
 7.125000000000000E10    1.397004420240895E-1   3.503484728977911E1   3.924413524361936E-1   8.022119559117567E1   3.934279293990554E-1   8.471108287035051E1   2.655514159944931E-1  -5.881231897826832E1  
 7.130000000000000E10    1.491721659506178E-1   2.133306128997575E1   3.920695445838212E-1   3.757849356514342E1   3.928750489621707E-1   4.215045271605960E1   2.468215451555726E-1  -6.705850985597901E1  
 7.135000000000000E10    1.463435179598692E-1   1.778116419018313E1   3.889505300919744E-1  -5.266295445426131   3.896449962372398E-1  -6.143324902253778E-1   2.330473937857322E-1  -6.730429369679882E1  
 7.140000000000000E10    1.847941795043029E-1   1.808183112711011E1   3.780717947342618E-1  -4.812053880444684E1   3.798258264758651E-1  -4.334612985868251E1   2.755078795911362E-1  -6.633539132005649E1  
 7.145000000000000E10    2.605310803875053E-1   3.301323593668859   3.626769009885374E-1  -8.995121010509091E1   3.633751269889852E-1  -8.494372892370727E1   3.576044731174876E-1  -7.672009644603821E1  
 7.150000000000000E10    3.260417867403308E-1  -2.113279258340582E1   3.472002168714782E-1  -1.300448759700596E2   3.473667396853313E-1  -1.249410815259195E2   4.271635673511432E-1  -9.493395962014050E1  
 7.155000000000000E10    3.580762296693169E-1  -4.865208337881126E1   3.388520784770844E-1  -1.686009306626945E2   3.398607372897031E-1  -1.635036606280672E2   4.605997761222474E-1  -1.155022773459683E2  
 7.160000000000000E10    3.484810775039540E-1  -7.713890347284659E1   3.422593664626781E-1   1.530998677757673E2   3.431778475824927E-1   1.580964348201989E2   4.529713323861477E-1  -1.362166356581535E2  
 7.165000000000000E10    2.981577614823225E-1  -1.050913747979809E2   3.554959736170894E-1   1.137974742042267E2   3.563231422816538E-1   1.186877541591018E2   4.063039238969558E-1  -1.549384106190121E2  
 7.170000000000000E10    2.101900482676133E-1  -1.283818788858072E2   3.730354207580064E-1   7.283305975745279E1   3.733666297099795E-1   7.756375997298846E1   3.352712484628455E-1  -1.681317575140979E2  
 7.175000000000000E10    1.255216814914640E-1  -1.323640248035436E2   3.855590355620593E-1   3.032679198030716E1   3.862471814926428E-1   3.500151959512623E1   2.807787634952086E-1  -1.718683338607188E2  
 7.180000000000000E10    1.180890944207279E-1  -1.136579790239818E2   3.899092458147268E-1  -1.272251450812812E1   3.905141288964390E-1  -7.978028167736849   2.772804650341161E-1  -1.719827733713733E2  
