#  HZ   S   MA   R     50.00 
! Rohde & Schwarz ZVA67 4Ports - Version 4.11 - 1305.7002k04 SN: 101051
! Date: 2023-05-31 12:45:59
! Measurements: S11 S21 S12 S22 
! 
 5.000000000000000E7     1.645516886541978E-2   2.208080179451401E1   9.880113832805129E-1  -7.498403581465819   9.863904217086282E-1  -7.428927047691861   1.860414667873882E-2   2.023979208462697  
 1.000000000000000E8     1.386741464128570E-2  -1.012163583654863E1   9.846770433386666E-1  -1.479333483896891E1   9.896523899165877E-1  -1.507837797755353E1   1.409170553415643E-2  -7.094921100142682  
 1.500000000000000E8     2.020875085396532E-2  -1.013021665535884E1   9.883656756485525E-1  -2.223673025597658E1   9.861673999556971E-1  -2.248763935358958E1   1.957065025121208E-2  -1.674914537245544E1  
 2.000000000000000E8     1.879768983149354E-2  -1.142398501457863E1   9.856912623581190E-1  -2.976446774384589E1   9.866529121851275E-1  -3.015137482916072E1   2.093649553643076E-2  -1.806486506263873E1  
 2.500000000000000E8     2.231863579922406E-2  -1.759480180181513E1   9.839842176134392E-1  -3.733740901561585E1   9.832332758728890E-1  -3.752924211184694E1   2.526480723848120E-2  -2.605673298235807E1  
 3.000000000000000E8     2.589241045171555E-2  -2.752462603565671E1   9.840464328994280E-1  -4.479804631904491E1   9.827180818633057E-1  -4.498473277344331E1   2.962288326540816E-2  -3.238948906130930E1  
 3.500000000000000E8     2.798733882166431E-2  -3.499123828477666E1   9.833126719978420E-1  -5.222369769183494E1   9.816976586699407E-1  -5.241053099904224E1   3.074173955648145E-2  -3.730939623091330E1  
 4.000000000000000E8     3.141584571342865E-2  -4.231218700962501E1   9.811874855517405E-1  -5.967559209974782E1   9.818791132571819E-1  -5.987027046174671E1   3.564344388117764E-2  -4.277515327355419E1  
 4.500000000000000E8     3.054410297408393E-2  -4.614814119859003E1   9.806417870885891E-1  -6.707610945252195E1   9.813111984944629E-1  -6.728900395374556E1   3.829773298745340E-2  -5.073649924536209E1  
 5.000000000000000E8     3.075328697891312E-2  -5.625396260817028E1   9.799586740892781E-1  -7.455359037411434E1   9.804669133675670E-1  -7.473719881460119E1   3.809077675921595E-2  -6.192001403657355E1  
 5.500000000000000E8     2.719290725540692E-2  -6.262244030186884E1   9.794395200330087E-1  -8.200075965608899E1   9.797531144694035E-1  -8.218358012136748E1   3.997048115723514E-2  -6.990955134893510E1  
 6.000000000000000E8     2.453082492980287E-2  -7.494924717758491E1   9.793078517855913E-1  -8.945680752810999E1   9.787997883885721E-1  -8.964148935650663E1   4.150101917033728E-2  -8.135864688079785E1  
 6.500000000000000E8     2.240732097896203E-2  -7.855766188245443E1   9.786086800590012E-1  -9.682754909823917E1   9.783527419204178E-1  -9.709258093840099E1   4.377577953288306E-2  -9.417729253701099E1  
 7.000000000000000E8     1.687487571125008E-2  -9.552371478887547E1   9.778480436756218E-1  -1.042934989247324E2   9.770843567823442E-1  -1.045676104848526E2   4.229173512669740E-2  -1.071436958703361E2  
 7.500000000000000E8     1.116417887697723E-2  -9.775486248829468E1   9.771552508225531E-1  -1.117318318783962E2   9.767899874438573E-1  -1.120000277068792E2   4.118341891079553E-2  -1.195839271577328E2  
 8.000000000000000E8     4.955672935892302E-3  -1.324158788303975E2   9.766264475901989E-1  -1.191615784683808E2   9.759119726842619E-1  -1.194056140395933E2   3.828790691120048E-2  -1.341655264122310E2  
 8.500000000000000E8     1.924919748908995E-3  -1.786526294194965E2   9.758747082886359E-1  -1.266481940026893E2   9.752360509919296E-1  -1.269001351048279E2   3.962515941195059E-2  -1.474003124447026E2  
 9.000000000000000E8     5.350074384898530E-3   8.069327545996735E1   9.747499429589488E-1  -1.340987276980433E2   9.745068206535167E-1  -1.343370410175018E2   4.084970289506682E-2  -1.605033437639904E2  
 9.500000000000000E8     8.159548826958437E-3   7.762536786161952E1   9.739675715918271E-1  -1.414909455537924E2   9.734928615485730E-1  -1.418046251397531E2   4.047544201134056E-2  -1.706226386211505E2  
 1.000000000000000E9     1.102318751952381E-2   7.149638031175090E1   9.734580051755278E-1  -1.489638585811518E2   9.725760678578419E-1  -1.492586166771872E2   4.024560644561760E-2   1.787114966418687E2  
 1.050000000000000E9     1.163799009550779E-2   6.658708066614213E1   9.723319861651455E-1  -1.563502451866901E2   9.722248721763643E-1  -1.566763347477742E2   3.916316877394745E-2   1.722029271938042E2  
 1.100000000000000E9     1.297508743030760E-2   5.874431171585682E1   9.720201104176621E-1  -1.638186098527479E2   9.714762143168502E-1  -1.641179915323407E2   3.814965296578931E-2   1.620324914152010E2  
 1.150000000000000E9     1.426589318704374E-2   5.275665547721202E1   9.712029066851028E-1  -1.712253830923191E2   9.703423998076008E-1  -1.715503604791950E2   3.601599440779956E-2   1.556339759920891E2  
 1.200000000000000E9     1.377712222024773E-2   4.863937095865246E1   9.705342222046606E-1  -1.786626573361648E2   9.701379328144180E-1  -1.790318306409862E2   3.430388871767113E-2   1.481307694211006E2  
 1.250000000000000E9     1.177197266065293E-2   4.331349401663108E1   9.697197150650848E-1   1.738664529021661E2   9.693604057566039E-1   1.735454111526042E2   3.197726361778468E-2   1.496515965296849E2  
 1.300000000000000E9     9.966237714453343E-3   3.258342177570464E1   9.694334925753922E-1   1.664552157428634E2   9.695540771065532E-1   1.660864551402198E2   3.152220836430461E-2   1.476101002104394E2  
 1.350000000000000E9     8.731950242876057E-3   2.601997350846555E1   9.690379692924871E-1   1.590190579821700E2   9.686509934838669E-1   1.586837017609118E2   2.977315591701728E-2   1.495414072217896E2  
 1.400000000000000E9     5.005412771979521E-3   8.858185216387478   9.682972623152880E-1   1.516022365951768E2   9.681658518752125E-1   1.512426629781107E2   3.042959753370604E-2   1.501564025615435E2  
 1.450000000000000E9     3.469881765315539E-3  -2.860338492592034E1   9.684832187760685E-1   1.441896770880473E2   9.678273153679801E-1   1.437990020036972E2   3.170996488894899E-2   1.537728599280105E2  
 1.500000000000000E9     3.609099399728553E-3  -1.012268469246542E2   9.680606397234102E-1   1.367826321421609E2   9.683222593775679E-1   1.363893572112884E2   3.462231035096085E-2   1.544018001397903E2  
 1.550000000000000E9     7.239333362319019E-3  -1.180109752685359E2   9.681700582054132E-1   1.294124332187475E2   9.676383688840111E-1   1.289606003428039E2   3.771948565505371E-2   1.559474551943158E2  
 1.600000000000000E9     1.131329966776506E-2  -1.322306374931122E2   9.679058691629595E-1   1.219796162987719E2   9.673940067079413E-1   1.215837927939902E2   4.157627013748878E-2   1.533540758567420E2  
 1.650000000000000E9     1.613867179422504E-2  -1.386633022346442E2   9.678924716416943E-1   1.145405235905616E2   9.674487593719658E-1   1.141793838963499E2   4.574468336021281E-2   1.502835679541279E2  
 1.700000000000000E9     2.114603847456695E-2  -1.452567793071075E2   9.676289789703817E-1   1.071543718238667E2   9.669108545514269E-1   1.067666202410476E2   5.029104777122487E-2   1.458963816475871E2  
 1.750000000000000E9     2.746050039381469E-2  -1.480990868768384E2   9.672461049429296E-1   9.981638682861380E1   9.674170236233302E-1   9.938812591479454E1   5.422803144929946E-2   1.413448635065026E2  
 1.800000000000000E9     3.163568788565725E-2  -1.519082503134740E2   9.668093845326204E-1   9.243441028793272E1   9.673846027716826E-1   9.202258629778088E1   5.675856691913448E-2   1.358009899665367E2  
 1.850000000000000E9     3.677289210494290E-2  -1.550783406172450E2   9.676007325431971E-1   8.502356055260466E1   9.670210685583806E-1   8.461574627475243E1   5.818846507049463E-2   1.289564980532805E2  
 1.900000000000000E9     4.120666927856699E-2  -1.612936765389234E2   9.674716687467853E-1   7.765990137768750E1   9.670128992743160E-1   7.720461127186265E1   6.093085926892471E-2   1.230813212832737E2  
 1.950000000000000E9     4.617334859208095E-2  -1.659669361369047E2   9.662902045127826E-1   7.033356820810081E1   9.667828218396922E-1   6.983991758817300E1   6.221051241561856E-2   1.151080444035456E2  
 2.000000000000000E9     5.028111371647642E-2  -1.711541847537976E2   9.661745602990784E-1   6.292249728057065E1   9.661314408386853E-1   6.242850172205672E1   6.378677511792379E-2   1.070602286802271E2  
 2.050000000000000E9     5.326661784512658E-2  -1.759854322632757E2   9.661308676581609E-1   5.550549813230938E1   9.665903769866613E-1   5.506321705269644E1   6.463109460516057E-2   9.989644430276296E1  
 2.100000000000000E9     5.507434844304918E-2   1.768606824062250E2   9.663883396473946E-1   4.817813741527098E1   9.654109848569321E-1   4.769965173344755E1   6.586154778932354E-2   9.412398719486383E1  
 2.150000000000000E9     5.719986903517683E-2   1.709574283355659E2   9.655414885816862E-1   4.075794561917419E1   9.648003858361902E-1   4.029290332333279E1   6.759977177071234E-2   8.622847200630382E1  
 2.200000000000000E9     5.800515578231962E-2   1.640992863911796E2   9.648479637279332E-1   3.342263689623686E1   9.652010458396724E-1   3.293334902425876E1   6.831389551005067E-2   8.013994338726970E1  
 2.250000000000000E9     5.688897363732831E-2   1.560249206043306E2   9.648662597361766E-1   2.601750709852524E1   9.648985760486739E-1   2.550175135195212E1   6.935276726933158E-2   7.281655053358323E1  
 2.300000000000000E9     5.545324954794206E-2   1.459382728239748E2   9.644743004679015E-1   1.868830015618250E1   9.630808607721337E-1   1.814619124404291E1   7.314324170529687E-2   6.717734521309532E1  
 2.350000000000000E9     5.389681184878366E-2   1.362976779081061E2   9.630239064512906E-1   1.131547850712007E1   9.638349377640283E-1   1.073712583971691E1   7.516908522282975E-2   6.069393521032770E1  
 2.400000000000000E9     5.265781962119238E-2   1.248221709297985E2   9.636651178145436E-1   3.886907197182088   9.625570682637178E-1   3.400644763834312   7.883570726841732E-2   5.482760518536439E1  
 2.450000000000000E9     5.097036197523509E-2   1.142690526697481E2   9.626895799320591E-1  -3.479993274968728   9.621954424026246E-1  -4.058509689927918   8.007152594356198E-2   4.937244789041080E1  
 2.500000000000000E9     5.085397431337040E-2   1.002502875621954E2   9.631541360885561E-1  -1.089105229078228E1   9.618709049138242E-1  -1.137849116510598E1   8.316461522013091E-2   4.375157173053584E1  
 2.550000000000000E9     5.038093979120914E-2   8.767412099457378E1   9.626126443998030E-1  -1.829560124541050E1   9.622252793739399E-1  -1.876804386817016E1   8.298264787358957E-2   3.809478574266996E1  
 2.600000000000000E9     5.359410726686033E-2   7.362440999295863E1   9.619412077509791E-1  -2.567062376973198E1   9.617286631466734E-1  -2.619736182409184E1   8.557817422413547E-2   3.204327593030178E1  
 2.650000000000000E9     5.517410517105184E-2   6.199533125992961E1   9.620601269468242E-1  -3.307296613000041E1   9.609796827673378E-1  -3.354941900262991E1   8.478976537218873E-2   2.553247977776629E1  
 2.700000000000000E9     5.906594935857711E-2   5.096451433596378E1   9.614506558651279E-1  -4.050822546912975E1   9.605449931611809E-1  -4.101961006450190E1   8.623859034484525E-2   1.913032627340668E1  
 2.750000000000000E9     6.218901082642481E-2   4.014128587913532E1   9.613673895699533E-1  -4.791049733197973E1   9.604873153606190E-1  -4.838011862200050E1   8.565990971022963E-2   1.220776146266788E1  
 2.800000000000000E9     6.662025159996393E-2   3.015596961560610E1   9.608141092381545E-1  -5.529895809750819E1   9.597285281817725E-1  -5.581415115408603E1   8.522619229287677E-2   5.149914432813979  
 2.850000000000000E9     6.982701985583999E-2   2.130685724998008E1   9.599369385029654E-1  -6.272271137449422E1   9.595326231606679E-1  -6.324205813556787E1   8.267136650634345E-2  -2.255044631091635  
 2.900000000000000E9     7.347590961695498E-2   1.344311808665792E1   9.606530359219526E-1  -7.019936085403981E1   9.608453952423559E-1  -7.065997568551840E1   8.168394894845699E-2  -9.967831882973371  
 2.950000000000000E9     7.273575238498446E-2   4.109204652668690   9.604051510940154E-1  -7.760642924778162E1   9.606393587245787E-1  -7.812790171331940E1   7.852574081591913E-2  -1.766420396249480E1  
 3.000000000000000E9     7.359567893955996E-2  -4.345327492136280   9.602966646229894E-1  -8.500584041540698E1   9.595015612949192E-1  -8.560822648838506E1   7.597716378963150E-2  -2.487503738664232E1  
 3.050000000000000E9     7.203202756050754E-2  -1.280090033705810E1   9.604005496928201E-1  -9.249253850266288E1   9.601446163774610E-1  -9.304086658161124E1   7.146315787068770E-2  -3.373859892082793E1  
 3.100000000000000E9     7.226956544190534E-2  -2.045378877049984E1   9.598854711856292E-1  -9.987823588994610E1   9.594835061996337E-1  -1.005283517900478E2   6.846402428671845E-2  -4.092015997497761E1  
 3.150000000000000E9     6.820542181317894E-2  -2.866829966527565E1   9.592506205206031E-1  -1.073263226029505E2   9.591092075683957E-1  -1.080066107773932E2   6.320798232672900E-2  -4.858246187046262E1  
 3.200000000000000E9     6.587809272535133E-2  -3.705153422096650E1   9.591426002845510E-1  -1.147008156376228E2   9.588356386767919E-1  -1.154314098241920E2   5.817916411630755E-2  -5.668224621606134E1  
 3.250000000000000E9     6.162998153276953E-2  -4.594134105502464E1   9.596929968057859E-1  -1.221346199352871E2   9.598083472602311E-1  -1.229005748664626E2   5.211121001147192E-2  -6.444973551343196E1  
 3.300000000000000E9     5.533670451372396E-2  -5.530626259406574E1   9.597030250403257E-1  -1.295828493755538E2   9.603105839203314E-1  -1.302178812762428E2   4.584018243687676E-2  -7.339765116372456E1  
 3.350000000000000E9     5.112599290419412E-2  -6.677557134238015E1   9.595608317157717E-1  -1.369785915028311E2   9.609398622951746E-1  -1.376406569911190E2   4.052536709425785E-2  -8.169645203275577E1  
 3.400000000000000E9     4.509309340195200E-2  -7.764874972708502E1   9.602121396104388E-1  -1.444085708024536E2   9.606101973932617E-1  -1.451375370542169E2   3.492461871473970E-2  -8.944871835278113E1  
 3.450000000000000E9     4.050541650760971E-2  -9.260335070599889E1   9.600030916174311E-1  -1.517473988108054E2   9.613044182017453E-1  -1.525709879224634E2   2.964390839815709E-2  -9.993141812710215E1  
 3.500000000000000E9     3.691804110884368E-2  -1.084361184688127E2   9.617609951724769E-1  -1.591045300385771E2   9.619912444543558E-1  -1.600402405449616E2   2.369516493277322E-2  -1.052238777896113E2  
 3.550000000000000E9     3.459720716033895E-2  -1.286983774718569E2   9.626876748896125E-1  -1.665522737080225E2   9.626452785033925E-1  -1.675845423324531E2   1.830383003821644E-2  -1.184489871855855E2  
 3.600000000000000E9     3.272311182544293E-2  -1.461183538282395E2   9.635591973272711E-1  -1.740532793484564E2   9.616689034494063E-1  -1.750204679966075E2   1.499764238630664E-2  -1.320523324199801E2  
 3.650000000000000E9     3.498106338895889E-2  -1.628613799557809E2   9.639108627187450E-1   1.784716957635291E2   9.614240768513688E-1   1.775840517059556E2   1.148235848221874E-2  -1.506697382178091E2  
 3.700000000000000E9     3.734893805062042E-2   1.785495840122989E2   9.626437869578017E-1   1.709632791962315E2   9.615365751037326E-1   1.701699893472294E2   1.081185986942670E-2  -1.644377410843283E2  
 3.750000000000000E9     4.287737484974635E-2   1.642404176385684E2   9.624351754392653E-1   1.634825829073505E2   9.609344831835074E-1   1.626863714895163E2   7.796668675383166E-3  -1.698968618107042E2  
 3.800000000000000E9     4.509593184221591E-2   1.501140366290118E2   9.608133509033134E-1   1.561181640266734E2   9.607213990543880E-1   1.553164900884432E2   4.976003148307632E-3   1.680472555196323E2  
 3.850000000000000E9     5.045617543996243E-2   1.396224364949948E2   9.606534508292526E-1   1.486783817359032E2   9.608222159255513E-1   1.479050959609826E2   5.120041386030638E-3   1.510312493339651E2  
 3.900000000000000E9     5.447500076940106E-2   1.285543868761366E2   9.608786081977194E-1   1.412714188679051E2   9.596218271297875E-1   1.404435303415387E2   4.200970261497109E-3   1.167944397398859E2  
 3.950000000000000E9     5.840595087884469E-2   1.212598346368836E2   9.600630070141181E-1   1.338998956346593E2   9.594260780518904E-1   1.330927011171656E2   4.338597567262891E-3   9.782372296300814E1  
 4.000000000000000E9     6.013356954234316E-2   1.119286194301928E2   9.596900975888451E-1   1.264958747538698E2   9.593828426289417E-1   1.256645200657904E2   4.488372668827912E-3   7.868586313475852E1  
 4.050000000000000E9     6.232484428733572E-2   1.072764243175523E2   9.596748100569157E-1   1.191432925973383E2   9.589688445564689E-1   1.182612618573899E2   4.792491459857657E-3   7.394190861026864E1  
 4.100000000000000E9     6.241442540072831E-2   9.945922669153194E1   9.581499102408875E-1   1.116797365258515E2   9.579349865813864E-1   1.108367954375778E2   5.385839348044982E-3   5.803180825350231E1  
 4.150000000000000E9     6.307093787916067E-2   9.305772816725131E1   9.573093915835123E-1   1.042750722401615E2   9.572851695784193E-1   1.033999211209732E2   6.349490239664202E-3   5.419204113553541E1  
 4.200000000000000E9     6.145239953372481E-2   8.717389005708097E1   9.575309979288783E-1   9.685757196415234E1   9.569633692753944E-1   9.600515946585718E1   7.244262809412901E-3   4.352400522439198E1  
 4.250000000000000E9     5.947221434474925E-2   8.150941974828938E1   9.565919758549617E-1   8.945644246100115E1   9.562505617893969E-1   8.860715748496985E1   8.271956760005550E-3   4.349876717755744E1  
 4.300000000000000E9     5.676816314569237E-2   7.508933380704104E1   9.566159731449838E-1   8.201567250764870E1   9.556210885151338E-1   8.123421679425317E1   1.053765783683818E-2   4.214857271647389E1  
 4.350000000000000E9     5.461311272672514E-2   6.871374724438996E1   9.560804645823976E-1   7.466497362520224E1   9.562816958969365E-1   7.379732997933037E1   9.698847064803342E-3   4.789578826398837E1  
 4.400000000000000E9     5.101106931942206E-2   6.236180467757444E1   9.564286556295487E-1   6.725117649405414E1   9.559414296806328E-1   6.638717754610866E1   1.049150370214156E-2   4.663769496830575E1  
 4.450000000000000E9     4.825930479815518E-2   5.871702941036255E1   9.564750745986472E-1   5.987110555782433E1   9.562163303993260E-1   5.897311752440302E1   9.851733555698879E-3   5.822912634057784E1  
 4.500000000000000E9     4.559199258289517E-2   5.142838881460949E1   9.561546824212414E-1   5.246523465308987E1   9.552241449906244E-1   5.158525174163837E1   1.081172480194609E-2   5.888720314825173E1  
 4.550000000000000E9     4.296281892125638E-2   4.715321184945331E1   9.558701315115336E-1   4.504857614126897E1   9.561934067921608E-1   4.420564392683694E1   1.302529865689617E-2   7.028265023314388E1  
 4.600000000000000E9     4.018556398345676E-2   4.230852175772009E1   9.560455478127572E-1   3.767534586091217E1   9.558608113450470E-1   3.676075084081009E1   1.473056192453456E-2   7.726732242139113E1  
 4.650000000000000E9     3.673076947058213E-2   3.908707624242751E1   9.565197783403774E-1   3.030319414117380E1   9.563195314230931E-1   2.938797209636627E1   2.050953027763010E-2   7.546842677679999E1  
 4.700000000000000E9     3.577194188002900E-2   3.599908972316446E1   9.568457292758906E-1   2.290125143842986E1   9.564328205551117E-1   2.197950490209042E1   2.528815842822326E-2   7.735156844712647E1  
 4.750000000000000E9     3.363087903557625E-2   3.452272038349314E1   9.569846813697929E-1   1.548447607034886E1   9.564291401318608E-1   1.456411226760063E1   2.961309579452896E-2   7.677990353867426E1  
 4.800000000000000E9     3.444249452351363E-2   3.277951606333522E1   9.577807260515586E-1   8.108607909353470   9.569067823014179E-1   7.195225006629063   3.364380599165112E-2   7.240951952357185E1  
