#  HZ   S   MA   R     50.00 
! Rohde & Schwarz ZVA67 4Ports - Version 4.11 - 1305.7002k04 SN: 101051
! Date: 2023-05-31 11:12:48
! Measurements: S11 S21 S12 S22 
! 
 5.000000000000000E7     1.606314399390278E-2   1.750146216125871E2   2.737429427219507E-5  -4.864262945346870   9.116882998435756E-5   9.486387149771376E1   1.977159906632288E-2  -1.744643536788365E2  
 1.000000000000000E8     1.402801324016544E-2   1.665569788614082E2   7.520809947706216E-5   9.536659644367379E1   5.731036028589373E-5   9.383749735410181E1   1.655958574575153E-2   1.752112456037588E2  
 1.500000000000000E8     1.303004969515666E-2   1.602261479927508E2   3.907964490113299E-5   7.183404442100515E1   3.899223181948322E-5   6.703819621650356   1.463576290821206E-2   1.715259955015193E2  
 2.000000000000000E8     1.223781263719666E-2   1.461929798447234E2   2.763865420499670E-5   2.179235244069176E1   6.637379935766586E-5   4.044064643713427E1   1.408690966492913E-2   1.682166743154742E2  
 2.500000000000000E8     1.140085344406138E-2   1.391208526731406E2   7.899524492897046E-5   5.600456181427030E1   9.331654429442857E-5   1.536763283424166E1   1.303162427126277E-2   1.609400071989360E2  
 3.000000000000000E8     1.015436041423117E-2   1.273906712293361E2   8.262891845876557E-5   4.898076984089740E1   6.546785135277612E-5   4.791844665941346E1   1.152313021146470E-2   1.550281907754191E2  
 3.500000000000000E8     9.615489630539095E-3   1.111921391572515E2   9.392822090161348E-5   3.261125053561173E1   7.827826388303638E-5   5.136229816135496E1   1.106629726988485E-2   1.481325858908529E2  
 4.000000000000000E8     9.405893544354380E-3   8.937530128626696E1   8.674997497121587E-5   2.514817116858927E1   6.708327349737287E-5   1.793028995124260E1   9.461401652653899E-3   1.428154762967263E2  
 4.500000000000000E8     1.164003962279020E-2   7.485191728205304E1   1.270630546813289E-4   3.267428714106840E1   1.337626150841665E-4   4.007170256789324E1   9.286682348177094E-3   1.280199460399957E2  
 5.000000000000000E8     1.330329176270887E-2   6.607675962621721E1   8.336903180383515E-5   1.294680522003474E1   1.223688568043707E-4   2.858910996861515E1   9.897993938125448E-3   1.205345568894238E2  
 5.500000000000000E8     1.551746520182286E-2   5.958054105294415E1   1.120753543746221E-4   2.098495739932648E1   1.274987515926122E-4   6.851487257680058   1.052653987557535E-2   1.131317334615215E2  
 6.000000000000000E8     1.701210328195017E-2   5.547376487248214E1   1.262527222383983E-4   6.285427311295113   1.386443376032659E-4   7.030739036998284   1.078708862248142E-2   1.091402374091658E2  
 6.500000000000000E8     1.948035365634675E-2   4.920411463342663E1   1.458596994138266E-4   2.378746968980491   1.409167221158429E-4   4.346310563752332   1.140288795455803E-2   1.035142794263426E2  
 7.000000000000000E8     2.140573007100934E-2   4.829843381632588E1   1.489682727154874E-4  -1.603502147698737   1.408569367754809E-4  -7.191840778032481   1.221960097637833E-2   1.023467025339978E2  
 7.500000000000000E8     2.322479826291377E-2   4.619730993965055E1   1.714756276368065E-4  -1.344056092082499E1   1.443734191995475E-4  -1.436040011725231E1   1.342434265635472E-2   9.613876927230754E1  
 8.000000000000000E8     2.485659145000046E-2   4.563448934635954E1   1.974250826274657E-4  -1.852855532302302E1   1.687339919250847E-4  -1.144261401388594E1   1.529273147721193E-2   9.563824351190135E1  
 8.500000000000000E8     2.597581276819953E-2   4.270015640652738E1   1.762005824618298E-4  -3.094600588138458E1   1.908246084263994E-4  -2.652000768401552E1   1.620659743004253E-2   9.597187326314239E1  
 9.000000000000000E8     2.736682582966162E-2   4.123938739650427E1   2.023391720218402E-4  -3.249874331863834E1   2.040749571146290E-4  -3.450838263902039E1   1.647983403055768E-2   9.799757257384417E1  
 9.500000000000000E8     2.769883069784221E-2   4.010220119024939E1   1.993052342208520E-4  -3.682140007659980E1   2.050773576514024E-4  -4.054696454734012E1   1.589881027918299E-2   9.756785899487896E1  
 1.000000000000000E9     2.757556745683459E-2   3.960937204211398E1   2.230834013051052E-4  -4.386111535794801E1   2.193548942067253E-4  -4.085354780947910E1   1.630091860647248E-2   9.749090767691180E1  
 1.050000000000000E9     2.676055621788567E-2   3.726904531715823E1   2.398159587661495E-4  -5.550558607651388E1   2.441877890040966E-4  -4.945701472259957E1   1.573158700078003E-2   9.842464132013758E1  
 1.100000000000000E9     2.687012696364152E-2   3.517999507926885E1   2.571946552144949E-4  -6.139940535086434E1   2.610981062265471E-4  -6.358825393305273E1   1.613564351666685E-2   9.498405664863040E1  
 1.150000000000000E9     2.612827198392376E-2   3.384617259189767E1   2.764202645528733E-4  -6.528913829176008E1   2.479306817269848E-4  -6.804348564773186E1   1.643736496796255E-2   9.561117679282718E1  
 1.200000000000000E9     2.508152632941569E-2   3.315998194429928E1   2.994875597357735E-4  -7.296044438758963E1   2.788653328465911E-4  -7.335886554692411E1   1.675061790381462E-2   9.550065758775878E1  
 1.250000000000000E9     2.291095182986890E-2   3.165962422118102E1   3.058714764418790E-4  -8.291708338068366E1   2.957048487660818E-4  -7.927347728193982E1   1.683999381833023E-2   9.794505057312858E1  
 1.300000000000000E9     2.166807037967024E-2   2.808401401667719E1   3.195803681060253E-4  -8.787239580360037E1   3.046315534056231E-4  -8.895392336222186E1   1.653040802602548E-2   9.800970375014504E1  
 1.350000000000000E9     1.993645488467784E-2   2.690163179752341E1   3.306963319730077E-4  -9.654579757435191E1   3.194185419174869E-4  -9.245770926402392E1   1.627604633671625E-2   9.813474451868038E1  
 1.400000000000000E9     1.768848392661050E-2   2.315848613661084E1   3.442684391819870E-4  -1.017243782301201E2   3.510175903254362E-4  -1.003150287169783E2   1.637562418332476E-2   9.706515657274426E1  
 1.450000000000000E9     1.558129785637039E-2   2.112586322298405E1   3.720611754326532E-4  -1.105051784154010E2   3.688888108241512E-4  -1.077910332365170E2   1.648116172142324E-2   9.905861461372214E1  
 1.500000000000000E9     1.285212364419603E-2   1.615624930994686E1   4.104697703193054E-4  -1.131436538613020E2   4.032476938007805E-4  -1.142035791397353E2   1.587927938333679E-2   9.879387856567630E1  
 1.550000000000000E9     1.028157991149438E-2   7.758541086278481   4.387340588523305E-4  -1.240152166885015E2   4.384677767168792E-4  -1.239133942880873E2   1.562406619438824E-2   9.867495415789877E1  
 1.600000000000000E9     8.193100085801774E-3  -3.326452607986189   4.302089107762714E-4  -1.317032877492680E2   4.641186753968686E-4  -1.279363766801017E2   1.528948088829247E-2   9.741272341963509E1  
 1.650000000000000E9     6.277747884946501E-3  -1.868237005066592E1   4.880759548397084E-4  -1.402582280832641E2   4.808782684055826E-4  -1.376732978366192E2   1.541005797212615E-2   9.732380032329175E1  
 1.700000000000000E9     4.955423769345084E-3  -5.330221568181171E1   5.277637020365236E-4  -1.501888638721695E2   5.261873371555103E-4  -1.504769787972780E2   1.462655636751470E-2   9.647715519873530E1  
 1.750000000000000E9     6.565101466759983E-3  -8.970172081321176E1   5.789652021949011E-4  -1.632537179890743E2   5.639551346783531E-4  -1.626193541632324E2   1.441536946670046E-2   9.642507487258442E1  
 1.800000000000000E9     9.646892918650911E-3  -1.035645233707186E2   5.699839139392349E-4  -1.773155140680083E2   5.682275515184405E-4  -1.769398844486907E2   1.300781434784694E-2   9.395376387647988E1  
 1.850000000000000E9     1.224074611370120E-2  -1.115321066661174E2   5.448411817984289E-4   1.710147871756763E2   5.084282827789047E-4   1.710809810077813E2   1.316866761959354E-2   9.088170513673627E1  
 1.900000000000000E9     1.497851955271069E-2  -1.181483067372339E2   5.078073587772442E-4   1.615715153527556E2   5.061401965511063E-4   1.641447520196613E2   1.226173137773771E-2   9.097617203530677E1  
 1.950000000000000E9     1.767264219802434E-2  -1.233912561634991E2   4.674980863757445E-4   1.577939605076462E2   4.566533910400841E-4   1.620101682880397E2   1.178781576123389E-2   8.109956213662321E1  
 2.000000000000000E9     2.061085050589762E-2  -1.267955807522515E2   5.189832773417209E-4   1.554654097499486E2   4.929267431421011E-4   1.514695399237146E2   1.251869180667723E-2   7.534105456874163E1  
 2.050000000000000E9     2.305038069210340E-2  -1.272738783419682E2   4.911303050354147E-4   1.433507970106521E2   5.247675090706910E-4   1.403524036365377E2   1.295364783562398E-2   7.165834177935369E1  
 2.100000000000000E9     2.486448647710626E-2  -1.299802391423272E2   4.787652754573832E-4   1.319212518642960E2   4.770783754628789E-4   1.360561300756550E2   1.306490622397875E-2   6.915281517093197E1  
 2.150000000000000E9     2.686489328676418E-2  -1.324824808994620E2   4.739486413368151E-4   1.266190145498367E2   4.614742956333445E-4   1.345012226843297E2   1.331442116971881E-2   6.243269349248859E1  
 2.200000000000000E9     2.899395181643546E-2  -1.335400056561368E2   5.193869617772787E-4   1.206776667390353E2   4.936202969408982E-4   1.198882042288967E2   1.410277336150588E-2   5.947492106512731E1  
 2.250000000000000E9     2.992003329310898E-2  -1.335727209943286E2   5.185641904770148E-4   1.084511589279432E2   5.273071373469400E-4   1.061741011277403E2   1.490994033626139E-2   5.478428756922160E1  
 2.300000000000000E9     3.003461750979573E-2  -1.350177838677477E2   4.945055179971023E-4   9.869796945797651E1   4.921758958400915E-4   9.967581735471033E1   1.666363205306896E-2   5.153300857952744E1  
 2.350000000000000E9     3.012812878835731E-2  -1.369994147757840E2   4.427074340821713E-4   9.031205611082940E1   4.229364921678629E-4   8.948932313474059E1   1.793263850083176E-2   5.049950014326185E1  
 2.400000000000000E9     2.986122502555344E-2  -1.387799055081565E2   3.960519116788893E-4   8.870345060497390E1   4.122905603428626E-4   8.963037236214382E1   1.933568145427047E-2   4.895030613855607E1  
 2.450000000000000E9     2.959727893288125E-2  -1.406265129496153E2   3.997756685039846E-4   7.944719748030605E1   3.971678278035279E-4   7.634863376294710E1   2.043759244902888E-2   4.834154055057766E1  
 2.500000000000000E9     2.812483215496914E-2  -1.429897713453366E2   3.884318788772780E-4   7.387075316205332E1   3.963665534129960E-4   7.623700967376961E1   2.154530305737918E-2   4.954746956053021E1  
 2.550000000000000E9     2.671654956919249E-2  -1.464584838018014E2   3.677735776180331E-4   7.319505449649363E1   3.494021501352480E-4   7.530273030847125E1   2.212883287510974E-2   5.008681715761780E1  
 2.600000000000000E9     2.493548934603179E-2  -1.503028011504106E2   3.570189602104786E-4   7.877589548574991E1   3.544313972904431E-4   7.142146066565201E1   2.295804589009664E-2   5.011443465358569E1  
 2.650000000000000E9     2.310625511492135E-2  -1.555590972895946E2   4.055865587462718E-4   6.788382983750827E1   3.801341373868368E-4   6.831137937838547E1   2.251425404548249E-2   4.912589325847151E1  
 2.700000000000000E9     2.107378981365297E-2  -1.614108865657043E2   3.642488838276106E-4   6.091046859615835E1   4.125576361316293E-4   6.468683909845650E1   2.352669263506350E-2   4.629825215898726E1  
 2.750000000000000E9     1.906247714522279E-2  -1.696391357614513E2   4.149362551425434E-4   5.954858015745261E1   4.562020703227584E-4   6.007923696888803E1   2.386831785525058E-2   4.563052474682446E1  
 2.800000000000000E9     1.742317961067008E-2  -1.789799609280178E2   4.684059738188164E-4   5.434519823655374E1   4.567988993773276E-4   5.280345439722950E1   2.428367792473896E-2   4.333562512647612E1  
 2.850000000000000E9     1.618287401932355E-2   1.669676296794303E2   4.626098488441149E-4   4.224590218735492E1   4.946530019586719E-4   4.166907765868686E1   2.537487766987545E-2   4.294529109830696E1  
 2.900000000000000E9     1.686897252786987E-2   1.512598088020235E2   5.067661586979982E-4   3.080647460670988E1   5.094911364995809E-4   3.571809386752401E1   2.491838150604108E-2   4.108890719209923E1  
 2.950000000000000E9     1.799874487616662E-2   1.391572855410959E2   5.336796667299615E-4   2.654114101448148E1   5.586715158921765E-4   2.236183439847385E1   2.610033795805288E-2   3.911830399961485E1  
 3.000000000000000E9     1.944479013229608E-2   1.287911544018049E2   4.982795493350542E-4   1.406484644106660E1   4.798743219524572E-4   1.331566782018606E1   2.638580415531691E-2   3.836179241707894E1  
 3.050000000000000E9     2.101557839224148E-2   1.197391475400379E2   4.658943701516594E-4   8.009248531237963   4.707155873971899E-4   2.726688426125096   2.658123492032000E-2   3.587304548099385E1  
 3.100000000000000E9     2.392170376051473E-2   1.094913673604527E2   4.417390448700006E-4  -7.952584116104234E-1   4.562021939817251E-4   7.352041910986258   2.736071023253301E-2   3.367569721257036E1  
 3.150000000000000E9     2.686059573902043E-2   1.028868232477415E2   4.579122798113930E-4  -3.112343742585640E-1   4.035516155551231E-4  -6.310872114469971   2.836226055393773E-2   3.163194577581714E1  
 3.200000000000000E9     2.972422194623594E-2   9.742207264162640E1   4.526618006975253E-4  -1.045971480970684E1   4.744387428467346E-4  -9.672653109415180   2.885256249571560E-2   3.065992622223177E1  
 3.250000000000000E9     3.277398717895143E-2   9.285321515507370E1   4.556191009996882E-4  -1.120858822290784E1   4.377614225056916E-4  -1.934527002543730E1   2.921615261698941E-2   2.991226262469789E1  
 3.300000000000000E9     3.560347762554585E-2   8.870031496119248E1   4.591886066914266E-4  -1.963436433041870E1   4.343705269722026E-4  -2.278912331021436E1   2.941538477119736E-2   2.820017025027310E1  
 3.350000000000000E9     3.858005860835713E-2   8.514924048721176E1   4.613390479879527E-4  -3.097639759476249E1   4.842666659259763E-4  -2.731845824469558E1   2.949309602098212E-2   2.735106630621977E1  
 3.400000000000000E9     4.063364342539017E-2   8.237204980117679E1   4.707053550455636E-4  -3.669030886457235E1   4.800371168889406E-4  -3.297460150675575E1   2.947271188669155E-2   2.521284884490977E1  
 3.450000000000000E9     4.312542608265432E-2   7.909496591626169E1   4.016028134783700E-4  -4.370619725397473E1   4.291571777254279E-4  -4.094174928627866E1   2.969313105618768E-2   2.400891259685612E1  
 3.500000000000000E9     4.563690769401276E-2   7.630428989595629E1   3.938439997546361E-4  -4.442022336598392E1   4.446023877696879E-4  -4.308429244650337E1   2.958468672690710E-2   2.179849289751494E1  
 3.550000000000000E9     4.713140714876209E-2   7.377983903617346E1   4.199749133849602E-4  -4.983072454457877E1   3.896230147835451E-4  -4.747048124903649E1   3.073932353631164E-2   2.074705871740802E1  
 3.600000000000000E9     4.857325986747146E-2   7.057524205316722E1   4.351965147005025E-4  -5.281385132613948E1   4.464413008991750E-4  -5.071406005396368E1   2.992065369556658E-2   2.177820331958306E1  
 3.650000000000000E9     5.054539408212429E-2   6.780495196469165E1   4.207771655959405E-4  -5.982110128654140E1   4.169407420075740E-4  -5.576318486090330E1   2.861502474525931E-2   1.983613511541546E1  
 3.700000000000000E9     5.209850360985757E-2   6.534480867180143E1   4.952642467113902E-4  -5.927982559293491E1   4.301645831934761E-4  -6.251283112724687E1   2.778331726388840E-2   1.804371857822953E1  
 3.750000000000000E9     5.298891831476792E-2   6.228791051690447E1   5.188736133099543E-4  -7.498708051654560E1   4.555019816332347E-4  -6.759385006020189E1   2.700059252157436E-2   1.230907366602250E1  
 3.800000000000000E9     5.420506557705983E-2   6.003116273528698E1   5.088982458544301E-4  -7.777819173536473E1   5.006328700082758E-4  -7.492577345039611E1   2.833768757620474E-2   1.064792366754670E1  
 3.850000000000000E9     5.446348361386931E-2   5.818666980799277E1   4.686800759791448E-4  -8.407956487725301E1   4.933138721047979E-4  -8.178621105546205E1   2.722605025596320E-2   9.193741909578291  
 3.900000000000000E9     5.517206060302419E-2   5.562322614854452E1   5.627961853654535E-4  -9.547432942471180E1   4.882410627653978E-4  -8.869305848014110E1   2.772937135388786E-2   5.551466181867692  
 3.950000000000000E9     5.475299622270100E-2   5.382652521656583E1   4.918158484109223E-4  -9.174957638191472E1   5.070793998113839E-4  -9.522573104938913E1   2.772413299404037E-2   4.018949698389383  
 4.000000000000000E9     5.414890147683162E-2   5.100955597058188E1   5.483941990511098E-4  -1.022820918494604E2   5.418799080696724E-4  -1.028221686248375E2   2.748135113447551E-2   2.208799864840612  
 4.050000000000000E9     5.315300437530257E-2   4.857123803347998E1   5.272929134228294E-4  -1.121239124547339E2   5.163509064949369E-4  -1.122206623687282E2   2.703320575988768E-2  -4.987348772862250E-1  
 4.100000000000000E9     5.182470248285099E-2   4.531425247710202E1   4.910550940002692E-4  -1.178414753845734E2   5.057291800440245E-4  -1.174265154627741E2   2.780169521901446E-2  -3.991498407279046  
 4.150000000000000E9     5.076246964838794E-2   4.200779989960367E1   5.328287157713705E-4  -1.232179533502289E2   5.146638391651749E-4  -1.226042693474479E2   2.828569414217421E-2  -5.600959632917276  
 4.200000000000000E9     4.914861374295172E-2   3.842768847836445E1   5.452024645487050E-4  -1.287964758648531E2   5.158685325799884E-4  -1.317108167041993E2   2.889367670586715E-2  -8.449214780023047  
 4.250000000000000E9     4.759323951364618E-2   3.443814135625342E1   5.188201709818616E-4  -1.346366642741465E2   5.051913151863394E-4  -1.372633137337300E2   2.960548886780798E-2  -8.349950813749496  
 4.300000000000000E9     4.610331486101790E-2   2.964454102079042E1   5.295869537224298E-4  -1.417063152150710E2   5.114303413989630E-4  -1.411144342378085E2   2.912140789577430E-2  -8.860927461084877  
 4.350000000000000E9     4.549910489715841E-2   2.501694789149811E1   5.074000684525706E-4  -1.490409947452407E2   5.042014359086976E-4  -1.485129350996152E2   2.922742985376439E-2  -9.352235816923752  
 4.400000000000000E9     4.442333320410469E-2   2.098488108988860E1   4.985627634036448E-4  -1.539009509948734E2   5.017697704684265E-4  -1.507392029924918E2   2.862829888822558E-2  -1.067831026780528E1  
 4.450000000000000E9     4.288878221716240E-2   1.569243475042463E1   5.174695612429769E-4  -1.566113361094660E2   5.330734515546136E-4  -1.558619534911701E2   2.823289260616267E-2  -1.251796638767659E1  
 4.500000000000000E9     4.272846347645497E-2   1.027926704727637E1   5.403699799696522E-4  -1.646839895107003E2   5.598333004322997E-4  -1.633968703146534E2   2.884869400241125E-2  -1.374269745443393E1  
 4.550000000000000E9     4.212234936226869E-2   5.791999642318417   5.687308356490798E-4  -1.716846686826375E2   5.674882976833885E-4  -1.702441950994453E2   2.864825378307763E-2  -1.413386532942157E1  
 4.600000000000000E9     4.137472089939982E-2   2.064106859476510E-1   5.618837268967785E-4  -1.780792022418518E2   5.702843276271438E-4  -1.771964844742004E2   2.833957900101614E-2  -1.694705671197539E1  
 4.650000000000000E9     4.177319406413049E-2  -4.886625229970319   5.831041900300966E-4   1.779105171994996E2   5.846858599616735E-4   1.772908643212781E2   2.905686771526361E-2  -1.578624611231573E1  
 4.700000000000000E9     4.136945056649743E-2  -9.969529174448137   6.107321806815562E-4   1.705502434743978E2   5.843655965328713E-4   1.708675222943590E2   2.725717604179248E-2  -1.561371291818916E1  
 4.750000000000000E9     4.213159712319434E-2  -1.467699121209583E1   6.139559815736960E-4   1.664904137824057E2   5.846371999366323E-4   1.642738627105954E2   2.647153126069365E-2  -1.799047846187394E1  
 4.800000000000000E9     4.242155496675541E-2  -1.810982546586983E1   6.171518072302616E-4   1.591087042443045E2   5.992408911646874E-4   1.584975351840881E2   2.517864226130799E-2  -2.098118690754988E1  
