#  HZ   S   MA   R     50.00 
! Rohde & Schwarz ZVA67 4Ports - Version 4.11 - 1305.7002k04 SN: 101051
! Date: 2023-05-31 11:08:35
! Measurements: S11 S21 S12 S22 
! 
 5.000000000000000E7     1.005309496753327  -6.562556020772171   1.174605928560186E-4   1.413507358014852E2   2.087444966896955E-4   6.693040776213724E1   1.003445174610139  -7.192618492942452  
 1.000000000000000E8     1.002618550059029  -1.302851237258992E1   5.838085282276031E-5   1.218708792138394E2   9.860565276488034E-5   1.042093593053641E2   1.002148201411378  -1.372166521152667E1  
 1.500000000000000E8     1.003326834926469  -1.990679101270573E1   9.927879089172227E-5   3.954022179296277E1   3.754134123525774E-5  -4.495638136047789E1   1.005052324068911  -2.041209495388003E1  
 2.000000000000000E8     1.002302810996351  -2.626695971296820E1   6.221314356609057E-5   8.324400968569063E1   5.696956505766414E-5   8.485528374492493E1   1.008154833549959  -2.737848599357769E1  
 2.500000000000000E8     1.003763085362425  -3.287572306319838E1   1.121846668262028E-4   7.609438579203851E1   1.290435405454271E-4   7.205483331403342E1   1.009504628631137  -3.423413269799034E1  
 3.000000000000000E8     1.007617311629695  -3.944252399815677E1   4.451674326822344E-5   3.665884990211723E1   5.590923841927642E-5   6.386113510022943E1   1.011686925878091  -4.104698887080356E1  
 3.500000000000000E8     1.008360067267912  -4.594674247321876E1   5.564065228010681E-5   6.696056360403289E1   1.342578900240695E-4   2.025240521265643E1   1.011866007402106  -4.797608993486774E1  
 4.000000000000000E8     1.011312510718139  -5.226646967628786E1   1.210553313757600E-4   4.748655763447950E1   1.540864855839640E-4   4.856268165179970E1   1.015545146708157  -5.488107060006307E1  
 4.500000000000000E8     1.013253440969491  -5.873647758948259E1   1.029090538240935E-4   6.768595058880145E1   1.280545069249731E-4   2.040345222818897E1   1.016679561074340  -6.172063559258377E1  
 5.000000000000000E8     1.014939939725909  -6.535777435688081E1   1.552436471857495E-4   1.017266232580193E1   1.204563189574229E-4   2.290157449314314E1   1.015752836390888  -6.872820621267577E1  
 5.500000000000000E8     1.015616274160595  -7.188773473321351E1   1.370868394374588E-4   1.229505656871281E1   1.738145402110490E-4   2.039806604728854E1   1.013005814436385  -7.576873649654998E1  
 6.000000000000000E8     1.015451619386989  -7.856815810919180E1   1.550821768153692E-4   6.218584890411241   1.796960923466503E-4   1.019326362539162E1   1.011811956462889  -8.279758364164931E1  
 6.500000000000000E8     1.015938972181999  -8.519720197631227E1   1.761919134848625E-4  -4.279389379515096   1.714751120757800E-4   3.868652251995761   1.010721813860679  -8.970934565736556E1  
 7.000000000000000E8     1.012924779141631  -9.199588908801465E1   1.728794418993525E-4   2.740978987187458   2.039871429601419E-4  -1.099701368939769E1   1.008223303430305  -9.681510066317642E1  
 7.500000000000000E8     1.011276581954989  -9.881353420116636E1   2.485340570714407E-4  -2.365355065168211E1   2.363726838234327E-4  -8.886751544558562   1.003398923202331  -1.037315298120637E2  
 8.000000000000000E8     1.005914261352080  -1.056215241391322E2   2.317302146409987E-4  -2.645336229201717E1   2.474211546330215E-4  -2.087024160353107E1   9.983055336895150E-1  -1.108274732503657E2  
 8.500000000000000E8     1.004175177592373  -1.124630659539101E2   2.265628275439683E-4  -2.520774991014088E1   2.421710087685356E-4  -2.772825152266088E1   9.958621152130928E-1  -1.177779152375586E2  
 9.000000000000000E8     9.991404988880329E-1  -1.193172208251135E2   2.743713705174178E-4  -3.876019634747787E1   2.645564926433010E-4  -2.688798122199559E1   9.936544365401819E-1  -1.247212454049571E2  
 9.500000000000000E8     9.956669070663259E-1  -1.262468096825495E2   2.878258191919759E-4  -4.216614772874871E1   2.828371947314798E-4  -4.345587632117370E1   9.924810274518122E-1  -1.316037691953659E2  
 1.000000000000000E9     9.920538155010465E-1  -1.331215678579712E2   2.950072587895349E-4  -5.006859934635465E1   2.803452058380944E-4  -4.662922178441944E1   9.916724052190519E-1  -1.384355415104436E2  
 1.050000000000000E9     9.895391115999296E-1  -1.399269240753466E2   3.207002340956856E-4  -5.461574020432445E1   3.174008366999586E-4  -5.549266945385952E1   9.914725082507100E-1  -1.452599169965052E2  
 1.100000000000000E9     9.863558590054150E-1  -1.467909063438749E2   3.142520894983819E-4  -6.575054662129783E1   3.330283582250350E-4  -6.084907506011941E1   9.895018998244693E-1  -1.520922696923870E2  
 1.150000000000000E9     9.838395906391534E-1  -1.535439294675621E2   3.494194666167736E-4  -6.652960393997607E1   3.141012155421743E-4  -7.019982612834293E1   9.890189553361645E-1  -1.589128406572404E2  
 1.200000000000000E9     9.803086261778772E-1  -1.603401428954507E2   3.387732606074101E-4  -7.484331519040717E1   3.703333696900208E-4  -7.368290978500086E1   9.883556914619096E-1  -1.657004307087599E2  
 1.250000000000000E9     9.800389939142824E-1  -1.669240634078562E2   3.662764310425965E-4  -8.456609996269050E1   3.754167519738363E-4  -8.095249179697157E1   9.890035657012396E-1  -1.724355828197416E2  
 1.300000000000000E9     9.785558648642591E-1  -1.735283805519480E2   3.629614466534127E-4  -8.732737978987085E1   3.883197476816076E-4  -8.824580918014547E1   9.899733641449872E-1  -1.791372378234457E2  
 1.350000000000000E9     9.776053372255823E-1   1.798768182277237E2   3.990910446612376E-4  -9.652692177547786E1   4.056425238276607E-4  -9.911634761194497E1   9.901072643181029E-1   1.741979987022779E2  
 1.400000000000000E9     9.775644531428315E-1   1.734142712897043E2   3.958043051082638E-4  -1.044165210215719E2   4.059309964236714E-4  -9.940104628707303E1   9.909250254548954E-1   1.674954598436904E2  
 1.450000000000000E9     9.779789113305327E-1   1.669580831469188E2   4.196542590685808E-4  -1.093816658453598E2   4.490288227264833E-4  -1.084317950986378E2   9.919416632433933E-1   1.608393175627629E2  
 1.500000000000000E9     9.793753386131527E-1   1.605835856144113E2   4.537947515511662E-4  -1.151671651647351E2   4.446379016486642E-4  -1.181752177047939E2   9.927182604134710E-1   1.542088306364059E2  
 1.550000000000000E9     9.797442443281986E-1   1.542565000167485E2   4.828873744179493E-4  -1.243181157354646E2   4.883075126133528E-4  -1.248673160614433E2   9.934604567252725E-1   1.475143565280334E2  
 1.600000000000000E9     9.812395592460602E-1   1.478928843525383E2   5.133405684849074E-4  -1.340682847463607E2   5.041851294304309E-4  -1.318364658949658E2   9.926959631080848E-1   1.408738330559847E2  
 1.650000000000000E9     9.816924535267416E-1   1.416063614004111E2   5.213385183031431E-4  -1.376858366053097E2   5.379411755009116E-4  -1.362055393995852E2   9.931101408633147E-1   1.342151433563233E2  
 1.700000000000000E9     9.836835825100210E-1   1.353277445419984E2   5.905990374424585E-4  -1.476113428941431E2   5.380794957877112E-4  -1.456901524844413E2   9.927385788570650E-1   1.275724754582246E2  
 1.750000000000000E9     9.845605004455570E-1   1.291288791452410E2   5.627166745185747E-4  -1.548811203695328E2   5.926541037301947E-4  -1.540790291548490E2   9.916736002615920E-1   1.209334657622943E2  
 1.800000000000000E9     9.840402019110287E-1   1.228504909762052E2   5.893366628062971E-4  -1.642458246876886E2   6.194562102423792E-4  -1.638798121041867E2   9.895148332340376E-1   1.142858136080401E2  
 1.850000000000000E9     9.825997343118917E-1   1.164182095209383E2   5.941431363648397E-4  -1.748936691724742E2   5.683191304087256E-4  -1.730342927656400E2   9.878984242318200E-1   1.075289286885409E2  
 1.900000000000000E9     9.818988288154760E-1   1.101286840213859E2   5.753277132470613E-4   1.770024268865853E2   5.864039075254981E-4   1.764837587302569E2   9.855287934225963E-1   1.009453728202566E2  
 1.950000000000000E9     9.813206771415323E-1   1.037419697807318E2   5.769779518780522E-4   1.716009596943735E2   5.791599861971760E-4   1.728932290543664E2   9.826407346155436E-1   9.420765166633269E1  
 2.000000000000000E9     9.795617639585301E-1   9.734483279682414E1   5.911318268652913E-4   1.676507254322982E2   6.024577851052697E-4   1.653926856583517E2   9.810637513256708E-1   8.750418114120717E1  
 2.050000000000000E9     9.777711994154690E-1   9.075404941785963E1   6.407797150591603E-4   1.583798574555132E2   6.216719957589660E-4   1.557147355735085E2   9.798004407593386E-1   8.085178143130472E1  
 2.100000000000000E9     9.759036780412141E-1   8.424031133393828E1   6.140352643377021E-4   1.486117797054922E2   6.316596104760549E-4   1.459885263636831E2   9.790881812403243E-1   7.424074318431636E1  
 2.150000000000000E9     9.742657571743233E-1   7.770340254216690E1   5.987119769458767E-4   1.460826966625392E2   6.184002733531484E-4   1.459132998170610E2   9.769315560387003E-1   6.754625184175356E1  
 2.200000000000000E9     9.727167277676102E-1   7.112707440786475E1   6.739845469257372E-4   1.407910665480646E2   6.616492504940809E-4   1.391244692208441E2   9.764409960926601E-1   6.096261392283311E1  
 2.250000000000000E9     9.709080442898017E-1   6.441825848051418E1   6.876726007035190E-4   1.283056445290785E2   6.882933180292814E-4   1.281113356683127E2   9.760423269856541E-1   5.434034651445626E1  
 2.300000000000000E9     9.697313928521540E-1   5.775262455474416E1   7.113728189722811E-4   1.217503280373351E2   6.713261372636518E-4   1.178966121926745E2   9.759249029684631E-1   4.773847530438378E1  
 2.350000000000000E9     9.696440510984986E-1   5.107987915431365E1   6.603697842978597E-4   1.105218837192985E2   6.410023125387747E-4   1.099024405676305E2   9.773438346019372E-1   4.121087904249556E1  
 2.400000000000000E9     9.705069264598220E-1   4.450164269127779E1   6.668922073170296E-4   1.060585058722786E2   6.439719161910461E-4   1.050311166364514E2   9.778768989540232E-1   3.466808583801032E1  
 2.450000000000000E9     9.701503558900713E-1   3.778158562809443E1   6.589255824015351E-4   9.366964624275296E1   6.469325155819825E-4   9.576926417779477E1   9.785436920857773E-1   2.812989387844926E1  
 2.500000000000000E9     9.737814320984984E-1   3.115594642828091E1   6.076387954449006E-4   8.488747638473843E1   6.440167750459596E-4   8.685819688053863E1   9.783731350232449E-1   2.165373908570095E1  
 2.550000000000000E9     9.749497308719294E-1   2.447675187192825E1   5.673499600404315E-4   8.419898948166504E1   5.503301494220488E-4   8.168094171858398E1   9.779618491752370E-1   1.512348323890987E1  
 2.600000000000000E9     9.787556440495929E-1   1.791687879050436E1   6.096910233127361E-4   7.607601158259122E1   5.919652709691898E-4   7.717506013491365E1   9.763738280525359E-1   8.670626810955518  
 2.650000000000000E9     9.809664688901713E-1   1.140726437950774E1   5.552984764747479E-4   7.558462567707178E1   5.947872696693868E-4   7.331057441134173E1   9.755084036711430E-1   2.042313660302797  
 2.700000000000000E9     9.838204605495310E-1   4.825994709207975   5.875509395180896E-4   7.085347930514806E1   6.140770174315283E-4   6.739745869423491E1   9.745905391040172E-1  -4.489875792931102  
 2.750000000000000E9     9.871019726671134E-1  -1.623761865510035   5.941936226855515E-4   7.030507639352925E1   6.299376021457781E-4   6.830845121994139E1   9.739315184590190E-1  -1.101018016082740E1  
 2.800000000000000E9     9.909262501720220E-1  -8.196586109698249   5.949338034173078E-4   6.157991321590829E1   6.984557553120559E-4   6.272349059030979E1   9.728899570156820E-1  -1.767152273864978E1  
 2.850000000000000E9     9.944496792563138E-1  -1.465751447652518E1   7.281230019344888E-4   5.613561041376376E1   6.913181975306656E-4   5.607517063411322E1   9.733885073749578E-1  -2.422194313337712E1  
 2.900000000000000E9     9.954608156487860E-1  -2.119143925871220E1   7.383253421377561E-4   4.895012514557372E1   7.551695881640461E-4   4.523500649640793E1   9.731003175256749E-1  -3.076281503101016E1  
 2.950000000000000E9     9.977998896965652E-1  -2.774832640435610E1   7.986537482557245E-4   4.229000859809150E1   7.944914159375400E-4   3.732209344017741E1   9.731527076230152E-1  -3.736484636429083E1  
 3.000000000000000E9     9.981875817390946E-1  -3.437737457289065E1   7.960764938785318E-4   3.180655775410860E1   7.822463705461438E-4   2.938598696755739E1   9.726310616917094E-1  -4.399805219119975E1  
 3.050000000000000E9     9.993509997829621E-1  -4.092437806830242E1   7.487961796763622E-4   2.025137857458359E1   8.249491069059409E-4   2.123072889450240E1   9.734426773105658E-1  -5.070844932651369E1  
 3.100000000000000E9     9.996946952974067E-1  -4.752578612212467E1   7.863088953719579E-4   1.580125822515568E1   8.036697842425608E-4   1.368229402560211E1   9.735008116997111E-1  -5.734592415179594E1  
 3.150000000000000E9     9.999623277747402E-1  -5.425540127761047E1   7.428235637498482E-4   4.288272734584955   7.846373435395854E-4   3.845696201973017   9.735637264354788E-1  -6.404397045842268E1  
 3.200000000000000E9     9.996105201293212E-1  -6.087227973087414E1   7.812982159720876E-4  -3.819153906764004   7.768374453008906E-4  -9.214003756196072E-1   9.740910582285048E-1  -7.077397397580724E1  
 3.250000000000000E9     9.974776697481208E-1  -6.770600483118706E1   8.250473617872377E-4  -4.366671974362807   8.146042328679651E-4  -4.228292394331230   9.752986223907844E-1  -7.759048205297211E1  
 3.300000000000000E9     9.974903042050380E-1  -7.448258718364389E1   7.743577703829217E-4  -1.594397267554596E1   7.867807060516043E-4  -1.328034513208110E1   9.758163211789200E-1  -8.437860595870302E1  
 3.350000000000000E9     9.959114383577347E-1  -8.133532265390120E1   8.059352464382215E-4  -2.092597211801804E1   8.038883019094000E-4  -2.198173313599956E1   9.757070836252657E-1  -9.122781584853956E1  
 3.400000000000000E9     9.942771238807773E-1  -8.824743685550921E1   8.147275968353066E-4  -2.820244459087628E1   8.585571078056975E-4  -2.996302281956888E1   9.765323638737893E-1  -9.808345439683851E1  
 3.450000000000000E9     9.924351995362172E-1  -9.512834492116507E1   7.522825045987160E-4  -3.900156238664528E1   7.738550644260790E-4  -3.909379826193697E1   9.789282121264775E-1  -1.050763489105524E2  
 3.500000000000000E9     9.902043326767371E-1  -1.020920625918348E2   7.832492680191423E-4  -4.296613234051326E1   7.398222723415916E-4  -4.155959165517070E1   9.804625308694792E-1  -1.120141237788093E2  
 3.550000000000000E9     9.901075310765345E-1  -1.091594640059109E2   7.361732356431520E-4  -4.737823405714883E1   7.243599237904533E-4  -4.920501799215025E1   9.800019336635364E-1  -1.189395957728837E2  
 3.600000000000000E9     9.882616274027588E-1  -1.159735785192651E2   7.294233745665710E-4  -4.915484995161651E1   7.917719455126204E-4  -5.280198674483289E1   9.801343525388727E-1  -1.260959113887813E2  
 3.650000000000000E9     9.879704819156568E-1  -1.230331865199064E2   7.403730714697157E-4  -5.982308366486260E1   7.840854514466401E-4  -5.831217865467923E1   9.831666320386959E-1  -1.330110728806341E2  
 3.700000000000000E9     9.868948426065136E-1  -1.299964219152369E2   8.366135212151739E-4  -6.122992902931255E1   8.359615467179352E-4  -6.440445784538376E1   9.849183990749337E-1  -1.400219708812029E2  
 3.750000000000000E9     9.854767467753574E-1  -1.370073451900435E2   8.435815678688009E-4  -7.045621615498155E1   8.793754541273560E-4  -7.189088401000748E1   9.884284789373787E-1  -1.469289379715201E2  
 3.800000000000000E9     9.853909149019956E-1  -1.439787024453452E2   8.578137045554498E-4  -7.712433820387837E1   8.679546184248029E-4  -7.920287418190169E1   9.870520553675809E-1  -1.539995548074784E2  
 3.850000000000000E9     9.850692023076583E-1  -1.508786300474599E2   8.886620573111495E-4  -8.406344704158541E1   8.638436629622028E-4  -8.019113942979787E1   9.900270122090217E-1  -1.611198242114917E2  
 3.900000000000000E9     9.850248629433410E-1  -1.579078998577777E2   8.737113340763361E-4  -9.210888231028504E1   8.865339855489558E-4  -9.296187556444160E1   9.905457045378104E-1  -1.681048049022238E2  
 3.950000000000000E9     9.872695932778919E-1  -1.647514559713720E2   8.789113115459324E-4  -9.993633708489968E1   9.219242518383123E-4  -1.018724394483291E2   9.915119577630294E-1  -1.752198537426550E2  
 4.000000000000000E9     9.883932712202288E-1  -1.715547323335004E2   9.244254367549021E-4  -1.057915155891733E2   8.736448462909148E-4  -1.054040727290946E2   9.926936102422712E-1   1.776358252063276E2  
 4.050000000000000E9     9.914683730002456E-1  -1.783343989191655E2   8.718164509800873E-4  -1.145253294950368E2   9.124347736921045E-4  -1.151009633998990E2   9.928895779966053E-1   1.706605068339079E2  
 4.100000000000000E9     9.935727695564938E-1   1.749063853508668E2   9.000477968089669E-4  -1.219569090580487E2   8.935278743702960E-4  -1.218735872578042E2   9.928416624670114E-1   1.636142226721027E2  
 4.150000000000000E9     9.953177917283937E-1   1.682465293262974E2   8.880897671100371E-4  -1.282533805144430E2   8.974342419529188E-4  -1.312117942418180E2   9.921396320656762E-1   1.564549833644454E2  
 4.200000000000000E9     9.981809679693255E-1   1.616044799775830E2   8.715939095978202E-4  -1.340601189813153E2   8.703652639840447E-4  -1.352016265013813E2   9.922088506895860E-1   1.493762005836539E2  
 4.250000000000000E9     9.993348282886938E-1   1.549219097642956E2   8.733167659100575E-4  -1.407375916142447E2   8.522615058680298E-4  -1.420530314035743E2   9.920489479222806E-1   1.422314676455149E2  
 4.300000000000000E9     1.001573244984094   1.483131642811532E2   8.655252291270563E-4  -1.496767350612476E2   8.827653985347936E-4  -1.474715270634368E2   9.933332736384579E-1   1.351491738685036E2  
 4.350000000000000E9     1.001510911615910   1.416060821051643E2   8.562026756826544E-4  -1.531048032161388E2   8.483410268645778E-4  -1.542848106369304E2   9.948556837156947E-1   1.280643284413066E2  
 4.400000000000000E9     1.002697245443573   1.349567461977530E2   8.451198096318281E-4  -1.605869851300663E2   8.409211080474239E-4  -1.593680878438586E2   9.958686696869152E-1   1.209674175391173E2  
 4.450000000000000E9     1.003211294352044   1.283620986359615E2   8.288599740085867E-4  -1.644147040983156E2   8.902918553380530E-4  -1.622084450218062E2   9.971617107632430E-1   1.140156628834092E2  
 4.500000000000000E9     1.002511876833991   1.217085167203671E2   9.321726749687390E-4  -1.699051186109869E2   8.748785333305234E-4  -1.699567638282243E2   9.973159691458049E-1   1.069854534955524E2  
 4.550000000000000E9     1.002732205849520   1.150704101072236E2   9.029530502269072E-4  -1.794147424844899E2   9.027665906319313E-4  -1.775597091602241E2   9.983863553471881E-1   9.991909359857255E1  
 4.600000000000000E9     1.001651664761366   1.085058032782395E2   8.907473318681185E-4   1.754961442055129E2   8.973109387989071E-4   1.748901480879470E2   9.986075884739016E-1   9.298425220782647E1  
 4.650000000000000E9     1.001809390264437   1.019126689402217E2   9.194766661867214E-4   1.672778526809618E2   9.309533614433254E-4   1.685927181174305E2   9.997819371923391E-1   8.591232845991236E1  
 4.700000000000000E9     1.000893001325540   9.534481572440940E1   9.313641206717814E-4   1.632498354321990E2   9.304541946742048E-4   1.624799021505474E2   1.001600507714265   7.915226955881846E1  
 4.750000000000000E9     1.001659868807108   8.873959885811586E1   8.969410719090122E-4   1.576567861193416E2   9.223322071291119E-4   1.561197791912024E2   1.001798683969492   7.224400289675469E1  
 4.800000000000000E9     1.002836946567139   8.221866033695972E1   9.357728142760143E-4   1.484462996085801E2   9.309126535731538E-4   1.498470371700336E2   1.000316355959457   6.547930743802347E1  
 4.850000000000000E9     1.003856850907777   7.569940021492664E1   9.686083002929091E-4   1.423926620955013E2   9.584608135812286E-4   1.443605663192477E2   9.986737221065997E-1   5.848904644326282E1  
