#  HZ   S   MA   R     50.00 
! Rohde & Schwarz ZVA67 4Ports - Version 4.11 - 1305.7002k04 SN: 101051
! Date: 2023-05-31 11:08:44
! Measurements: S11 S21 S12 S22 
! 
 5.000000000000000E7     1.002451228055656  -6.610475293328842   2.105524012353705E-4  -2.385194383325452E1   8.131546190023699E-5   6.543272150570994E1   9.986315841488557E-1  -6.972617966025582  
 1.000000000000000E8     1.000668864091428  -1.321324614418448E1   9.528023931353333E-5   1.227487371165340E2   7.562024266463933E-5   6.473839209725443E1   1.004049713689962  -1.374326592999626E1  
 1.500000000000000E8     1.002674544709020  -1.977796333050014E1   1.137938042268927E-4   5.424205168878893E1   5.060984999753907E-5  -1.940603710116154E1   1.008396123005248  -2.041888186048188E1  
 2.000000000000000E8     1.003571064284389  -2.633502564271219E1   1.215115522626867E-4   3.288630940121595E1   9.551457120290610E-5   2.552984621098691E1   1.009446650470006  -2.724848229975437E1  
 2.500000000000000E8     1.002585370899017  -3.283354609426588E1   1.009004648080057E-4   4.480917366494237E1   3.361733401660519E-5   1.168946124006243E2   1.009969664710972  -3.420126692366132E1  
 3.000000000000000E8     1.007293458610296  -3.937363154690743E1   6.010441295732209E-5   2.312329016815767E1   5.447804866843116E-5   3.176905017702983E1   1.012281301852538  -4.104093952742471E1  
 3.500000000000000E8     1.008147632101274  -4.590922511513217E1   1.288152963484846E-4   1.939291415094491E1   6.225291087289022E-5   3.913370130782419E1   1.011524669878690  -4.799415899332666E1  
 4.000000000000000E8     1.011553523831983  -5.231608103885669E1   1.339627395392640E-4   3.980484075019194E1   9.087340992769682E-5   4.329631817070576E1   1.015927902816137  -5.487785339270868E1  
 4.500000000000000E8     1.012385291024345  -5.878291910969583E1   1.492088051709779E-4   2.879424922593124E1   1.632116452627409E-4  -7.189038785276505E-1   1.016366865986368  -6.174507107131039E1  
 5.000000000000000E8     1.014308575750721  -6.535380863796216E1   1.500757207703116E-4   2.610991947936804E1   1.481286607262465E-4   2.699186747253537E1   1.015339481960454  -6.873115888530185E1  
 5.500000000000000E8     1.014801103661550  -7.188354180594841E1   1.525568326929529E-4   1.164265685902183E1   1.803773950530779E-4   7.390635066563542E-1   1.013592676906101  -7.575803976160222E1  
 6.000000000000000E8     1.015198185216898  -7.858392886373474E1   1.739206009076753E-4  -3.077344448715962   2.118881855772895E-4   1.713432109180105E1   1.011948323882676  -8.278924907480904E1  
 6.500000000000000E8     1.016818949732322  -8.519480635527674E1   1.704715559908619E-4   1.345732310035721   1.655166822165142E-4  -4.281341893601253   1.010556907361220  -8.969928487685426E1  
 7.000000000000000E8     1.012982545239771  -9.196374114679009E1   2.006538564831915E-4  -5.771806882729350   2.214118734396739E-4  -6.077888625332473   1.008646875043646  -9.681247919851573E1  
 7.500000000000000E8     1.011308436686977  -9.882516626492151E1   2.261744367176966E-4  -5.631169407221180   1.918622910853327E-4  -1.016609042971902E1   1.003089638958338  -1.037717947800985E2  
 8.000000000000000E8     1.005990966317061  -1.056168887325305E2   2.412738036734239E-4  -2.049852146789004E1   2.231598126012928E-4  -2.278153677468645E1   9.984088064933806E-1  -1.108235517896643E2  
 8.500000000000000E8     1.004420170471983  -1.124783171913658E2   2.849942270693695E-4  -2.929020111703420E1   2.293396522673013E-4  -1.938837592280726E1   9.959928285053614E-1  -1.177964005497774E2  
 9.000000000000000E8     9.993801368691030E-1  -1.193163660753768E2   2.571711450219492E-4  -3.595282795625947E1   2.776847352004336E-4  -3.860031259830479E1   9.933087050611338E-1  -1.247377354803650E2  
 9.500000000000000E8     9.960436972409614E-1  -1.262333607916443E2   2.646703656013727E-4  -3.264075321334192E1   2.669704789434951E-4  -4.110440836706661E1   9.919291442933578E-1  -1.316084693847695E2  
 1.000000000000000E9     9.920001764221139E-1  -1.331388759738922E2   3.133774588778004E-4  -4.860964790437086E1   2.980716766916310E-4  -4.743227525218796E1   9.918700520004504E-1  -1.384482366105487E2  
 1.050000000000000E9     9.897510762855737E-1  -1.399279356323593E2   3.106347155258188E-4  -5.985304840865173E1   3.074265400620259E-4  -5.689790636820729E1   9.911353868831754E-1  -1.452611913731901E2  
 1.100000000000000E9     9.864861612228600E-1  -1.467896291369064E2   3.296358501568385E-4  -5.975710966575287E1   3.292977603031233E-4  -5.953505587381691E1   9.896319892618667E-1  -1.520663745137884E2  
 1.150000000000000E9     9.836955242428287E-1  -1.535353114557966E2   3.482777996496331E-4  -7.162370942743507E1   3.651870745508211E-4  -7.109318040211804E1   9.884619628648673E-1  -1.589019346238657E2  
 1.200000000000000E9     9.809176852298827E-1  -1.603452384670976E2   3.480727636299720E-4  -7.539221333009354E1   3.619701180198459E-4  -7.463958582135986E1   9.884732859892346E-1  -1.657093468127739E2  
 1.250000000000000E9     9.798962061268354E-1  -1.669423683861681E2   3.754935313025802E-4  -8.223606297931133E1   3.600333636620724E-4  -8.585881256375063E1   9.888576530527888E-1  -1.724218142233902E2  
 1.300000000000000E9     9.787940447554075E-1  -1.735251763975269E2   3.865216610798409E-4  -9.055459306064977E1   3.896280456750235E-4  -9.503548363851705E1   9.899053671584589E-1  -1.791278200053432E2  
 1.350000000000000E9     9.779317069695560E-1   1.798775300524563E2   4.059839230672185E-4  -9.472776902996989E1   3.869977457961415E-4  -9.791460463716047E1   9.904680950981659E-1   1.742094795565344E2  
 1.400000000000000E9     9.777487560838181E-1   1.733948185763253E2   3.999062198665724E-4  -9.873508716240511E1   4.237908186374743E-4  -1.026086081575397E2   9.907451324989461E-1   1.674979517621902E2  
 1.450000000000000E9     9.780844976137135E-1   1.669708116300308E2   4.086681303432634E-4  -1.131484290009051E2   4.231717481793339E-4  -1.089803678625080E2   9.920078202741347E-1   1.608424073467878E2  
 1.500000000000000E9     9.795909683678251E-1   1.605737624050129E2   4.532887100300785E-4  -1.135864327929715E2   4.278031619060511E-4  -1.207557002599046E2   9.930215501983719E-1   1.541708174668245E2  
 1.550000000000000E9     9.801905053799265E-1   1.542242167147659E2   4.920839306446723E-4  -1.201621613809482E2   4.716164258268803E-4  -1.262868534482175E2   9.934601798366570E-1   1.475065867574606E2  
 1.600000000000000E9     9.809553586221781E-1   1.479134761503630E2   5.179460958339535E-4  -1.298503994276848E2   4.700360330250735E-4  -1.347905036376695E2   9.927463952614460E-1   1.408663957735767E2  
 1.650000000000000E9     9.820693149509082E-1   1.416032456424013E2   4.960648866070827E-4  -1.360833719155989E2   5.334635850845965E-4  -1.358863670833660E2   9.931519189173766E-1   1.342154706118552E2  
 1.700000000000000E9     9.836929869752445E-1   1.353429004788105E2   5.722446939730318E-4  -1.453534121734877E2   5.246414760148592E-4  -1.441844493128207E2   9.927635973417628E-1   1.275804838534334E2  
 1.750000000000000E9     9.843203345097239E-1   1.291415902808205E2   5.867459447550347E-4  -1.553264425767785E2   5.471071696941301E-4  -1.495664557866838E2   9.917019079642833E-1   1.209320882022385E2  
 1.800000000000000E9     9.839855219683974E-1   1.228378609032273E2   5.952234974879967E-4  -1.671733068292821E2   6.237954301647854E-4  -1.652869970368446E2   9.898641310195246E-1   1.142853660220397E2  
 1.850000000000000E9     9.829149494572450E-1   1.164330521672033E2   6.089911777980664E-4  -1.760789778429653E2   6.141349317574249E-4  -1.763297421984759E2   9.876168184094464E-1   1.075405875439156E2  
 1.900000000000000E9     9.818066961884998E-1   1.101264165378242E2   5.940616191431906E-4   1.768834027821108E2   6.040297122469162E-4   1.794721101715106E2   9.857735039004498E-1   1.009480888255973E2  
 1.950000000000000E9     9.814641599800053E-1   1.037373745280625E2   5.855017459933723E-4   1.725235319089645E2   6.333082605891185E-4   1.741368513731774E2   9.826779147957913E-1   9.417790035641863E1  
 2.000000000000000E9     9.798211367612334E-1   9.734526485558963E1   6.004618384095286E-4   1.674536154384760E2   6.195873071218232E-4   1.640072316781813E2   9.812590071013627E-1   8.751284846154211E1  
 2.050000000000000E9     9.779646715635727E-1   9.077360223593124E1   6.174247431633740E-4   1.584590321467595E2   6.215744008745402E-4   1.568306204530178E2   9.800003843054576E-1   8.083737412132193E1  
 2.100000000000000E9     9.759595875378282E-1   8.423479540994929E1   6.291981247836532E-4   1.475869473794341E2   6.642619159359474E-4   1.492913927959039E2   9.794219589398379E-1   7.422766144172401E1  
 2.150000000000000E9     9.743792019124891E-1   7.770701337309251E1   6.255203958729481E-4   1.457323282831270E2   6.093684321641404E-4   1.479968787318068E2   9.767123063857739E-1   6.753778098713008E1  
 2.200000000000000E9     9.725147512348281E-1   7.115597747935263E1   6.383327305215057E-4   1.400031736839699E2   6.694046749975002E-4   1.384754340663689E2   9.768030324491295E-1   6.095502657509557E1  
 2.250000000000000E9     9.709685254335443E-1   6.443980168236853E1   6.880356628592500E-4   1.283784170186843E2   6.447708864167663E-4   1.303682532299414E2   9.757050781671101E-1   5.431853489594335E1  
 2.300000000000000E9     9.699205311292793E-1   5.775566840025741E1   7.069947790877245E-4   1.172376177930944E2   6.910932487120562E-4   1.193916248733031E2   9.761080300558361E-1   4.773842430540877E1  
 2.350000000000000E9     9.694580266453439E-1   5.104469120455877E1   6.665855616471796E-4   1.077553239444790E2   6.647170503697230E-4   1.080414782121756E2   9.769696882896725E-1   4.121937164232598E1  
 2.400000000000000E9     9.705865812583921E-1   4.451678641302242E1   6.070940682466616E-4   1.015016648816348E2   6.509568898304893E-4   1.054148368604445E2   9.777528841970694E-1   3.464704791906036E1  
 2.450000000000000E9     9.708686928464132E-1   3.773874509334058E1   6.735684358133524E-4   9.649069021832189E1   6.870738891996879E-4   9.707182458923589E1   9.779964039163440E-1   2.809339239986540E1  
 2.500000000000000E9     9.735864876431273E-1   3.116595304419838E1   6.280699173822355E-4   8.753392893136861E1   6.206549534689136E-4   8.576479825697447E1   9.780348934851629E-1   2.166185411083262E1  
 2.550000000000000E9     9.746861772548360E-1   2.447723122575029E1   6.010044294425886E-4   7.986304268901269E1   6.031343556179151E-4   8.221025015317032E1   9.783407690924255E-1   1.512139649175114E1  
 2.600000000000000E9     9.791736795765603E-1   1.793663285908220E1   5.990501995743872E-4   8.118112517476061E1   6.013919667318655E-4   8.183455907674207E1   9.773989521016239E-1   8.665228750400539  
 2.650000000000000E9     9.820825686583252E-1   1.137709213291387E1   5.867566714979703E-4   7.494365396330981E1   5.563710615435299E-4   7.414160637402713E1   9.756442217099146E-1   2.079997351403533  
 2.700000000000000E9     9.838518266845024E-1   4.776868210375432   5.719910757049324E-4   7.069374061433786E1   5.749495962076824E-4   7.109498991384569E1   9.748869751222914E-1  -4.486388901560484  
 2.750000000000000E9     9.871359841834627E-1  -1.624419733252932   6.218774582407613E-4   7.177410583464004E1   6.085900191545165E-4   6.801437073658154E1   9.741295523874207E-1  -1.103213684527214E1  
 2.800000000000000E9     9.912580259185402E-1  -8.232523780373677   6.738486196169214E-4   6.551567527716091E1   6.823085351532893E-4   6.587328275942672E1   9.725595102858569E-1  -1.764849601292597E1  
 2.850000000000000E9     9.943027740011299E-1  -1.464486603917539E1   7.030359177706160E-4   5.650830998467381E1   7.093417174373604E-4   5.226045500248196E1   9.726859587985738E-1  -2.421391359362100E1  
 2.900000000000000E9     9.954586626250391E-1  -2.119464985969518E1   7.512681683342496E-4   4.873266968915046E1   6.955173475273967E-4   4.803156200171121E1   9.733640364208606E-1  -3.074837205271869E1  
 2.950000000000000E9     9.987006347165005E-1  -2.773021028557633E1   7.818273077994095E-4   3.985997062272961E1   7.875658633199558E-4   3.939916911867894E1   9.735126245230924E-1  -3.732797109766693E1  
 3.000000000000000E9     9.976089226908742E-1  -3.431761328260878E1   8.046809974303932E-4   2.973783056828392E1   8.333947765474428E-4   3.081721739984226E1   9.727595544030302E-1  -4.398350349063080E1  
 3.050000000000000E9     9.994825709005767E-1  -4.092887336894027E1   8.310180911895231E-4   1.941556008081979E1   8.164883730969662E-4   2.011794635569763E1   9.735863761055610E-1  -5.071033349947064E1  
 3.100000000000000E9     9.996830370212765E-1  -4.757951699565431E1   7.497480658255705E-4   1.209624413724059E1   7.608551709551265E-4   1.321804655746325E1   9.732489312471151E-1  -5.733873823735162E1  
 3.150000000000000E9     9.994745570625033E-1  -5.425138263131544E1   7.549200024194930E-4   7.954265577386688   7.868089127183199E-4   8.257917300934754   9.735826820156878E-1  -6.402911614070416E1  
 3.200000000000000E9     9.997213311369781E-1  -6.089657115206313E1   8.104129085687814E-4  -2.492626259521063E-1   8.089967989001383E-4  -2.595514225022458   9.740011794866491E-1  -7.078827702580649E1  
 3.250000000000000E9     9.981275899367470E-1  -6.767596513634314E1   8.332220572503695E-4  -8.767770996334535   7.451017031852513E-4  -8.550290238741514   9.746904102363135E-1  -7.761299738992091E1  
 3.300000000000000E9     9.972435880303947E-1  -7.447999315553216E1   8.092717228761092E-4  -1.401407050040902E1   7.981047991106613E-4  -1.453092070073773E1   9.760019709871454E-1  -8.439514389021170E1  
 3.350000000000000E9     9.959847172650859E-1  -8.132535060607835E1   8.016653056527303E-4  -2.036356709187778E1   7.953615225056569E-4  -2.305245028742966E1   9.751742418685109E-1  -9.122788960394369E1  
 3.400000000000000E9     9.937255419560456E-1  -8.827503662948183E1   7.997309933607648E-4  -2.981418816725165E1   8.231031646192925E-4  -3.019800372494702E1   9.764875229772465E-1  -9.812602687902013E1  
 3.450000000000000E9     9.922130931292968E-1  -9.512131630056150E1   7.634623918745105E-4  -3.770875296650620E1   8.448139374310772E-4  -3.659182607101779E1   9.778375017836620E-1  -1.050317567732219E2  
 3.500000000000000E9     9.897812313467789E-1  -1.021247142903295E2   7.412037061036319E-4  -4.424024493072700E1   7.569192344200690E-4  -4.077266389982052E1   9.792554394442079E-1  -1.120141878175600E2  
 3.550000000000000E9     9.897938970598268E-1  -1.091206500334462E2   7.392524975650440E-4  -4.812683856220545E1   7.182872256661637E-4  -4.713437161608267E1   9.799601493907163E-1  -1.189858022953272E2  
 3.600000000000000E9     9.890477472593827E-1  -1.159725754182402E2   7.789946089540346E-4  -5.060144950639842E1   7.572595316979873E-4  -4.992129953398589E1   9.800208817295696E-1  -1.260943008988548E2  
 3.650000000000000E9     9.878358593224589E-1  -1.230264412436192E2   8.104811319028289E-4  -5.304103930262256E1   8.237401602992367E-4  -5.767556082318912E1   9.828392879357628E-1  -1.330067642493427E2  
 3.700000000000000E9     9.868890126861925E-1  -1.300061608282727E2   8.015805051454248E-4  -6.268782179404329E1   8.098772614971286E-4  -6.575564475228332E1   9.850377001235465E-1  -1.400406085581905E2  
 3.750000000000000E9     9.854422437295053E-1  -1.369481881350383E2   8.856097079929421E-4  -6.750438949351501E1   8.592939485375976E-4  -7.251559242609952E1   9.879824769695486E-1  -1.469311895755332E2  
 3.800000000000000E9     9.859618292776171E-1  -1.439673310085290E2   8.559430273764281E-4  -7.818496831562720E1   8.017387100809642E-4  -7.777962447684070E1   9.869999461802215E-1  -1.540013920600934E2  
 3.850000000000000E9     9.856477690989274E-1  -1.508826691077027E2   8.791036550195515E-4  -8.262249921149505E1   8.463106268481878E-4  -8.622869132289561E1   9.900901950153845E-1  -1.611104461920150E2  
 3.900000000000000E9     9.855106470303864E-1  -1.578732931712796E2   8.759505122931481E-4  -8.937994466364052E1   8.519732965610216E-4  -9.097490704750216E1   9.904402536890883E-1  -1.681002921524813E2  
 3.950000000000000E9     9.875186769709098E-1  -1.647504329189199E2   8.590843049866459E-4  -9.856216738157430E1   8.916697839844269E-4  -9.842920356082925E1   9.917891861014963E-1  -1.752509060401066E2  
 4.000000000000000E9     9.886935699273838E-1  -1.715859633982922E2   8.862072149279065E-4  -1.052148171944618E2   9.049078833004943E-4  -1.053027321396693E2   9.927564485302772E-1   1.776120647834175E2  
 4.050000000000000E9     9.912034406871477E-1  -1.783269417120968E2   9.243274981988338E-4  -1.148515264801358E2   8.924493581940753E-4  -1.148028104665671E2   9.929467377077664E-1   1.706833116628479E2  
 4.100000000000000E9     9.931905408319655E-1   1.749453956360752E2   8.781730993673338E-4  -1.215737258473243E2   8.901913638283704E-4  -1.229212599665256E2   9.928340764218925E-1   1.636024859647680E2  
 4.150000000000000E9     9.952238076708819E-1   1.682416742170484E2   8.977013309128677E-4  -1.300775080404622E2   9.145383290187189E-4  -1.289243842419903E2   9.928940517328116E-1   1.564524493472617E2  
 4.200000000000000E9     9.982927595953853E-1   1.615624040256546E2   8.856700482135183E-4  -1.377325928266193E2   8.914640532551912E-4  -1.356430728259175E2   9.922651347986754E-1   1.493733049646205E2  
 4.250000000000000E9     9.991233451917836E-1   1.549244632283234E2   8.735030513009663E-4  -1.434097574932793E2   8.756180430304602E-4  -1.408848393582171E2   9.922069485785394E-1   1.422461855996641E2  
 4.300000000000000E9     1.001143517327704   1.483114362881114E2   8.628869231853853E-4  -1.498549327892377E2   8.795018385225936E-4  -1.478360299967568E2   9.933220131079126E-1   1.351471310218620E2  
 4.350000000000000E9     1.001390739374746   1.415833554725626E2   8.930365281414113E-4  -1.564945723514618E2   8.629201973594893E-4  -1.550240207193356E2   9.943733318618520E-1   1.280500804103796E2  
 4.400000000000000E9     1.002989523135911   1.349575701767139E2   8.462342751311530E-4  -1.594811908816454E2   8.273182131997371E-4  -1.592831785775770E2   9.959809260673803E-1   1.210003936451913E2  
 4.450000000000000E9     1.003255676443793   1.283602878021265E2   8.827388833128086E-4  -1.634010676271872E2   8.601886389092304E-4  -1.654313531710652E2   9.967106483899887E-1   1.140217281411224E2  
 4.500000000000000E9     1.002984301999953   1.217204209622610E2   9.025820692212203E-4  -1.726091601068176E2   8.993575793746832E-4  -1.710531117943997E2   9.974863204706802E-1   1.069929215479080E2  
 4.550000000000000E9     1.002838839506696   1.150515530168299E2   9.221624751726118E-4  -1.785165575977225E2   9.044041514924909E-4  -1.777840594743013E2   9.984770345913347E-1   9.990883490733175E1  
 4.600000000000000E9     1.001579668072301   1.084941929754986E2   9.022872758575441E-4   1.713473612943702E2   9.062854358016866E-4   1.747229424741095E2   9.988875368325125E-1   9.298342364292158E1  
 4.650000000000000E9     1.001909149981891   1.019158826471494E2   9.137723997728578E-4   1.685587207999162E2   9.125634067075189E-4   1.685982260596563E2   9.999768666474175E-1   8.590557609316251E1  
 4.700000000000000E9     1.001080054977682   9.535789596272925E1   9.027140170004478E-4   1.640334165095414E2   9.296669282689349E-4   1.605628419865872E2   1.001942346092323   7.914818421888059E1  
 4.750000000000000E9     1.001696032394581   8.874572399723306E1   9.118183538389825E-4   1.552115161544197E2   9.103033997038194E-4   1.568922480677919E2   1.001811454824725   7.223778833132772E1  
 4.800000000000000E9     1.003202201627639   8.220656237054750E1   8.998379213761307E-4   1.509676592328102E2   9.214355165256275E-4   1.514531323860353E2   9.993504714252568E-1   6.547475737319688E1  
 4.850000000000000E9     1.003583986904717   7.571870053867943E1   9.399396736644817E-4   1.461724945183773E2   9.180467915209429E-4   1.427907828948382E2   9.983260671529884E-1   5.847608708903879E1  
