#  HZ   S   MA   R     50.00 
! Rohde & Schwarz ZVA67 4Ports - Version 4.11 - 1305.7002k04 SN: 101051
! Date: 2023-05-31 11:08:26
! Measurements: S11 S21 S12 S22 
! 
 5.000000000000000E7     1.001156838204076  -6.487374065759748   2.104776261749302E-4   1.419778559874774E2   1.108770877924836E-4   5.381461434755518E1   1.002461962872502  -6.808515034717400  
 1.000000000000000E8     1.000296492095597  -1.314161542544604E1   1.735960955559187E-4   3.449313116357227E1   1.078648468225501E-4   7.170456853050955E1   1.003626485642223  -1.391169154901008E1  
 1.500000000000000E8     1.004453554320887  -1.982784273372032E1   1.042292421165885E-4  -7.845791264612399   1.335294790311589E-5   1.379206822351222E2   1.007201582739257  -2.040016684620453E1  
 2.000000000000000E8     1.003955553589688  -2.632465042742829E1   5.684817831306789E-5   1.364613021830919E2   8.421436844684049E-5   8.891488715226262E1   1.008965050621240  -2.730848497713607E1  
 2.500000000000000E8     1.004005345370809  -3.293195515395770E1   1.083767453377739E-4   4.989759404619173E1   1.090397137203690E-4   5.924892427590543E1   1.010843382905369  -3.413284216218568E1  
 3.000000000000000E8     1.006180925700291  -3.940402936306077E1   3.964117771642241E-5   6.493031320090476E1   1.438486642416294E-4   1.434947882405226E1   1.011850145331860  -4.111017282802757E1  
 3.500000000000000E8     1.007945033565355  -4.591743723836763E1   1.199716331092777E-4   5.424051864519287E1   1.005306163714660E-4   5.011148996133079E1   1.012668133613550  -4.801011464724363E1  
 4.000000000000000E8     1.012032672171906  -5.226295478575315E1   1.008771828322878E-4   4.281955267347250E1   1.159180032885829E-4   1.394859087299120E1   1.015324402178762  -5.489399594595816E1  
 4.500000000000000E8     1.011537065522456  -5.878696703448539E1   1.228307547717274E-4   3.136995954145196E1   1.974029002387125E-4   4.307660331568437E1   1.015409188652262  -6.177575505216569E1  
 5.000000000000000E8     1.014562139217460  -6.537964692043200E1   1.535700722649165E-4   2.710053319373274E1   1.252621032216366E-4   2.661752928191403E1   1.015017155454981  -6.873053200134962E1  
 5.500000000000000E8     1.015466224385538  -7.188419411155995E1   1.610144311963740E-4   1.910216267680085E1   1.731871648018423E-4   2.272306141647393E1   1.012820178432825  -7.575395658357407E1  
 6.000000000000000E8     1.015208766080392  -7.856341654409347E1   1.739072531854358E-4   1.028318787435599E1   1.835850096968744E-4  -2.044190558914732E-2   1.012164417747567  -8.281837153414824E1  
 6.500000000000000E8     1.016239092727738  -8.520823188999664E1   2.055333309984613E-4  -1.125240162067364E1   1.663195228166694E-4   2.075717677511781   1.010656715140883  -8.973306898223139E1  
 7.000000000000000E8     1.012756703772916  -9.197778602398240E1   2.178467882734568E-4  -1.059025963478683E1   1.986472966884583E-4  -1.338736125594098E1   1.008331252844627  -9.684126003955218E1  
 7.500000000000000E8     1.011613613450805  -9.878832972922960E1   1.952361814767861E-4  -5.903880185996806   2.187290249175227E-4  -1.568621543548880E1   1.003486486638004  -1.037650682411637E2  
 8.000000000000000E8     1.006404176381080  -1.056130385027456E2   2.500017737358171E-4  -1.999117191594210E1   2.521645683453241E-4  -2.308458634895774E1   9.981310982329079E-1  -1.108297796782635E2  
 8.500000000000000E8     1.003416875456070  -1.124557703062764E2   2.516816892955415E-4  -2.222890291903953E1   2.595470363874519E-4  -2.963334210047874E1   9.954087179487874E-1  -1.177858710017504E2  
 9.000000000000000E8     9.995979435747088E-1  -1.193028559125800E2   2.634949059042000E-4  -3.482095378126265E1   2.916082807120379E-4  -3.694466604361843E1   9.934622570950368E-1  -1.247269898839693E2  
 9.500000000000000E8     9.954368099618872E-1  -1.262668039309049E2   2.729242042748970E-4  -3.999160735354152E1   2.913249084831188E-4  -4.035068520631160E1   9.920270699087443E-1  -1.315924444300689E2  
 1.000000000000000E9     9.919450621404681E-1  -1.331414250389883E2   2.959705914083862E-4  -4.790266739406809E1   2.942611513705959E-4  -4.724733563694337E1   9.919134953219898E-1  -1.384360273681427E2  
 1.050000000000000E9     9.897290444219173E-1  -1.399335900467397E2   3.337098120086658E-4  -5.697564686385060E1   3.143414702292849E-4  -5.277147364902463E1   9.911813044342387E-1  -1.452655265616877E2  
 1.100000000000000E9     9.863480993373197E-1  -1.467759896460345E2   2.971208802735557E-4  -5.786189309817996E1   3.242365586189767E-4  -6.526853719003404E1   9.894280317976549E-1  -1.520917031392755E2  
 1.150000000000000E9     9.832037636573694E-1  -1.535384823735250E2   3.473868108931249E-4  -7.227968058175244E1   3.409265945708041E-4  -7.234514686028621E1   9.887529964193398E-1  -1.589121710272293E2  
 1.200000000000000E9     9.803075391979951E-1  -1.603435827484547E2   3.515589130102066E-4  -7.886606334549776E1   3.782928820418309E-4  -7.706755331603348E1   9.884027649123744E-1  -1.656864023937467E2  
 1.250000000000000E9     9.797017831098058E-1  -1.669057527661346E2   3.800460344346591E-4  -8.539715614032217E1   3.831709535340979E-4  -8.449593065472493E1   9.889237343948046E-1  -1.724237527959857E2  
 1.300000000000000E9     9.786669312950723E-1  -1.735248981212749E2   3.979672760249007E-4  -8.871226398495458E1   3.793416842936567E-4  -9.039772234897515E1   9.899921840796884E-1  -1.791421290853242E2  
 1.350000000000000E9     9.774789810428775E-1   1.798816248205089E2   4.104948626427625E-4  -9.542166156014535E1   3.919076447442868E-4  -9.722429820018185E1   9.905585815344365E-1   1.741983719112500E2  
 1.400000000000000E9     9.772141347757322E-1   1.733916268627810E2   4.226160892615977E-4  -1.031363842327049E2   4.053030016630149E-4  -1.044762330770221E2   9.906530342602926E-1   1.675039968875887E2  
 1.450000000000000E9     9.780564716924926E-1   1.669572834975875E2   4.260134675282579E-4  -1.103738885978397E2   4.212593307573751E-4  -1.124247044059068E2   9.919746597885431E-1   1.608453190595510E2  
 1.500000000000000E9     9.791854019071147E-1   1.605730798778548E2   4.592959351522538E-4  -1.190180325188847E2   4.510366886894477E-4  -1.171131954621004E2   9.928989994849644E-1   1.541672624659528E2  
 1.550000000000000E9     9.801436645690612E-1   1.542562509126512E2   5.039452908883693E-4  -1.189752479553588E2   5.008140779370434E-4  -1.257785180762597E2   9.930480763226512E-1   1.475159510192180E2  
 1.600000000000000E9     9.810393396777631E-1   1.478852508267214E2   4.813483226299091E-4  -1.298530573099981E2   4.871501608728924E-4  -1.329628644989749E2   9.927308277547747E-1   1.408674564400859E2  
 1.650000000000000E9     9.813470134234930E-1   1.415904356876270E2   5.312108674859233E-4  -1.365811095111577E2   5.388969815240415E-4  -1.398362913784068E2   9.932631529436823E-1   1.342224345911720E2  
 1.700000000000000E9     9.836341319331809E-1   1.353318928776835E2   5.586064345670718E-4  -1.457561691694270E2   5.643713618822791E-4  -1.440773268378977E2   9.926705183220458E-1   1.275970226119677E2  
 1.750000000000000E9     9.841706184384148E-1   1.291152231769850E2   5.637817576890829E-4  -1.529695246145324E2   5.682990917374411E-4  -1.570879650618516E2   9.914295272625326E-1   1.209442967390747E2  
 1.800000000000000E9     9.839145556726041E-1   1.228439900263905E2   6.162028561427741E-4  -1.671289470677226E2   6.070828937839913E-4  -1.652319751467845E2   9.892287436644707E-1   1.142746471738315E2  
 1.850000000000000E9     9.828716915868111E-1   1.164302586673937E2   6.097106523083435E-4  -1.734688096886303E2   5.958405672214498E-4  -1.732516900118609E2   9.879483424247916E-1   1.075349256177863E2  
 1.900000000000000E9     9.818674444630161E-1   1.101235653320365E2   5.798590829687908E-4   1.794345106829791E2   5.598815572624523E-4  -1.795460362607597E2   9.855696070431705E-1   1.009573249884632E2  
 1.950000000000000E9     9.813046750634399E-1   1.037461769067042E2   5.716514014047409E-4   1.731840897068956E2   5.837512279957077E-4   1.694112712737407E2   9.827603763893121E-1   9.417526655173327E1  
 2.000000000000000E9     9.798912541001154E-1   9.735843945053476E1   6.141688234930205E-4   1.660770145836581E2   6.163249616905871E-4   1.638661231573065E2   9.812530306433622E-1   8.750645455843383E1  
 2.050000000000000E9     9.777218013751924E-1   9.073423072113619E1   6.408539110336039E-4   1.563220647788975E2   6.443123061732757E-4   1.560220966777272E2   9.799756746835437E-1   8.083878074410839E1  
 2.100000000000000E9     9.756822114521323E-1   8.423472781599054E1   5.936432836340299E-4   1.479489800015884E2   6.006515485643520E-4   1.487180564411785E2   9.794088998858700E-1   7.423692403859749E1  
 2.150000000000000E9     9.741798828905054E-1   7.770120820952180E1   6.308482546689679E-4   1.461962779751891E2   6.348479165252539E-4   1.441758129761309E2   9.767408070856449E-1   6.753140454474688E1  
 2.200000000000000E9     9.723805290983718E-1   7.113821999429048E1   6.275130673273424E-4   1.373585494593613E2   6.747243486531893E-4   1.371731487935432E2   9.765582394590794E-1   6.097350391559135E1  
 2.250000000000000E9     9.707226335413151E-1   6.444023091345059E1   7.080556846928919E-4   1.259942595394776E2   6.502627800523106E-4   1.296994691390817E2   9.759297892552601E-1   5.432724522742158E1  
 2.300000000000000E9     9.692116766190908E-1   5.776263350053102E1   7.060110482901082E-4   1.199882148646822E2   6.736075974092696E-4   1.213986544917997E2   9.767939876606737E-1   4.775173367179745E1  
 2.350000000000000E9     9.690927512402191E-1   5.109313682323563E1   6.573588910909508E-4   1.065498014428863E2   6.852363216905542E-4   1.103410515099374E2   9.769473141220083E-1   4.121224467344997E1  
 2.400000000000000E9     9.697727044289694E-1   4.450650724078110E1   6.745954531905741E-4   1.077386058465406E2   6.411242203272478E-4   1.052542448983288E2   9.777922566942069E-1   3.466959662669475E1  
 2.450000000000000E9     9.700418598750081E-1   3.775836028569217E1   6.840473596848011E-4   9.631775785869360E1   6.696283816668246E-4   9.830625394899273E1   9.776638687604811E-1   2.810479364945474E1  
 2.500000000000000E9     9.734620248379080E-1   3.113356360241498E1   6.330719949198485E-4   8.583691412297610E1   6.073513297608602E-4   8.255725372124925E1   9.780539771286227E-1   2.164714530869039E1  
 2.550000000000000E9     9.752173426693764E-1   2.445932033496352E1   5.842698403878687E-4   7.961898563455563E1   6.090126715548461E-4   8.132700045856191E1   9.782002038501455E-1   1.515415545450830E1  
 2.600000000000000E9     9.788564940347084E-1   1.795622292656161E1   5.495134543620709E-4   7.757116813137131E1   5.807203338156794E-4   8.142098855203467E1   9.765998705608248E-1   8.649609473578805  
 2.650000000000000E9     9.815712491275878E-1   1.139665370370973E1   5.756049528899827E-4   7.690291776420568E1   5.643343544824846E-4   7.737261841324354E1   9.752248384492450E-1   2.031632756439558  
 2.700000000000000E9     9.842262986307266E-1   4.802995958247887   5.621637412847603E-4   7.161011062591622E1   5.664134636476271E-4   7.124095102128928E1   9.748197082486597E-1  -4.474680190998025  
 2.750000000000000E9     9.869902470691848E-1  -1.614983918021279   6.303267210225117E-4   7.285702425898121E1   6.195982072958511E-4   6.804600785593095E1   9.736647959380298E-1  -1.104640204813976E1  
 2.800000000000000E9     9.907871152691241E-1  -8.209523701060805   6.801206308407771E-4   6.212566947506355E1   6.674246494163268E-4   6.033611678431846E1   9.726693569916770E-1  -1.770198128794746E1  
 2.850000000000000E9     9.941187411503885E-1  -1.466821502841494E1   6.882212591204822E-4   5.889239502589146E1   6.994856018408641E-4   5.561377852580561E1   9.725599308732574E-1  -2.421111919232116E1  
 2.900000000000000E9     9.953050450814974E-1  -2.116690158395746E1   7.595009671375508E-4   5.021274617231209E1   7.335773784172072E-4   4.828034632907394E1   9.735257360000965E-1  -3.075388463193823E1  
 2.950000000000000E9     9.982996843872772E-1  -2.776237800918667E1   7.982405466227825E-4   4.072216786506795E1   7.338532631308293E-4   4.148249781208199E1   9.732570457388357E-1  -3.734724449210758E1  
 3.000000000000000E9     9.975893502413258E-1  -3.433759029613479E1   8.035542678685517E-4   3.066274568633910E1   8.532439667188903E-4   2.945673627071085E1   9.726892086072166E-1  -4.401474331250906E1  
 3.050000000000000E9     9.996873836392038E-1  -4.091500657992389E1   7.693646375641373E-4   2.028617167044173E1   8.173692404943995E-4   2.049505622877057E1   9.734294362979316E-1  -5.071551298528463E1  
 3.100000000000000E9     9.997715084220245E-1  -4.753376149727906E1   7.656815664113280E-4   1.033528582698025E1   7.990714383503681E-4   1.312157069462271E1   9.736178260382657E-1  -5.731351949134989E1  
 3.150000000000000E9     1.000143651472603  -5.423637920126209E1   7.859096554891065E-4   4.056979719718889   7.435489443825780E-4   3.522948876914622   9.740332046825230E-1  -6.400495327916860E1  
 3.200000000000000E9     9.996856163990598E-1  -6.089450307499163E1   8.185825316769809E-4   3.620794489394715E-1   7.601130442701587E-4   1.670766075525234   9.745007935775899E-1  -7.074360460026311E1  
 3.250000000000000E9     9.975872297796773E-1  -6.768336797934755E1   8.031680933315603E-4  -5.635711274076641   8.115162985824308E-4  -8.268970688615106   9.748927723703749E-1  -7.761283344904632E1  
 3.300000000000000E9     9.977431092598141E-1  -7.448294844397105E1   7.526964304941440E-4  -1.465343189950848E1   7.885511364602653E-4  -1.330340162974929E1   9.760039657952778E-1  -8.442217507465787E1  
 3.350000000000000E9     9.965794225188057E-1  -8.132616034038864E1   8.191226982176140E-4  -2.239400354721680E1   7.680698199707751E-4  -2.029433548785633E1   9.749817090480870E-1  -9.124824728161229E1  
 3.400000000000000E9     9.934355655393125E-1  -8.822580912414755E1   7.668266109177153E-4  -3.007782889040983E1   8.088891718491547E-4  -3.002697342369252E1   9.769251216946570E-1  -9.810336593793765E1  
 3.450000000000000E9     9.919042188499636E-1  -9.512735426536484E1   8.031552364897374E-4  -4.091103523338263E1   7.515896795830638E-4  -3.653182330876635E1   9.781400072259878E-1  -1.050585165629076E2  
 3.500000000000000E9     9.897540257904199E-1  -1.020915804709289E2   7.459785803644185E-4  -4.345762667771960E1   8.022879218396718E-4  -4.172554859950427E1   9.798364704350201E-1  -1.120099042134486E2  
 3.550000000000000E9     9.904308930276663E-1  -1.091038995704707E2   7.807578861393027E-4  -4.693794779252411E1   7.701936119447684E-4  -4.878638221799003E1   9.800104258223942E-1  -1.189741494448052E2  
 3.600000000000000E9     9.889623685234884E-1  -1.160155496821669E2   7.602147355676016E-4  -5.214641136317507E1   7.913087512569813E-4  -5.540924238605673E1   9.801051498717288E-1  -1.261220160888368E2  
 3.650000000000000E9     9.880760363442918E-1  -1.230546340381168E2   7.868770234643582E-4  -5.417534289796323E1   7.969974635376441E-4  -5.501210139871306E1   9.827412110883164E-1  -1.330275454861737E2  
 3.700000000000000E9     9.862008931319620E-1  -1.299736849766832E2   8.086068857393522E-4  -6.168786158357501E1   8.131840568964663E-4  -6.291708209030607E1   9.852186805608943E-1  -1.400413460385421E2  
 3.750000000000000E9     9.853799401687935E-1  -1.369878369545164E2   8.216647769229449E-4  -7.049502360507532E1   8.759142547903898E-4  -6.851441956401914E1   9.888823838870711E-1  -1.469074291377798E2  
 3.800000000000000E9     9.856085690172004E-1  -1.439677835826137E2   8.522816000054469E-4  -7.734811056977013E1   8.440972068092416E-4  -7.659174157407686E1   9.878364312474215E-1  -1.539892512765421E2  
 3.850000000000000E9     9.854814811748320E-1  -1.508915103426214E2   8.626529385667709E-4  -8.396942857966918E1   8.999072907430657E-4  -8.586524743457623E1   9.897076191591142E-1  -1.611137066874622E2  
 3.900000000000000E9     9.853759751611664E-1  -1.578676903522902E2   8.577665551584145E-4  -9.193559960902178E1   9.413358046815955E-4  -9.059805491400344E1   9.901149428783908E-1  -1.681307498287561E2  
 3.950000000000000E9     9.869717083810045E-1  -1.647705406155599E2   8.646564619243978E-4  -9.536819555425981E1   8.669418147582993E-4  -1.000655048682483E2   9.919763447956378E-1  -1.752288675300023E2  
 4.000000000000000E9     9.882419088015445E-1  -1.715342131045226E2   8.910933989344097E-4  -1.024756075443604E2   9.090691680906781E-4  -1.074825954657388E2   9.926518401534480E-1   1.776646228837096E2  
 4.050000000000000E9     9.912821643560904E-1  -1.783156283253238E2   9.089036964378270E-4  -1.148329072449208E2   8.998019600610718E-4  -1.150731112625546E2   9.929148159542012E-1   1.706693105295933E2  
 4.100000000000000E9     9.933184493973124E-1   1.749271035903823E2   8.966971067827544E-4  -1.221383896638948E2   8.992739652999308E-4  -1.238005867148031E2   9.928485359817727E-1   1.636055479243719E2  
 4.150000000000000E9     9.953274573634227E-1   1.682494645337342E2   8.509233522619870E-4  -1.290468286413945E2   8.985328637610508E-4  -1.309295313610678E2   9.926057607717636E-1   1.564582971618002E2  
 4.200000000000000E9     9.981963053850512E-1   1.615747201098008E2   8.770632181540010E-4  -1.345374289877833E2   8.773625894129260E-4  -1.358534902274920E2   9.920814649090202E-1   1.493811820836089E2  
 4.250000000000000E9     9.992564539688749E-1   1.549037328674072E2   8.708716676662099E-4  -1.431149013076203E2   8.826187349699601E-4  -1.410103496540455E2   9.920031218252979E-1   1.422309716468052E2  
 4.300000000000000E9     1.001367818026276   1.483108382395404E2   8.461045816510952E-4  -1.488960683354749E2   8.962629776596274E-4  -1.494543938061711E2   9.935948657817546E-1   1.351421593132709E2  
 4.350000000000000E9     1.001573135740183   1.415979782654715E2   8.777128667692124E-4  -1.566556699900691E2   8.910834605592770E-4  -1.557843578472082E2   9.946462560787490E-1   1.280592363251120E2  
 4.400000000000000E9     1.002714586486500   1.349395926249036E2   8.628209988418914E-4  -1.593447714532236E2   8.231129084079505E-4  -1.597294595775607E2   9.959471708918263E-1   1.209834362021593E2  
 4.450000000000000E9     1.003389304670802   1.283709476010932E2   9.014417511840073E-4  -1.623976074305097E2   8.565124816307072E-4  -1.653435826016175E2   9.966595937305205E-1   1.140137610187490E2  
 4.500000000000000E9     1.002789298571134   1.216651076183474E2   8.938958452397947E-4  -1.705608998847661E2   9.062628164493975E-4  -1.700377653909650E2   9.975663677721013E-1   1.069527006654831E2  
 4.550000000000000E9     1.002462282329311   1.150725572924763E2   8.951753437906588E-4  -1.755833460639061E2   9.115302437971519E-4  -1.790662936401828E2   9.984792636097183E-1   9.991654065792642E1  
 4.600000000000000E9     1.001398486439325   1.084672777461957E2   9.274871654465332E-4   1.763095177384610E2   9.307746918880057E-4   1.756174447246990E2   9.990630551354574E-1   9.298603102230830E1  
 4.650000000000000E9     1.001812399932382   1.019400091319505E2   9.149260134210714E-4   1.679384864109509E2   9.055081016880162E-4   1.690321499045447E2   1.000003207811042   8.591132913473641E1  
 4.700000000000000E9     1.000903164633815   9.537210009933392E1   8.968700605704354E-4   1.630086612510600E2   9.551353376026522E-4   1.635181919807783E2   1.001439247421614   7.915520818623169E1  
 4.750000000000000E9     1.001589753553057   8.874613464471079E1   9.106895584078392E-4   1.544519479084851E2   9.313843516104128E-4   1.555416948672314E2   1.002231488409320   7.223856944503804E1  
 4.800000000000000E9     1.002527797575656   8.218854891031958E1   9.355687863256088E-4   1.504823989395156E2   9.466409110109514E-4   1.506880071559764E2   1.000571174516729   6.543756626111686E1  
 4.850000000000000E9     1.003716726880409   7.569318980846285E1   9.492031589180025E-4   1.447541044854262E2   9.314109053287905E-4   1.445253890840896E2   9.984262405661449E-1   5.852017068173645E1  
