#  HZ   S   MA   R     50.00 
! Rohde & Schwarz ZVA67 4Ports - Version 4.11 - 1305.7002k04 SN: 101051
! Date: 2023-05-31 11:11:14
! Measurements: S11 S21 S12 S22 
! 
 5.000000000000000E7     9.877313726364766E-1   1.730427421273721E2   2.048341221992152E-4   1.356542042182620E2   2.788746263171196E-4  -6.282195509227890   1.000046412061774   1.734182690677878E2  
 1.000000000000000E8     9.920520776239926E-1   1.665280098913487E2   1.055911216212064E-4   8.518612701327042E1   8.616398822403277E-5  -1.551642589017095E2   9.972546128836610E-1   1.666704750089393E2  
 1.500000000000000E8     9.869934650007749E-1   1.600729319649779E2   1.539316842423372E-4  -1.160057647731358E2   8.996474615359243E-5   8.662945650791473E1   9.912006745770277E-1   1.598613733271746E2  
 2.000000000000000E8     9.867203059743043E-1   1.530980830352926E2   8.639128114047453E-5   4.999117551345263E1   6.843368971862450E-5  -1.764084328216360E2   9.933032894641973E-1   1.530219899307272E2  
 2.500000000000000E8     9.814574184802828E-1   1.464856375706175E2   4.111634535758021E-5   3.531020697454831E1   5.564805731463018E-5   1.033580719363096E2   9.898570062192653E-1   1.462699634899578E2  
 3.000000000000000E8     9.771163881048482E-1   1.397990152560481E2   1.018739913227446E-4   1.307927349442881E2   5.327658387911472E-5  -4.556008781866433E1   9.867316716853980E-1   1.393746399653729E2  
 3.500000000000000E8     9.752789550743143E-1   1.331044953038803E2   7.166751913860436E-5   2.174878205972405E1   6.640957301041823E-5  -1.063232519582499E1   9.840295691177005E-1   1.326048062753333E2  
 4.000000000000000E8     9.705266080386981E-1   1.263563942670327E2   5.196665305477457E-5   4.997677862840499E1   9.083701401890927E-5   8.303922008989764   9.800620946395625E-1   1.258257199262386E2  
 4.500000000000000E8     9.700088023711478E-1   1.195554462974245E2   6.028565511815450E-5   5.309287626428360E1   6.558438657845065E-5   2.885053321047142E1   9.792773091343000E-1   1.190454255646951E2  
 5.000000000000000E8     9.684993924080383E-1   1.130539236761679E2   9.436336414153223E-5   1.713762186278676E1   4.585256691506989E-5   1.138721281683849E1   9.777630178384639E-1   1.123226601046284E2  
 5.500000000000000E8     9.674420421134388E-1   1.064462075585821E2   6.148092268178547E-5  -4.453308631970077   5.042718069011045E-5   2.142274253384515   9.785772213329644E-1   1.056715235939493E2  
 6.000000000000000E8     9.677728222220665E-1   9.985065452744493E1   3.880888628738236E-5  -1.150169967482075E1   7.921473409014329E-5  -2.483822716575217E1   9.779637155162239E-1   9.907985073689710E1  
 6.500000000000000E8     9.660572460115759E-1   9.338564336925187E1   6.986278636840067E-5  -2.019717181086206E1   8.230330948394946E-5   1.217261012025206E1   9.778615301756546E-1   9.236821803431535E1  
 7.000000000000000E8     9.686045390691821E-1   8.696478140535322E1   4.988280591273642E-5  -5.046206354261784   6.379111254542849E-5  -3.983462665909018   9.795063234340246E-1   8.579652999658894E1  
 7.500000000000000E8     9.711638004800188E-1   8.061367365110488E1   5.212876720182026E-5  -1.204023201544941E1   8.710558638465611E-5  -2.452746356989789E1   9.823002316424992E-1   7.906684543686033E1  
 8.000000000000000E8     9.751677492585236E-1   7.415791019700443E1   7.572732410647095E-5  -1.619325926863078E1   8.554139777901398E-5  -3.982802006591147E1   9.861812954645128E-1   7.252091228362917E1  
 8.500000000000000E8     9.775600399901370E-1   6.780048098105097E1   7.387451773572517E-5  -3.162750462272819E1   7.657864852555929E-5  -3.656706321728907E1   9.877095095058743E-1   6.579267257781335E1  
 9.000000000000000E8     9.799814930911337E-1   6.134292475067631E1   9.555965843251078E-5  -2.545646931014584E1   5.969361774749832E-5  -4.323366680455393E1   9.882306817963628E-1   5.914168054155900E1  
 9.500000000000000E8     9.826747933375576E-1   5.500609645751948E1   7.261556600121562E-5  -4.523394722308030E1   7.195424693185686E-5  -5.178932597582541E1   9.883426076284595E-1   5.238576732788185E1  
 1.000000000000000E9     9.850908808991727E-1   4.863060571207745E1   1.164767422960364E-4  -6.074461412979983E1   1.085221511207369E-4  -3.162220480297681E1   9.885661553474162E-1   4.569660385777563E1  
 1.050000000000000E9     9.875403460516139E-1   4.216580536469039E1   1.158498315475277E-4  -5.242577920424684E1   1.183616312666852E-4  -5.252109701908075E1   9.877665902567442E-1   3.891001816785423E1  
 1.100000000000000E9     9.897448291175136E-1   3.571812029205706E1   1.015000809195824E-4  -5.655129626922928E1   8.230264596975178E-5  -5.525087176128728E1   9.878790258631972E-1   3.219996041421486E1  
 1.150000000000000E9     9.904900014746717E-1   2.919082799704144E1   9.683593318260808E-5  -7.045467669968998E1   1.104580597443910E-4  -6.380719197190627E1   9.881567680976088E-1   2.545065536100650E1  
 1.200000000000000E9     9.931758642393330E-1   2.272439669444783E1   1.034749220900059E-4  -9.405587462297733E1   1.070785229506677E-4  -8.673474002351837E1   9.876577142448515E-1   1.865101100168075E1  
 1.250000000000000E9     9.923110121088518E-1   1.598016715549255E1   1.194283331322878E-4  -8.912178596278247E1   1.125429107138424E-4  -8.279158752843800E1   9.866527748696236E-1   1.179599715208344E1  
 1.300000000000000E9     9.935527295501889E-1   9.307293653018359   9.904156422144869E-5  -8.809300715672976E1   1.232570517207664E-4  -8.858002298164966E1   9.860724021470443E-1   5.026256427406699  
 1.350000000000000E9     9.928989168088118E-1   2.597744307147500   1.047840730128734E-4  -1.140567841442577E2   1.204600441766739E-4  -1.095311256377260E2   9.861447901234053E-1  -1.775948889261667  
 1.400000000000000E9     9.922010744139606E-1  -4.173387752425710   1.329979821331501E-4  -9.400523153399747E1   1.263461131325632E-4  -9.635306725598933E1   9.858251663341020E-1  -8.585346959140722  
 1.450000000000000E9     9.911648136336487E-1  -1.095869552192846E1   1.521368753711883E-4  -1.051237096802917E2   1.040464238271650E-4  -1.087939111296903E2   9.852382478843937E-1  -1.545298275503526E1  
 1.500000000000000E9     9.896786673455692E-1  -1.781032211679550E1   1.254488936775212E-4  -1.162260998307030E2   1.423919827348994E-4  -1.159892308206062E2   9.847201813519558E-1  -2.229624488868987E1  
 1.550000000000000E9     9.889317411944875E-1  -2.467469870640603E1   1.231339535273493E-4  -1.242974603246891E2   1.296925185134968E-4  -1.162325948487979E2   9.849118140231871E-1  -2.914257551771186E1  
 1.600000000000000E9     9.876866962840372E-1  -3.159640664208379E1   1.379482393036483E-4  -1.380558619734548E2   1.541602657696596E-4  -1.372106649899424E2   9.865759900205980E-1  -3.602132546737362E1  
 1.650000000000000E9     9.868863814288558E-1  -3.844923854184099E1   1.433747489722434E-4  -1.186886196449829E2   1.548276489812962E-4  -1.369908278325694E2   9.872002423748649E-1  -4.291224111427613E1  
 1.700000000000000E9     9.848144331057321E-1  -4.536688652170098E1   1.488128409887079E-4  -1.519554013207041E2   1.296849435115508E-4  -1.464278594656583E2   9.888815993730045E-1  -4.976469643286089E1  
 1.750000000000000E9     9.845168663033647E-1  -5.225450366687457E1   1.774862146647989E-4  -1.463482848866113E2   1.476041648772056E-4  -1.458117128854067E2   9.902839614509108E-1  -5.663592022276330E1  
 1.800000000000000E9     9.854277483242749E-1  -5.909018918456685E1   1.528748768974000E-4  -1.517482325386376E2   1.471105760918720E-4  -1.589453587886541E2   9.923114931424522E-1  -6.354377475238772E1  
 1.850000000000000E9     9.876569224438401E-1  -6.577256558940140E1   1.905665081674629E-4  -1.656267584727018E2   1.329957392448650E-4  -1.643819511925156E2   9.944582000829293E-1  -7.039882621869154E1  
 1.900000000000000E9     9.891481271629903E-1  -7.252750129988608E1   1.630802996613298E-4  -1.707045695890650E2   1.913872205661391E-4  -1.727108723153933E2   9.966034500603864E-1  -7.739786323745729E1  
 1.950000000000000E9     9.903625931890476E-1  -7.922497383762320E1   1.823684026274835E-4  -1.776890723187253E2   1.717779367821147E-4  -1.754729462676137E2   9.986929781619649E-1  -8.419710365106808E1  
 2.000000000000000E9     9.924567768692009E-1  -8.584164704914471E1   1.987407877147162E-4   1.766683380151482E2   1.777890538706590E-4   1.694564344664085E2   9.992395811092616E-1  -9.111692522342759E1  
 2.050000000000000E9     9.967059376920133E-1  -9.236404076178418E1   1.646558892868950E-4   1.785646148495391E2   1.676578944417196E-4   1.737302657486765E2   9.995029020031787E-1  -9.807807394484871E1  
 2.100000000000000E9     9.993672573587037E-1  -9.887478904679685E1   2.032028194868220E-4   1.541275920158116E2   2.001001244396096E-4   1.622671038518598E2   1.000117161337956  -1.050958001883339E2  
 2.150000000000000E9     1.002258025267657  -1.054291900297181E2   1.860952908127062E-4   1.643340402071540E2   1.744504238064504E-4   1.591600661439219E2   1.000354032418512  -1.119622948478233E2  
 2.200000000000000E9     1.005563441805041  -1.118229360691755E2   2.058589719868096E-4   1.515130778434582E2   1.986196250156237E-4   1.505579362507733E2   1.000125016748110  -1.189959160277399E2  
 2.250000000000000E9     1.008705081761008  -1.182140904408587E2   1.789447434471278E-4   1.421224843496315E2   1.633449481529204E-4   1.451649030101409E2   9.984911240722624E-1  -1.259974908764570E2  
 2.300000000000000E9     1.009832775436406  -1.246070487488425E2   2.347505972535449E-4   1.357049535956971E2   2.197193469796629E-4   1.379750667545591E2   9.948838041061016E-1  -1.330387664795180E2  
 2.350000000000000E9     1.010417437623171  -1.310283446875426E2   2.073762010927901E-4   1.295870730397929E2   2.166139343294589E-4   1.293003336365926E2   9.927755424276070E-1  -1.401225116442016E2  
 2.400000000000000E9     1.011236609463055  -1.375269208165893E2   2.396293615297040E-4   1.242360398908519E2   2.157742639553943E-4   1.273761949520459E2   9.903726912668850E-1  -1.472018675602168E2  
 2.450000000000000E9     1.011275399019156  -1.439556211979654E2   2.258244090575290E-4   1.204642012248982E2   2.219857328807385E-4   1.123101518840536E2   9.890513824942590E-1  -1.542412105719236E2  
 2.500000000000000E9     1.009260098642099  -1.504941883765159E2   2.430800429141862E-4   1.112212131348468E2   2.485990736122489E-4   1.079774597555507E2   9.876553938228123E-1  -1.614159339656251E2  
 2.550000000000000E9     1.006928374967507  -1.570315712416964E2   2.134957787286365E-4   9.636146384620221E1   2.533604671037754E-4   9.811560143664401E1   9.876040972750797E-1  -1.684456692206556E2  
 2.600000000000000E9     1.003515478603076  -1.636941450076558E2   2.526614685058393E-4   1.021378416855833E2   2.204960842145771E-4   9.931943368730032E1   9.873601071816133E-1  -1.756076630628063E2  
 2.650000000000000E9     1.001457633982079  -1.702781368928904E2   2.340731412008280E-4   8.250297258472067E1   2.232086355590857E-4   9.838167984360013E1   9.877054112404544E-1   1.773820437189492E2  
 2.700000000000000E9     9.983225993394755E-1  -1.769867694135761E2   2.668307886262268E-4   7.952385605366800E1   2.675759799691073E-4   7.473475084076168E1   9.857574119574941E-1   1.703399464562303E2  
 2.750000000000000E9     9.954204879474273E-1   1.762923225037566E2   2.458331130605271E-4   6.809990000405487E1   2.083886806355857E-4   7.267948838388666E1   9.861486094107032E-1   1.633064046384684E2  
 2.800000000000000E9     9.913155519608780E-1   1.696181108238422E2   2.571339805081582E-4   7.778210823049759E1   2.543586057785436E-4   7.560752672992834E1   9.859835517481282E-1   1.562330763965295E2  
 2.850000000000000E9     9.874304340713500E-1   1.627475851226741E2   2.592996294560407E-4   6.596897412451945E1   2.648005609074177E-4   6.475352502213301E1   9.850221018651951E-1   1.492049032113438E2  
 2.900000000000000E9     9.868667266189954E-1   1.558597633237477E2   2.556597961763161E-4   4.694650178782691E1   2.934019926777936E-4   5.869692849233789E1   9.850811203587951E-1   1.423267434431058E2  
 2.950000000000000E9     9.835767922894803E-1   1.491448911725768E2   3.163945803160523E-4   4.359952606183252E1   2.294022828330186E-4   5.217696517908397E1   9.835597143760192E-1   1.352677848093097E2  
 3.000000000000000E9     9.840073525635056E-1   1.424308315560633E2   2.883086481830823E-4   4.251781204033541E1   2.651746582004581E-4   4.161705142144228E1   9.821423574827247E-1   1.284039948737027E2  
 3.050000000000000E9     9.829381012741336E-1   1.357740335351070E2   2.844363385079492E-4   3.292469451615798E1   2.826165513165630E-4   4.047601449452775E1   9.811483069289381E-1   1.214991345831875E2  
 3.100000000000000E9     9.812839941515809E-1   1.289920741069223E2   2.216424834622135E-4   2.983512962225268E1   2.880417496706141E-4   3.128811359370180E1   9.798462605122260E-1   1.146581280435071E2  
 3.150000000000000E9     9.811586644199091E-1   1.223481619715691E2   2.569506465240392E-4   2.942628389900189E1   2.650005083394225E-4   2.505487694132743E1   9.788978859907691E-1   1.078317289179760E2  
 3.200000000000000E9     9.822567088469048E-1   1.156619434360765E2   3.069602745989753E-4   1.483673602631700E1   2.612251782184019E-4   2.124603070451147E1   9.789426238497750E-1   1.010714394801265E2  
 3.250000000000000E9     9.831455939273477E-1   1.091844780462195E2   2.398855922992961E-4   9.480524051630896   2.808502140238252E-4   1.319393709506467E1   9.794400057648911E-1   9.435824142095042E1  
 3.300000000000000E9     9.836989739335832E-1   1.027723413129780E2   2.943289583758100E-4   8.643934484226795   2.913452530054473E-4  -1.161259584962582E1   9.788782084383852E-1   8.770576118339676E1  
 3.350000000000000E9     9.859491153030344E-1   9.627534799791413E1   2.951891333068734E-4  -1.700523670330425E1   2.903671078004970E-4   1.557347601662061E-1   9.787694160059041E-1   8.105602692283122E1  
 3.400000000000000E9     9.863698827851439E-1   8.997496767179734E1   2.771639081854085E-4  -1.261827339649466   2.431354385249877E-4  -1.320454524918359E1   9.780972798349633E-1   7.443820091780094E1  
 3.450000000000000E9     9.883709549559533E-1   8.358510952272849E1   2.868160112695002E-4  -1.120770881820047E1   3.033742248070310E-4  -1.493128413742186E1   9.784473741526144E-1   6.783002824947575E1  
 3.500000000000000E9     9.923228487086828E-1   7.737947496814560E1   2.945674806991984E-4  -3.121784514413789E1   3.001841968973946E-4  -2.085073701677208E1   9.780478089852639E-1   6.121952751259912E1  
 3.550000000000000E9     9.926614815464003E-1   7.099353168040230E1   2.630705443384513E-4  -1.741165022062459E1   2.552388395164832E-4  -3.224575792398211E1   9.782541762796991E-1   5.460667513535674E1  
 3.600000000000000E9     9.944435305880617E-1   6.467349668685824E1   3.212758339357630E-4  -3.555071345541408E1   3.201062484971676E-4  -4.069662377738422E1   9.770488519443838E-1   4.818140495973162E1  
 3.650000000000000E9     9.954620799498227E-1   5.838143262790231E1   2.835544038562615E-4  -4.339868412028878E1   3.140950056190474E-4  -3.998043677253245E1   9.757327834976509E-1   4.164942109312335E1  
 3.700000000000000E9     9.968909690875218E-1   5.207244344772101E1   2.975999681758273E-4  -4.347350148476466E1   2.907585118126340E-4  -4.936492698125010E1   9.727752437983365E-1   3.509730771918411E1  
 3.750000000000000E9     9.977303624499890E-1   4.580435284345629E1   2.795088851242230E-4  -4.998309163995837E1   3.028973824383611E-4  -5.123813111795029E1   9.706066036286363E-1   2.841897498594610E1  
 3.800000000000000E9     9.980851786969923E-1   3.957449054340337E1   3.138976819341246E-4  -5.814617171219958E1   2.788060337443168E-4  -6.871840456935512E1   9.687362774480263E-1   2.193306816668867E1  
 3.850000000000000E9     9.965764378243925E-1   3.330542154012750E1   2.876640811603323E-4  -6.829660650294669E1   3.292913366182916E-4  -7.274275332191992E1   9.667851841186897E-1   1.550727002625015E1  
 3.900000000000000E9     9.967036171246175E-1   2.694776823131564E1   3.177451736312415E-4  -6.934428699965906E1   2.805756612362193E-4  -7.588604528025267E1   9.655015565293389E-1   8.919410430338825  
 3.950000000000000E9     9.941533014653341E-1   2.070385410924871E1   3.262360059229240E-4  -7.436317066488650E1   3.239769776797375E-4  -7.989861346900845E1   9.643878904802579E-1   2.410510551207048  
 4.000000000000000E9     9.943017945018104E-1   1.434884243412502E1   2.905974642827709E-4  -9.823420747176222E1   3.362421348353802E-4  -8.884341631626062E1   9.625084459943586E-1  -3.968127097978493  
 4.050000000000000E9     9.907136765891293E-1   7.948835569600799   3.166234644356888E-4  -9.190051519126089E1   3.254698676639302E-4  -9.101869152911210E1   9.607468566508557E-1  -1.055859186320898E1  
 4.100000000000000E9     9.883891524425071E-1   1.476039369861540   3.598421794708805E-4  -1.026431990808067E2   3.492085318977111E-4  -9.930145648451189E1   9.596985313434994E-1  -1.706297479074152E1  
 4.150000000000000E9     9.860935421892234E-1  -4.967581630171583   3.182126538019796E-4  -1.059210339572118E2   3.241515050521658E-4  -1.057868817855276E2   9.580716909082404E-1  -2.355973200213984E1  
 4.200000000000000E9     9.836376001901497E-1  -1.147759898850971E1   3.249928470997814E-4  -1.103538312125136E2   3.389945224108559E-4  -1.128694187086714E2   9.587477500139729E-1  -3.003591354974457E1  
 4.250000000000000E9     9.813138975867279E-1  -1.796545744129165E1   3.409403183309516E-4  -1.214694954977248E2   3.347339699743276E-4  -1.226424908711484E2   9.581403531365230E-1  -3.648492026830087E1  
 4.300000000000000E9     9.789826049737072E-1  -2.452220905866676E1   3.340894653590930E-4  -1.289778239333383E2   3.369899912190411E-4  -1.265842164159629E2   9.565301693272028E-1  -4.293527005771947E1  
 4.350000000000000E9     9.789094219050598E-1  -3.099058920059904E1   3.618962643986040E-4  -1.351664145040469E2   3.561477432857511E-4  -1.321533473867210E2   9.560009858379502E-1  -4.940370484415836E1  
 4.400000000000000E9     9.776053868282888E-1  -3.745058295220547E1   3.390595816576972E-4  -1.399439981159524E2   3.666615296255863E-4  -1.385296901966179E2   9.544319655599028E-1  -5.590773587517254E1  
 4.450000000000000E9     9.778024099208197E-1  -4.402895354330801E1   3.422485453573205E-4  -1.458795229414002E2   3.578263935307622E-4  -1.469262335715950E2   9.537228737564012E-1  -6.248015457649221E1  
 4.500000000000000E9     9.783842098899588E-1  -5.044946695062650E1   3.626095694844720E-4  -1.498133810320521E2   3.586908632280336E-4  -1.519905150248326E2   9.529017553187790E-1  -6.900037710545489E1  
 4.550000000000000E9     9.792150534793489E-1  -5.696013095196935E1   3.829619849174514E-4  -1.555402632839167E2   3.665364484235655E-4  -1.562103363781953E2   9.515776883280732E-1  -7.553676732399910E1  
 4.600000000000000E9     9.813990407823510E-1  -6.352102671648510E1   3.614769602553056E-4  -1.620468398049658E2   3.814060244821652E-4  -1.650091451009232E2   9.513417145667820E-1  -8.217043196404184E1  
 4.650000000000000E9     9.830194967431476E-1  -7.005666262371211E1   4.108628474372896E-4  -1.674457668078852E2   3.796596817123365E-4  -1.710328066784394E2   9.510067726504408E-1  -8.862383148977187E1  
 4.700000000000000E9     9.849663107337271E-1  -7.660354418984180E1   3.906101182169533E-4   1.768419114656581E2   3.755161824111419E-4  -1.780590400100473E2   9.492430632162696E-1  -9.538841494162298E1  
 4.750000000000000E9     9.869430729265256E-1  -8.306122340727971E1   4.156393313250655E-4   1.761112668546654E2   4.035329178532994E-4   1.778303933231535E2   9.496466432507126E-1  -1.020815076045835E2  
 4.800000000000000E9     9.882995142475947E-1  -8.965624394725430E1   3.767565977682724E-4   1.659054770916683E2   3.902462289233848E-4   1.684012584610562E2   9.502378718644461E-1  -1.088027440197925E2  
