#  HZ   S   MA   R     50.00 
! Rohde & Schwarz ZVA67 4Ports - Version 4.11 - 1305.7002k04 SN: 101051
! Date: 2023-05-31 11:06:55
! Measurements: S11 S21 S12 S22 
! 
 5.000000000000000E7     6.031324411915840E-3   5.346332841796523E1   9.944411773402490E-1  -7.054841851584378   9.976909548507541E-1  -6.638006659319265   7.313443490551634E-3   6.037954892855675  
 1.000000000000000E8     3.483938200158621E-3  -4.701515875581853E1   9.975085939648402E-1  -1.336008553909570E1   1.000569596529808  -1.350946209398493E1   3.926521601481685E-3  -3.600259881257186E1  
 1.500000000000000E8     8.095391637689454E-3  -1.473896708711671E1   9.976672566783897E-1  -2.022133685590360E1   9.957880168736962E-1  -2.025109063586239E1   8.174584295479832E-3  -3.494379684841969E1  
 2.000000000000000E8     6.747169953324650E-3  -1.618011670189771E1   9.971189892623509E-1  -2.686827504446421E1   9.986896132642236E-1  -2.700902568138959E1   8.120483027364836E-3  -3.102806096468784E1  
 2.500000000000000E8     9.197688842682161E-3  -2.567761566698955E1   9.957644438464041E-1  -3.376013716037998E1   9.956529790633701E-1  -3.383069634330600E1   1.188591541449775E-2  -3.313635228057117E1  
 3.000000000000000E8     1.229983796563440E-2  -3.380660185037561E1   9.956932702607023E-1  -4.046970318666052E1   9.960170999378537E-1  -4.045177086106811E1   1.609803431241468E-2  -3.856078352620278E1  
 3.500000000000000E8     1.472495308021328E-2  -4.310434481720682E1   9.955619936160294E-1  -4.721385144219877E1   9.949086948296725E-1  -4.722569721369091E1   1.609200951189823E-2  -4.439362095006800E1  
 4.000000000000000E8     1.768997844287843E-2  -4.617606692244130E1   9.940783158309234E-1  -5.393234666530501E1   9.943986801767172E-1  -5.396595690492826E1   2.065844856999104E-2  -4.734389173256671E1  
 4.500000000000000E8     1.721387674755049E-2  -5.327015295130743E1   9.943407311284314E-1  -6.068691122246638E1   9.944534047491438E-1  -6.070049191404387E1   2.299743146058240E-2  -5.255005366377717E1  
 5.000000000000000E8     1.804523918238928E-2  -6.126577618896216E1   9.939221638234076E-1  -6.746107138835369E1   9.944499846212085E-1  -6.740505301140809E1   2.370223498982542E-2  -6.687495053389377E1  
 5.500000000000000E8     1.513199573857098E-2  -7.663899321472186E1   9.932971383579533E-1  -7.417039666981781E1   9.938792870145566E-1  -7.414080286869496E1   2.499075798355077E-2  -7.364823772457024E1  
 6.000000000000000E8     1.400514803327876E-2  -9.261880589243019E1   9.931015023391109E-1  -8.094193292040090E1   9.931413121563464E-1  -8.093002445327522E1   2.712045216090307E-2  -8.593375506210163E1  
 6.500000000000000E8     1.234322117225944E-2  -1.039003719953413E2   9.924756610183076E-1  -8.761477035791081E1   9.927200043676893E-1  -8.767667109043057E1   2.996270222050797E-2  -9.919036868812127E1  
 7.000000000000000E8     1.090715506040041E-2  -1.351205935224584E2   9.919022924354514E-1  -9.439433291540897E1   9.923553205997777E-1  -9.440587030096079E1   3.038838906458533E-2  -1.150180366127414E2  
 7.500000000000000E8     9.173109256818456E-3  -1.758089950843044E2   9.916929269433288E-1  -1.011032131259758E2   9.919861720031803E-1  -1.011281192987558E2   3.101738117316535E-2  -1.293912297886485E2  
 8.000000000000000E8     1.281673250458944E-2   1.484631022792035E2   9.914278492710767E-1  -1.078337988451684E2   9.908679936182260E-1  -1.078410169564942E2   3.040236972352146E-2  -1.466031034087438E2  
 8.500000000000000E8     1.561725298927866E-2   1.295023619074365E2   9.911025438788723E-1  -1.146218168997875E2   9.905742114309060E-1  -1.146359632208361E2   3.408731696136103E-2  -1.602314109072403E2  
 9.000000000000000E8     1.985001216381562E-2   1.099733348101594E2   9.894052003169583E-1  -1.213568938656836E2   9.896182289705917E-1  -1.213457376544850E2   3.722852578735979E-2  -1.723837098507753E2  
 9.500000000000000E8     2.413327845426121E-2   1.032127646977743E2   9.889607022959664E-1  -1.280577024398572E2   9.890837444763301E-1  -1.281173441712316E2   3.967619005551567E-2   1.766362532397671E2  
 1.000000000000000E9     2.756143137782506E-2   9.700088073607623E1   9.888401102239857E-1  -1.347854179347233E2   9.881729476612724E-1  -1.348589325934867E2   4.104232966020685E-2   1.654375466534967E2  
 1.050000000000000E9     2.998532937846411E-2   9.087731072265116E1   9.881126457582787E-1  -1.415502491442476E2   9.882688094565079E-1  -1.415669580027035E2   4.195564973861891E-2   1.574562231663476E2  
 1.100000000000000E9     3.231382103184215E-2   8.418507360636944E1   9.878171098826689E-1  -1.483173192714669E2   9.875481554393719E-1  -1.482795512264886E2   4.282588079383489E-2   1.467070927428786E2  
 1.150000000000000E9     3.518117439385514E-2   7.795563087517029E1   9.871625456346360E-1  -1.550227756074758E2   9.871162643480398E-1  -1.550321245404865E2   4.338690745712551E-2   1.379745249257065E2  
 1.200000000000000E9     3.676340924951030E-2   7.286998609181798E1   9.865144323199924E-1  -1.617484560073837E2   9.866892640446366E-1  -1.617946228073572E2   4.358554920927955E-2   1.278969803374700E2  
 1.250000000000000E9     3.663423150629690E-2   6.796886772524304E1   9.863032500332598E-1  -1.685131846979539E2   9.860115805828420E-1  -1.684954648101347E2   4.115285016119956E-2   1.226003175693163E2  
 1.300000000000000E9     3.653674302223656E-2   6.138487194206201E1   9.861669644915115E-1  -1.752223561606018E2   9.859555457026764E-1  -1.752605897798869E2   3.906780123503974E-2   1.159437562779249E2  
 1.350000000000000E9     3.701101242274483E-2   5.638780741332340E1   9.858965474368479E-1   1.780640271686931E2   9.860961504715875E-1   1.780483166521257E2   3.687228757717125E-2   1.099982935894610E2  
 1.400000000000000E9     3.496607795582100E-2   5.084694675660401E1   9.860831683956790E-1   1.713435357863644E2   9.859634822426394E-1   1.713223462373375E2   3.396372429288644E-2   1.039848717025155E2  
 1.450000000000000E9     3.387598783801343E-2   4.473991052875403E1   9.862306061394767E-1   1.646498102106163E2   9.862261464474046E-1   1.645827707307155E2   3.103438902272369E-2   1.010848284098518E2  
 1.500000000000000E9     3.178426836230473E-2   3.919673711905207E1   9.864268886672524E-1   1.579008026476885E2   9.865642326689663E-1   1.578913552252965E2   2.763831694952959E-2   9.847450471178857E1  
 1.550000000000000E9     3.010308536441661E-2   3.185639418287508E1   9.865990676333625E-1   1.512286306279312E2   9.863301960837139E-1   1.511725989082155E2   2.448035018710968E-2   9.831073199122263E1  
 1.600000000000000E9     2.823198981497421E-2   2.187438490077748E1   9.866342180876578E-1   1.444965719450949E2   9.869266263781900E-1   1.444798995676834E2   2.152389475787628E-2   9.976241452557866E1  
 1.650000000000000E9     2.626439702038087E-2   1.188102394438100E1   9.871242705656818E-1   1.377672076810787E2   9.873710738168329E-1   1.377812535295974E2   2.027003350383415E-2   1.031591196247938E2  
 1.700000000000000E9     2.448630004194990E-2  -3.570359518537424E-1   9.876586840859198E-1   1.310739053570691E2   9.870139617574858E-1   1.310649875747176E2   1.931806379521766E-2   1.108035566952189E2  
 1.750000000000000E9     2.385329161686191E-2  -1.817816505426695E1   9.875520903988648E-1   1.244159947034894E2   9.874830393629692E-1   1.243725528298938E2   1.961220622148272E-2   1.153199557811495E2  
 1.800000000000000E9     2.464884197214841E-2  -3.282263520111039E1   9.874462454181386E-1   1.177177404251590E2   9.874917643522074E-1   1.176879321385852E2   1.941522545374475E-2   1.186307595170756E2  
 1.850000000000000E9     2.717953232057168E-2  -4.738530055921596E1   9.880769080162473E-1   1.109927220085667E2   9.876133554150873E-1   1.109876836795751E2   2.016830733757404E-2   1.137001958258250E2  
 1.900000000000000E9     2.973888913468543E-2  -6.300358305036149E1   9.874964342098911E-1   1.043275838339315E2   9.879360173174089E-1   1.042818566670020E2   2.080973610159422E-2   1.176171331886054E2  
 1.950000000000000E9     3.339883141454318E-2  -7.475882849323575E1   9.873536061088697E-1   9.767440144810779E1   9.879981835526283E-1   9.762431870751351E1   2.142976402394301E-2   1.112078640077166E2  
 2.000000000000000E9     3.807765834965952E-2  -8.657221464857916E1   9.871656372785960E-1   9.094195394536847E1   9.874221074462046E-1   9.092738239109255E1   2.354478269526857E-2   1.047937652230721E2  
 2.050000000000000E9     4.326796820047417E-2  -9.464843421055471E1   9.871603873224881E-1   8.422781779996009E1   9.881063052398788E-1   8.421345715995247E1   2.410319224806364E-2   9.656908597182942E1  
 2.100000000000000E9     4.660996489235585E-2  -1.035093353417670E2   9.878013515381841E-1   7.756824785529339E1   9.872599234823147E-1   7.756404941403410E1   2.475860801428061E-2   9.242651058748922E1  
 2.150000000000000E9     5.096014596178544E-2  -1.111669865851973E2   9.871141806705120E-1   7.088251754511933E1   9.873974970561619E-1   7.084415482828639E1   2.619143866096126E-2   8.702494983206955E1  
 2.200000000000000E9     5.484664646346087E-2  -1.183862297857639E2   9.875877353410738E-1   6.421013844320441E1   9.878309881985409E-1   6.417335919560217E1   2.662449998841098E-2   8.023895116834174E1  
 2.250000000000000E9     5.691113501579991E-2  -1.247925599415486E2   9.875027238309948E-1   5.750182160077392E1   9.877225284936744E-1   5.746722060657690E1   2.753868538854653E-2   7.320910779454808E1  
 2.300000000000000E9     5.745440753010880E-2  -1.315161350351792E2   9.871485776237803E-1   5.084523788442831E1   9.863983033545215E-1   5.074933603147650E1   2.943876270159559E-2   7.030558064774390E1  
 2.350000000000000E9     5.783389620037378E-2  -1.379367867801851E2   9.866271505501857E-1   4.412518091287479E1   9.867331486110474E-1   4.405852606597421E1   3.148654947561859E-2   6.538448207355827E1  
 2.400000000000000E9     5.702195962989543E-2  -1.445935810188080E2   9.860277845060538E-1   3.744271324349424E1   9.859009646236214E-1   3.739257284994947E1   3.400767178753241E-2   6.267549254454940E1  
 2.450000000000000E9     5.657812560876016E-2  -1.509392585195107E2   9.854954770392682E-1   3.072709272039416E1   9.859857684070387E-1   3.064794558226101E1   3.498234411768485E-2   5.891480592945311E1  
 2.500000000000000E9     5.429146759675675E-2  -1.586627941375724E2   9.859699930728858E-1   2.398004875550232E1   9.854279230771590E-1   2.397510714063085E1   3.822290583158958E-2   5.686541275753882E1  
 2.550000000000000E9     5.145094859465024E-2  -1.664666020483898E2   9.855518186408540E-1   1.728497239268892E1   9.856290266835476E-1   1.723792461277073E1   3.939840129148432E-2   5.295178940566908E1  
 2.600000000000000E9     4.893497578339150E-2  -1.765979321238128E2   9.853911133488299E-1   1.057169642354811E1   9.853238060826839E-1   1.054104695269116E1   4.202332226679767E-2   5.086196224730443E1  
 2.650000000000000E9     4.623866909944436E-2   1.735720653302282E2   9.852686407781793E-1   3.823667299908096   9.851553460612766E-1   3.821819431773661   4.310574192615829E-2   4.728679132830237E1  
 2.700000000000000E9     4.399562024684290E-2   1.634785402288339E2   9.840190696450611E-1  -2.890601902654429   9.844494101569482E-1  -2.917015808692104   4.447949828181060E-2   4.231826699373792E1  
 2.750000000000000E9     4.242131408611259E-2   1.500424780400009E2   9.834957864044449E-1  -9.585859193106389   9.838747219546448E-1  -9.660458448286132   4.660948450272604E-2   3.812584427432754E1  
 2.800000000000000E9     4.123693898956519E-2   1.374737971759474E2   9.839865573778525E-1  -1.636066155583395E1   9.821656700539336E-1  -1.639634245526690E1   4.798811934581526E-2   3.213718746441288E1  
 2.850000000000000E9     4.205984394361959E-2   1.227567222981337E2   9.830464356298637E-1  -2.308857304033228E1   9.827419933472406E-1  -2.313172083749910E1   4.983004918585665E-2   2.584672567527119E1  
 2.900000000000000E9     4.478841444279415E-2   1.101911854682912E2   9.827551010332997E-1  -2.980242162459826E1   9.836707695374533E-1  -2.982540657540683E1   5.039655989678311E-2   1.965585251464547E1  
 2.950000000000000E9     4.496975046128938E-2   9.768473078186294E1   9.826099245315616E-1  -3.657758377742310E1   9.827913958813210E-1  -3.656365042466734E1   5.198712263759032E-2   1.201339422549516E1  
 3.000000000000000E9     4.613527833939784E-2   8.711792764639586E1   9.826006003612804E-1  -4.329016293072545E1   9.815820580646416E-1  -4.332428757780125E1   5.119560005367393E-2   6.675277528414920  
 3.050000000000000E9     4.720708386960062E-2   7.749515900351049E1   9.821456244199411E-1  -5.004559694826088E1   9.821596708272198E-1  -5.008616585660988E1   5.110038595040076E-2  -1.671021486399783  
 3.100000000000000E9     5.012497834990867E-2   6.777701719761819E1   9.814361961967444E-1  -5.676046647362207E1   9.817223389729546E-1  -5.680830239360069E1   5.054443065889398E-2  -8.617147346107423  
 3.150000000000000E9     5.041791430735090E-2   6.036348345041384E1   9.817904214390968E-1  -6.351301992568479E1   9.816867070376288E-1  -6.354613807324641E1   4.958957833608777E-2  -1.612845375067131E1  
 3.200000000000000E9     5.196473950057069E-2   5.320187295148978E1   9.815623880844835E-1  -7.020885000607734E1   9.826727418540693E-1  -7.025068426961823E1   4.849439995580004E-2  -2.415243078284935E1  
 3.250000000000000E9     5.197678398455869E-2   4.703365187954963E1   9.824111860155763E-1  -7.693250399659308E1   9.821453460312821E-1  -7.703987647914444E1   4.495737590203137E-2  -3.151533062340782E1  
 3.300000000000000E9     4.969667788350336E-2   4.121212989886132E1   9.821605236029714E-1  -8.368239516430849E1   9.825190913192521E-1  -8.368005070228556E1   4.288062106691988E-2  -4.125596162197749E1  
 3.350000000000000E9     4.890367365537243E-2   3.539464856622379E1   9.827934761899376E-1  -9.039277690674827E1   9.823839608298984E-1  -9.045069541221912E1   3.952907574212353E-2  -4.928323009443899E1  
 3.400000000000000E9     4.542162211371324E-2   3.184143710803386E1   9.830821696443524E-1  -9.710060786338661E1   9.823042892575594E-1  -9.716783186612992E1   3.548445567901307E-2  -6.015145656836518E1  
 3.450000000000000E9     4.212895969297770E-2   2.730147138575863E1   9.827620138164127E-1  -1.038347355008980E2   9.832946702539983E-1  -1.039079410688677E2   3.210112148340028E-2  -6.996102444203169E1  
 3.500000000000000E9     3.920974558075548E-2   2.333238602105173E1   9.840862234928736E-1  -1.105806152735949E2   9.843030439419103E-1  -1.105997297741956E2   2.747285454016686E-2  -8.549682906886909E1  
 3.550000000000000E9     3.337673680731401E-2   1.981530203167117E1   9.831690241035374E-1  -1.172858286398388E2   9.848160737010632E-1  -1.174103881123739E2   2.434485223945184E-2  -9.722576109128788E1  
 3.600000000000000E9     2.965080222307166E-2   1.943739721974495E1   9.840967280717333E-1  -1.240157890811107E2   9.843537456466655E-1  -1.241241932975462E2   1.970740744967226E-2  -1.146016721800972E2  
 3.650000000000000E9     2.646424021103762E-2   1.873788192348803E1   9.854389725677130E-1  -1.307607081843166E2   9.852402781221435E-1  -1.308249692236246E2   1.964712016543823E-2  -1.411129483881057E2  
 3.700000000000000E9     2.172800964228031E-2   1.948250496486766E1   9.847146044249071E-1  -1.374733896953919E2   9.850928778540161E-1  -1.375443851719368E2   1.927589154335329E-2  -1.585802043725898E2  
 3.750000000000000E9     1.695898962165276E-2   2.265331573644277E1   9.854654473582458E-1  -1.442390506156005E2   9.846984611544458E-1  -1.442775409509374E2   2.053536088061822E-2  -1.768614200770991E2  
 3.800000000000000E9     1.375220665743436E-2   4.447692155119000E1   9.845262268272762E-1  -1.509399162880114E2   9.846828238523164E-1  -1.509752551106263E2   2.012166491141401E-2   1.635054718335755E2  
 3.850000000000000E9     1.346509493364637E-2   6.996631718161656E1   9.843746655411724E-1  -1.576645441259761E2   9.847531602433565E-1  -1.577309378989405E2   2.241691371835446E-2   1.460252512485209E2  
 3.900000000000000E9     1.691650710890592E-2   8.878420708241036E1   9.847482664849950E-1  -1.643996283278733E2   9.834220713396219E-1  -1.644777261289232E2   2.511928979088994E-2   1.331563311466383E2  
 3.950000000000000E9     2.240301760483331E-2   9.910291199498678E1   9.838020302754145E-1  -1.711333769331574E2   9.833768316732503E-1  -1.711639905243273E2   2.763214521253956E-2   1.198891530761873E2  
 4.000000000000000E9     2.835495613336804E-2   1.024140560845964E2   9.831787433409929E-1  -1.778559106907649E2   9.835414704848899E-1  -1.778772430567733E2   3.123789033448149E-2   1.067276762486945E2  
 4.050000000000000E9     3.238783851005438E-2   1.009946839700477E2   9.827722806086956E-1   1.754505219127635E2   9.832960938275298E-1   1.754017668175532E2   3.373848423949243E-2   9.916736233477933E1  
 4.100000000000000E9     3.755975624304861E-2   9.968266125882543E1   9.819225041144214E-1   1.687068841749318E2   9.826579181355194E-1   1.686649306953613E2   3.584711761155253E-2   8.815133899778886E1  
 4.150000000000000E9     4.251360448700520E-2   9.589743594362908E1   9.815358812548927E-1   1.619864640036017E2   9.818232850179635E-1   1.619278928051508E2   3.919620887894798E-2   7.978810972109484E1  
 4.200000000000000E9     4.609272472488980E-2   9.168554092374311E1   9.811006059457132E-1   1.552528614506542E2   9.817127130638426E-1   1.552409861469013E2   4.228517091871820E-2   7.077108438542915E1  
 4.250000000000000E9     4.947929238907798E-2   8.598677927747332E1   9.805714899914017E-1   1.485557701596036E2   9.811752083397992E-1   1.485280966347049E2   4.681606856430549E-2   6.282744163161794E1  
 4.300000000000000E9     5.196163385076320E-2   7.947940532986671E1   9.804821409108780E-1   1.418244576394827E2   9.807987893966152E-1   1.418345977791506E2   5.098040395014150E-2   5.794098967167187E1  
 4.350000000000000E9     5.544822103876825E-2   7.294102584344657E1   9.803501007558296E-1   1.351564971539351E2   9.807056286326110E-1   1.350717059953257E2   5.538234265153075E-2   4.971593548811247E1  
 4.400000000000000E9     5.888911167336972E-2   6.562175492874196E1   9.797232707675179E-1   1.284176066916093E2   9.796909852101400E-1   1.283985607010961E2   5.853563788909470E-2   4.420405082471255E1  
 4.450000000000000E9     5.960583795327862E-2   5.902819540201956E1   9.804741595065236E-1   1.217468803268801E2   9.807495594646798E-1   1.216757070093284E2   6.111233198442535E-2   3.713942082489870E1  
 4.500000000000000E9     6.258359651662421E-2   5.142147092253447E1   9.797307682287757E-1   1.150345475984715E2   9.801540044047350E-1   1.149778113308962E2   6.465205224578208E-2   2.997679601826240E1  
 4.550000000000000E9     6.492253406922174E-2   4.422012705059053E1   9.798765771140693E-1   1.083058599683677E2   9.803226956049096E-1   1.082778877842700E2   6.702651392069188E-2   2.405710082856075E1  
 4.600000000000000E9     6.660744335052510E-2   3.638745735159753E1   9.796416986740940E-1   1.016576446691830E2   9.808632837122213E-1   1.015986547889197E2   6.807180950184052E-2   1.607905919960842E1  
 4.650000000000000E9     6.956215181263890E-2   2.753945343164173E1   9.803571622250497E-1   9.493845133856527E1   9.812349208569436E-1   9.489796446392717E1   7.009894671285716E-2   1.067601298014953E1  
 4.700000000000000E9     7.059349143791076E-2   1.961625919347851E1   9.806607416481844E-1   8.829021797714185E1   9.812744430031161E-1   8.822086653396255E1   6.935037664842272E-2   4.821384633661863  
 4.750000000000000E9     7.437938887172720E-2   1.123190523239844E1   9.812741925625901E-1   8.158985770259643E1   9.814309400186109E-1   8.152181335223347E1   6.896429733688135E-2  -1.534695734521901  
 4.800000000000000E9     7.601215264929308E-2   4.255628850577207   9.815905763490298E-1   7.490120099452646E1   9.818121191787702E-1   7.487342999396050E1   6.647327764367626E-2  -8.052527102318486  
