#  HZ   S   MA   R     50.00 
! Rohde & Schwarz ZVA67 4Ports - Version 4.11 - 1305.7002k04 SN: 101051
! Date: 2023-05-31 11:07:16
! Measurements: S11 S21 S12 S22 
! 
 5.000000000000000E7     7.030471958212969E-3   5.075559339729702E1   9.996325353946877E-1  -6.868819049743316   1.001261508166140  -6.485617662068273   7.674079538764060E-3   5.465243724399087  
 1.000000000000000E8     3.283746676738034E-3  -4.474690414992579E1   9.987466682598227E-1  -1.350343818175664E1   1.001015405649444  -1.349690390093545E1   3.726980683026902E-3  -2.356551558702711E1  
 1.500000000000000E8     7.962471077512403E-3  -1.409523603723364E1   9.961987148688724E-1  -2.010784307872640E1   1.000158458559406  -2.021707222238024E1   8.609640936892829E-3  -3.672947637639167E1  
 2.000000000000000E8     6.238012157840783E-3  -1.898365518734051E1   9.973929163769633E-1  -2.682722522975690E1   1.000356769742562  -2.708632743411768E1   8.395540634023001E-3  -2.732847393405830E1  
 2.500000000000000E8     9.031361609381158E-3  -2.169794463860807E1   9.962986933236410E-1  -3.371429695563807E1   9.965962634083092E-1  -3.373401552092418E1   1.165024677612691E-2  -3.254037441755162E1  
 3.000000000000000E8     1.258063735401753E-2  -3.435613365753883E1   9.969652395861818E-1  -4.048416450699560E1   9.949097687811931E-1  -4.044789841290844E1   1.582018522180462E-2  -3.941830554185671E1  
 3.500000000000000E8     1.445534189001209E-2  -4.200699267135364E1   9.962781152794805E-1  -4.721657460666755E1   9.955486806303779E-1  -4.725271584956506E1   1.646126765141328E-2  -4.382959790937541E1  
 4.000000000000000E8     1.757382663096067E-2  -4.696185191068157E1   9.947191272416056E-1  -5.391968670057631E1   9.949034863421868E-1  -5.399020411248876E1   2.054561261549230E-2  -4.702705430219366E1  
 4.500000000000000E8     1.732952455307545E-2  -5.283590010539085E1   9.943563192613431E-1  -6.067466486672733E1   9.951640135340614E-1  -6.068213245024654E1   2.301785697169572E-2  -5.289104318322175E1  
 5.000000000000000E8     1.807882690570664E-2  -6.161978025975427E1   9.936715749299864E-1  -6.746971696641684E1   9.945895415681277E-1  -6.740374234225743E1   2.377886618437271E-2  -6.632035323018980E1  
 5.500000000000000E8     1.505689723675708E-2  -7.597358615740036E1   9.932458653864726E-1  -7.415172192311167E1   9.942840935806757E-1  -7.415999396244814E1   2.506274767143399E-2  -7.390367534252015E1  
 6.000000000000000E8     1.407546627269551E-2  -9.293115016823295E1   9.938584268860121E-1  -8.093266764256416E1   9.929266451737641E-1  -8.091442651238435E1   2.706310118314089E-2  -8.605917636010578E1  
 6.500000000000000E8     1.242081323308550E-2  -1.039411933149807E2   9.925024702467395E-1  -8.761168066044607E1   9.932770839898316E-1  -8.767077876146765E1   3.008426776074288E-2  -9.922050888650867E1  
 7.000000000000000E8     1.094223311785886E-2  -1.362292178639802E2   9.920854919735997E-1  -9.436749893713741E1   9.919987698289848E-1  -9.442361437824042E1   3.040083716029738E-2  -1.148159670903452E2  
 7.500000000000000E8     9.022993194339564E-3  -1.753508729707080E2   9.917013088563648E-1  -1.011033918185924E2   9.921867538171846E-1  -1.011507087153482E2   3.110175921387825E-2  -1.294577505507214E2  
 8.000000000000000E8     1.283870430837788E-2   1.477397295239631E2   9.911539747132185E-1  -1.078165879116992E2   9.913207146148690E-1  -1.078428624773683E2   3.059049167857299E-2  -1.470509303945341E2  
 8.500000000000000E8     1.578033808194728E-2   1.290350425276336E2   9.910860115495402E-1  -1.145915521657287E2   9.906095738324201E-1  -1.146547240400013E2   3.402776539471739E-2  -1.604031322705310E2  
 9.000000000000000E8     1.985734114964495E-2   1.099479256606392E2   9.899108733121893E-1  -1.213529400940867E2   9.898221176337095E-1  -1.213358831810070E2   3.717550263565288E-2  -1.726114800429637E2  
 9.500000000000000E8     2.418611738396266E-2   1.029826432079765E2   9.892321473926132E-1  -1.280703114644231E2   9.889823876406183E-1  -1.280988580284984E2   3.970527384104941E-2   1.765720300359340E2  
 1.000000000000000E9     2.771277981092500E-2   9.694198558428825E1   9.888915472970234E-1  -1.348078342477606E2   9.884717199694624E-1  -1.348404743284648E2   4.114985937386530E-2   1.653651588172302E2  
 1.050000000000000E9     2.997417848114284E-2   9.072927909626202E1   9.883165627421134E-1  -1.415384294171267E2   9.883594161352158E-1  -1.415856182762591E2   4.190330075004647E-2   1.573058561489638E2  
 1.100000000000000E9     3.239553689451161E-2   8.402662607179148E1   9.879830541991547E-1  -1.483178117498817E2   9.876169121407930E-1  -1.482979300157830E2   4.288111173755767E-2   1.465457424112035E2  
 1.150000000000000E9     3.532090286593937E-2   7.799527180526334E1   9.872625079695361E-1  -1.549950743243926E2   9.867041589830122E-1  -1.550259414167489E2   4.352815352176758E-2   1.379784848693784E2  
 1.200000000000000E9     3.691399695507257E-2   7.291370255301392E1   9.869142695232712E-1  -1.617418204453089E2   9.869096547141975E-1  -1.617792395787257E2   4.349644283155995E-2   1.280314221974628E2  
 1.250000000000000E9     3.680017106816713E-2   6.794555516123759E1   9.867867819250453E-1  -1.685012893000373E2   9.863894685504914E-1  -1.685232634439779E2   4.114869993863911E-2   1.224735088797149E2  
 1.300000000000000E9     3.647695582069489E-2   6.137696456448818E1   9.859957059607303E-1  -1.752194567993328E2   9.864329442554091E-1  -1.752578237180309E2   3.916841753500310E-2   1.157642861563986E2  
 1.350000000000000E9     3.695174419570679E-2   5.647103245665964E1   9.865151747365081E-1   1.780307111631122E2   9.863643369439881E-1   1.780420427157391E2   3.674735018687803E-2   1.099467615107047E2  
 1.400000000000000E9     3.503019778042387E-2   5.098965842721741E1   9.860626942956668E-1   1.713656908781795E2   9.855377064947045E-1   1.713191213069958E2   3.397778801489747E-2   1.039996624842024E2  
 1.450000000000000E9     3.390514091973989E-2   4.461324110682866E1   9.864294787847936E-1   1.646545518106863E2   9.859334506337526E-1   1.645965607599063E2   3.103883429132500E-2   1.012484510833976E2  
 1.500000000000000E9     3.182833470525415E-2   3.910999243053198E1   9.858266979690208E-1   1.579136216538849E2   9.863613818589724E-1   1.578878876449062E2   2.759113094268962E-2   9.822380913567250E1  
 1.550000000000000E9     3.009070910331729E-2   3.175127792150460E1   9.864136348793672E-1   1.512330329328160E2   9.865757093723182E-1   1.511416823311680E2   2.436341475359858E-2   9.822639186238094E1  
 1.600000000000000E9     2.824443457341892E-2   2.207319695376815E1   9.865217523608371E-1   1.444903556334118E2   9.866432654992904E-1   1.444652900968535E2   2.146648072887493E-2   9.959923106636907E1  
 1.650000000000000E9     2.637103038204296E-2   1.181352897707311E1   9.868055680732494E-1   1.377915878616294E2   9.872304660279994E-1   1.377669905980864E2   2.029708926862869E-2   1.028366017576757E2  
 1.700000000000000E9     2.448169481955475E-2  -3.482806867040106E-1   9.872119579721157E-1   1.310821810474861E2   9.869366628519213E-1   1.310926354131418E2   1.927790720878963E-2   1.107814377671104E2  
 1.750000000000000E9     2.378002396369561E-2  -1.789561078417034E1   9.878792563675126E-1   1.244118238507574E2   9.875650094612815E-1   1.243735272886628E2   1.974195862011740E-2   1.154169251858487E2  
 1.800000000000000E9     2.473424067489538E-2  -3.299573444110453E1   9.875066070794135E-1   1.177282261042565E2   9.877723787680335E-1   1.176844335401102E2   1.947379761082639E-2   1.186555305530892E2  
 1.850000000000000E9     2.710525427834462E-2  -4.746603137088844E1   9.879534223935862E-1   1.110224474157002E2   9.876508169357100E-1   1.109824003371278E2   2.016574751218827E-2   1.140624242996191E2  
 1.900000000000000E9     2.978822727986553E-2  -6.290776018386529E1   9.875862477432740E-1   1.043451097554573E2   9.881460454267376E-1   1.042842210679534E2   2.082199232919214E-2   1.178620149691236E2  
 1.950000000000000E9     3.348638537553663E-2  -7.490768693298659E1   9.875164862005110E-1   9.766559684550239E1   9.882080040185294E-1   9.760606620104018E1   2.149205396236159E-2   1.113738280547096E2  
 2.000000000000000E9     3.805718784150388E-2  -8.634127392416285E1   9.876769829322701E-1   9.095734985867243E1   9.875620854588907E-1   9.091102870502269E1   2.351569435129603E-2   1.047454681931111E2  
 2.050000000000000E9     4.329883785092607E-2  -9.462924942335900E1   9.878277612809240E-1   8.421014501887572E1   9.885174206964279E-1   8.422047811900184E1   2.414876783252495E-2   9.693455177115725E1  
 2.100000000000000E9     4.666636680914357E-2  -1.033988631506735E2   9.881792372853711E-1   7.759484088600691E1   9.874813794946180E-1   7.756120331402696E1   2.463488355682300E-2   9.270965407820340E1  
 2.150000000000000E9     5.100866010747959E-2  -1.111652168004830E2   9.877048550877257E-1   7.086780249635939E1   9.875016000133090E-1   7.083121848259178E1   2.605372326690960E-2   8.698152245252351E1  
 2.200000000000000E9     5.493603754309379E-2  -1.184720165965240E2   9.871419933608248E-1   6.422273239752987E1   9.883086188858045E-1   6.420227056543239E1   2.664773429776143E-2   8.013255791493073E1  
 2.250000000000000E9     5.703291369988967E-2  -1.248233449609280E2   9.874765843111478E-1   5.751649358903934E1   9.876319593634442E-1   5.745262172976361E1   2.746833776646570E-2   7.290159520350402E1  
 2.300000000000000E9     5.734964328389974E-2  -1.314892421221681E2   9.871759489838707E-1   5.083752373776259E1   9.867361310583441E-1   5.076928931374966E1   2.960728713011247E-2   6.994151755314299E1  
 2.350000000000000E9     5.781185696337238E-2  -1.380310385343209E2   9.864926887204979E-1   4.412053496356175E1   9.864143777143482E-1   4.408501971328489E1   3.139732387417830E-2   6.559370617405283E1  
 2.400000000000000E9     5.702185459067618E-2  -1.446661223181056E2   9.867253457544258E-1   3.739455898567848E1   9.860045936677792E-1   3.739715998479839E1   3.396092531674892E-2   6.271727908312888E1  
 2.450000000000000E9     5.652565382381861E-2  -1.511661939028263E2   9.866341716464845E-1   3.073228224644901E1   9.858806719163441E-1   3.062648636895006E1   3.481862944968894E-2   5.894331375393169E1  
 2.500000000000000E9     5.435204972747294E-2  -1.588132052979634E2   9.858316206747630E-1   2.397251162975010E1   9.855279679224276E-1   2.396240294916260E1   3.806571847529632E-2   5.686703708120708E1  
 2.550000000000000E9     5.135100013903161E-2  -1.665812671781265E2   9.856190238008860E-1   1.725241395823164E1   9.850107079818652E-1   1.725152947856559E1   3.921708088640978E-2   5.304219431588430E1  
 2.600000000000000E9     4.908841991082984E-2  -1.765643010441503E2   9.856041053785085E-1   1.059744057339832E1   9.846504941476161E-1   1.051164549629246E1   4.189270432785883E-2   5.083494832989641E1  
 2.650000000000000E9     4.628258859799394E-2   1.735451629796925E2   9.850693782491632E-1   3.840027782148501   9.851120457035515E-1   3.846815031313049   4.290309180875613E-2   4.719508840460170E1  
 2.700000000000000E9     4.394392000039055E-2   1.635592513804909E2   9.841234305395317E-1  -2.881756723954989   9.846472732238424E-1  -2.884343141761614   4.447476340296017E-2   4.248922763948857E1  
 2.750000000000000E9     4.261503585466355E-2   1.500265125083668E2   9.844418419674255E-1  -9.568418664882138   9.836815376312067E-1  -9.621940028007362   4.651751344253578E-2   3.826411087160552E1  
 2.800000000000000E9     4.133916950589572E-2   1.376734552123317E2   9.838760428183341E-1  -1.632528254995523E1   9.830627973063135E-1  -1.639577869464619E1   4.786415615041462E-2   3.199423668127570E1  
 2.850000000000000E9     4.214143722056283E-2   1.228312579021705E2   9.831906987059963E-1  -2.305395541274316E1   9.833115435917724E-1  -2.310523065434095E1   4.969906634883985E-2   2.579360610627528E1  
 2.900000000000000E9     4.490037063455156E-2   1.102142991070090E2   9.835517099286980E-1  -2.982026157872426E1   9.832154656673312E-1  -2.981989638677503E1   5.039563013615964E-2   1.981536760951512E1  
 2.950000000000000E9     4.500631545769548E-2   9.783155381438705E1   9.823259999015698E-1  -3.657840459082643E1   9.827312081900393E-1  -3.660489627916311E1   5.199694288461195E-2   1.204882970516094E1  
 3.000000000000000E9     4.616435343327119E-2   8.736281776626912E1   9.827903763015166E-1  -4.330399367601217E1   9.820329733073935E-1  -4.335423096653115E1   5.130622943728307E-2   6.630770538334032  
 3.050000000000000E9     4.717735989243757E-2   7.743097821878455E1   9.822798658408241E-1  -5.002839763634374E1   9.827110974892844E-1  -5.006639065871685E1   5.108182415872584E-2  -1.574444038625710  
 3.100000000000000E9     5.001507096134526E-2   6.772291321423471E1   9.815028539252428E-1  -5.672121124041931E1   9.814372729373238E-1  -5.682796303685458E1   5.065612455591224E-2  -8.480470627464563  
 3.150000000000000E9     5.042389946249006E-2   6.029913620775594E1   9.816704259663788E-1  -6.351055419868354E1   9.816351962347143E-1  -6.355167340827385E1   4.966134589011823E-2  -1.599015619937926E1  
 3.200000000000000E9     5.177152415994736E-2   5.318634554064547E1   9.815666808375101E-1  -7.023249975790196E1   9.823915642704046E-1  -7.026017080006307E1   4.814734832430697E-2  -2.381913406034632E1  
 3.250000000000000E9     5.186568563938317E-2   4.711010491507502E1   9.819628153114526E-1  -7.688997363281948E1   9.816931514575283E-1  -7.704813590662118E1   4.506208801606397E-2  -3.128903920042167E1  
 3.300000000000000E9     4.959447051817282E-2   4.109703984521094E1   9.827725348037035E-1  -8.365238734410382E1   9.823632737552184E-1  -8.371479918902882E1   4.305939524981618E-2  -4.120524069790228E1  
 3.350000000000000E9     4.888457474403851E-2   3.550839258460685E1   9.829278892841639E-1  -9.039581853296512E1   9.826277638706294E-1  -9.043183655552072E1   3.937446150752312E-2  -4.942366047339254E1  
 3.400000000000000E9     4.524272433705850E-2   3.199618274645590E1   9.834208662164925E-1  -9.706491895527995E1   9.820580068499293E-1  -9.711444058678879E1   3.571674904709705E-2  -5.958768350155648E1  
 3.450000000000000E9     4.203317691600609E-2   2.710913554587133E1   9.829788162643818E-1  -1.038209962011460E2   9.831957059886313E-1  -1.038648600131653E2   3.207108135815671E-2  -7.022128950025478E1  
 3.500000000000000E9     3.919869373473800E-2   2.317985896880030E1   9.841137636627739E-1  -1.105448250792175E2   9.848015977264487E-1  -1.106166614808421E2   2.725546079446918E-2  -8.558797101388619E1  
 3.550000000000000E9     3.347077772843130E-2   2.022004812381828E1   9.830366864927317E-1  -1.172930480928604E2   9.852163672909445E-1  -1.173518165261046E2   2.432329081727190E-2  -9.693658288097382E1  
 3.600000000000000E9     2.956962270959075E-2   1.945079861150864E1   9.846710156601936E-1  -1.240298242530706E2   9.847009138938283E-1  -1.240900999098054E2   1.965001997553557E-2  -1.153360517718334E2  
 3.650000000000000E9     2.667341782103425E-2   1.896668259787741E1   9.852756436419020E-1  -1.307241830542968E2   9.848568476820335E-1  -1.308160317471858E2   1.961169560617212E-2  -1.409851414542701E2  
 3.700000000000000E9     2.189739818202846E-2   1.976138928920300E1   9.849771630028288E-1  -1.375161288350024E2   9.848953213148634E-1  -1.375488153867254E2   1.928204377351117E-2  -1.585483273773807E2  
 3.750000000000000E9     1.666989949910703E-2   2.248906679788011E1   9.849159436036833E-1  -1.442582311379462E2   9.852375648496228E-1  -1.442707085458689E2   2.043449883832708E-2  -1.767481077268281E2  
 3.800000000000000E9     1.365113216828694E-2   4.477515853299374E1   9.849422404831107E-1  -1.509533828420612E2   9.843926901463680E-1  -1.509850476158109E2   2.021319780705542E-2   1.632129135624690E2  
 3.850000000000000E9     1.366392738249972E-2   6.986829904844308E1   9.841163025635837E-1  -1.576889963088708E2   9.842333995615422E-1  -1.577042146442542E2   2.251446319781170E-2   1.453284094317884E2  
 3.900000000000000E9     1.710137152785788E-2   8.897751706635701E1   9.846063256768727E-1  -1.644045513556018E2   9.833989605859577E-1  -1.644485110409336E2   2.534166367793153E-2   1.335450394429054E2  
 3.950000000000000E9     2.238864769928101E-2   9.884398140386028E1   9.834807134625513E-1  -1.711625627640045E2   9.840059361827258E-1  -1.711432876874648E2   2.747599248415444E-2   1.198611807189379E2  
 4.000000000000000E9     2.846984825885074E-2   1.019942018441954E2   9.835592863667558E-1  -1.778776465716599E2   9.834277286189862E-1  -1.778410778021072E2   3.098248085310749E-2   1.067520203579477E2  
 4.050000000000000E9     3.245814386050781E-2   1.008439175361122E2   9.826066421396204E-1   1.754831152716795E2   9.837485569896410E-1   1.754064181943425E2   3.384724346728536E-2   9.913750659085618E1  
 4.100000000000000E9     3.751347744430702E-2   9.955819241799429E1   9.819890903459619E-1   1.687241856913967E2   9.823662950380927E-1   1.686812003289123E2   3.579820086151837E-2   8.803385394006304E1  
 4.150000000000000E9     4.245746747270195E-2   9.587132872929915E1   9.814632955491428E-1   1.619993756120842E2   9.816243919148505E-1   1.619499123107991E2   3.919516800759033E-2   7.960253077187186E1  
 4.200000000000000E9     4.604784392146975E-2   9.156791447598820E1   9.814666103880976E-1   1.552899712095015E2   9.816762594487486E-1   1.552092935050785E2   4.221464044539997E-2   7.058848421098922E1  
 4.250000000000000E9     4.948692603095674E-2   8.594630156998714E1   9.805144697416204E-1   1.485705963563360E2   9.811332342490103E-1   1.485253473393213E2   4.687781042653098E-2   6.269208071079759E1  
 4.300000000000000E9     5.189553242089810E-2   7.953407327979170E1   9.803256349188866E-1   1.418413930291159E2   9.807260419564406E-1   1.418657748453596E2   5.098545015749532E-2   5.781342318555785E1  
 4.350000000000000E9     5.537013211149308E-2   7.291149217977780E1   9.801369465496443E-1   1.351570387275397E2   9.806253478885917E-1   1.350971352342995E2   5.524914247088825E-2   4.984741459469642E1  
 4.400000000000000E9     5.890215185695904E-2   6.567713751936280E1   9.804435117684416E-1   1.284385416835710E2   9.804348019757486E-1   1.284029068778897E2   5.851203226399816E-2   4.413884009486605E1  
 4.450000000000000E9     5.956378077949853E-2   5.909881320924941E1   9.799000555559265E-1   1.217751999576987E2   9.806624838322462E-1   1.216946472706087E2   6.118056192991049E-2   3.707068094366586E1  
 4.500000000000000E9     6.249362110390841E-2   5.142801865346391E1   9.799300611176065E-1   1.150754266744565E2   9.798963254932620E-1   1.150127517193013E2   6.453314473602072E-2   3.002841463800257E1  
 4.550000000000000E9     6.498912054603132E-2   4.423745810259615E1   9.797083479023332E-1   1.083279260477404E2   9.806764805748066E-1   1.082981971834034E2   6.733329811625052E-2   2.396594607277785E1  
 4.600000000000000E9     6.660060283891155E-2   3.643500677587315E1   9.801407687850537E-1   1.016605979902766E2   9.809426788376682E-1   1.016241477952761E2   6.800576826054419E-2   1.600402468775829E1  
 4.650000000000000E9     6.978870270661026E-2   2.761085176706281E1   9.806556863909693E-1   9.499311820030098E1   9.812231325637216E-1   9.491639358411798E1   7.036291110056904E-2   1.063034435561350E1  
 4.700000000000000E9     7.053730568329135E-2   1.969907837384079E1   9.808520295700097E-1   8.832001849630437E1   9.808969683997111E-1   8.825882959974273E1   6.943218682810697E-2   4.847030561686444  
 4.750000000000000E9     7.419595583931897E-2   1.129534185358870E1   9.811156368808106E-1   8.158394607129881E1   9.815223743376282E-1   8.154856432191806E1   6.900836800160162E-2  -1.775622474821622  
 4.800000000000000E9     7.598031205061179E-2   4.352368344018175   9.819513346856864E-1   7.492196889566216E1   9.818130477297237E-1   7.488956654593628E1   6.663381428657283E-2  -8.095877364900305  
