#  HZ   S   MA   R     50.00 
! Rohde & Schwarz ZVA67 4Ports - Version 4.11 - 1305.7002k04 SN: 101051
! Date: 2023-05-31 11:08:05
! Measurements: S11 S21 S12 S22 
! 
 5.000000000000000E7     6.277971996542397E-3   4.864656731719474E1   1.003575889477420  -6.878959654309984   9.968698860249456E-1  -6.327419247568663   9.363971605786652E-3   4.873360568261276  
 1.000000000000000E8     3.138412100888406E-3  -3.711008077019513E1   9.999207894153698E-1  -1.340239129366994E1   9.992961690675827E-1  -1.365869996902357E1   3.801873533415719E-3  -2.047490260468358E1  
 1.500000000000000E8     7.865040550972174E-3  -1.382555590864731E1   9.983058928098867E-1  -2.025250080912532E1   9.955774150428021E-1  -2.023594342054794E1   8.225052578209720E-3  -3.526163419175848E1  
 2.000000000000000E8     6.677298498278915E-3  -1.752889991184847E1   9.960183126094936E-1  -2.692110020995152E1   1.001008879173850  -2.703766438983778E1   8.499725953967936E-3  -2.871103596837421E1  
 2.500000000000000E8     9.168703475899822E-3  -2.285229993615934E1   9.952150214401597E-1  -3.363904427771788E1   9.956049666775710E-1  -3.377300219457337E1   1.209793828702765E-2  -3.435823932464514E1  
 3.000000000000000E8     1.264037679458609E-2  -3.477926618787120E1   9.962300762578282E-1  -4.049861889218801E1   9.951204294151527E-1  -4.049120112910399E1   1.586748045434533E-2  -3.938945055498077E1  
 3.500000000000000E8     1.478075696398656E-2  -4.226806130590210E1   9.944649204513174E-1  -4.722530332538010E1   9.939669086950219E-1  -4.721305631530597E1   1.623104091983953E-2  -4.336042097490805E1  
 4.000000000000000E8     1.770488439276980E-2  -4.673999385843052E1   9.940737312410992E-1  -5.389524605190086E1   9.949576761719341E-1  -5.398526279713533E1   2.074285405808312E-2  -4.628579288471840E1  
 4.500000000000000E8     1.722111016220729E-2  -5.339271966040920E1   9.942882826308825E-1  -6.064256995435797E1   9.941516680268697E-1  -6.068359822147117E1   2.299040649533799E-2  -5.266076571670578E1  
 5.000000000000000E8     1.799551966944765E-2  -6.149911341397672E1   9.940102259418545E-1  -6.745188065456723E1   9.940360787713026E-1  -6.738158486846605E1   2.386987239660386E-2  -6.639445938724595E1  
 5.500000000000000E8     1.532006954238958E-2  -7.630348375010914E1   9.933945312020948E-1  -7.415088619977701E1   9.939099763761343E-1  -7.416728811635875E1   2.503415379773372E-2  -7.373180975714463E1  
 6.000000000000000E8     1.409829137757065E-2  -9.250296137250807E1   9.936865262447954E-1  -8.092922212370192E1   9.930115197410969E-1  -8.096012213171778E1   2.722824523128470E-2  -8.599298214721431E1  
 6.500000000000000E8     1.257234694642719E-2  -1.038202388817212E2   9.922886783759138E-1  -8.762490806406036E1   9.933724431672798E-1  -8.766878837317795E1   3.017792986044928E-2  -9.899983036669772E1  
 7.000000000000000E8     1.099867335224612E-2  -1.349643391260638E2   9.924223982547371E-1  -9.439564757755993E1   9.924190040528991E-1  -9.440409041488141E1   3.038877210441906E-2  -1.150179979851399E2  
 7.500000000000000E8     9.067055113119024E-3  -1.750601805624296E2   9.912040314869289E-1  -1.011027341222718E2   9.918148479707042E-1  -1.011358362895500E2   3.120053680967023E-2  -1.294433116053567E2  
 8.000000000000000E8     1.272400750021846E-2   1.483968542958201E2   9.911979996265035E-1  -1.078290738644756E2   9.908649662065766E-1  -1.078407655403344E2   3.066307252228615E-2  -1.467175251678854E2  
 8.500000000000000E8     1.572736072391318E-2   1.297324238800926E2   9.912116017080167E-1  -1.146014103620839E2   9.903493732307471E-1  -1.146321427611142E2   3.429402585578838E-2  -1.600983920444130E2  
 9.000000000000000E8     1.979410988175938E-2   1.102234933912761E2   9.898722211101559E-1  -1.213243512731892E2   9.896049057210725E-1  -1.213471247653235E2   3.720005430849772E-2  -1.724125235433880E2  
 9.500000000000000E8     2.401873489023021E-2   1.031264047711187E2   9.890528929422974E-1  -1.280595948169498E2   9.889874782824574E-1  -1.280897416665756E2   3.982945062442451E-2   1.767303914310162E2  
 1.000000000000000E9     2.756316517047397E-2   9.685550265336424E1   9.888918275774128E-1  -1.347919956382673E2   9.883338752244850E-1  -1.348266544749845E2   4.108927909819586E-2   1.655354242578069E2  
 1.050000000000000E9     2.992760432655744E-2   9.098104419180410E1   9.884773149128413E-1  -1.415357532922639E2   9.882427842854485E-1  -1.415717116959247E2   4.202056024299674E-2   1.573767716418773E2  
 1.100000000000000E9     3.224014793579490E-2   8.431303020757571E1   9.877739043963457E-1  -1.483016283854797E2   9.877093627612454E-1  -1.482858148978520E2   4.287055055592687E-2   1.469117380356734E2  
 1.150000000000000E9     3.514949435851286E-2   7.807255974047838E1   9.867371253236017E-1  -1.550059278954744E2   9.868586572497752E-1  -1.550277390100146E2   4.341164968389207E-2   1.379863009527758E2  
 1.200000000000000E9     3.676084565811843E-2   7.295110652886730E1   9.868832583303749E-1  -1.617481735265923E2   9.864958065781110E-1  -1.617900272258621E2   4.351881879529273E-2   1.280013373065749E2  
 1.250000000000000E9     3.663949686017990E-2   6.828702456698289E1   9.863224394922694E-1  -1.685043121566653E2   9.860533983170142E-1  -1.684883214279334E2   4.117890505004463E-2   1.226502252235854E2  
 1.300000000000000E9     3.648686347844177E-2   6.144137906919288E1   9.859577707326885E-1  -1.752086311143875E2   9.863090532543675E-1  -1.752593916652661E2   3.922724921495917E-2   1.160133078493200E2  
 1.350000000000000E9     3.695989468553226E-2   5.662602977436505E1   9.861844749405937E-1   1.780810292164610E2   9.858468606019909E-1   1.780420167227311E2   3.691455983114401E-2   1.100582134336191E2  
 1.400000000000000E9     3.497098084662866E-2   5.091788509393126E1   9.859350133306989E-1   1.713405747366012E2   9.859317176689735E-1   1.713306569371039E2   3.395634096409075E-2   1.041087366523998E2  
 1.450000000000000E9     3.378584571540663E-2   4.479853222808305E1   9.860157199786473E-1   1.646424009947685E2   9.859327366924110E-1   1.645760940601579E2   3.116255657600896E-2   1.014596666746163E2  
 1.500000000000000E9     3.174182968169589E-2   3.923775660227258E1   9.859353642993436E-1   1.579153505242573E2   9.862888282254118E-1   1.579166026644042E2   2.767527250775121E-2   9.865164258005437E1  
 1.550000000000000E9     3.002677108637486E-2   3.195817235670635E1   9.862039315520133E-1   1.512263203898776E2   9.865456799476520E-1   1.511616221581222E2   2.451472340837081E-2   9.820419317728752E1  
 1.600000000000000E9     2.816407819379563E-2   2.200584277649655E1   9.863368631288714E-1   1.445064716005348E2   9.867846906299730E-1   1.444760704632014E2   2.145933056956052E-2   9.972572252114993E1  
 1.650000000000000E9     2.626420289295232E-2   1.226521723211119E1   9.870312690844838E-1   1.377904199279262E2   9.868262708952417E-1   1.377827118017707E2   2.033015814424076E-2   1.032917776899178E2  
 1.700000000000000E9     2.439634739090223E-2  -3.834222440782327E-1   9.871720860373122E-1   1.310803846573494E2   9.870952624603746E-1   1.310772542510249E2   1.942464195968577E-2   1.107749392998661E2  
 1.750000000000000E9     2.375282848380983E-2  -1.785948825915391E1   9.875508525527872E-1   1.244213594294520E2   9.874019527068570E-1   1.243870026837342E2   1.979043120136399E-2   1.154512373887196E2  
 1.800000000000000E9     2.451918310280797E-2  -3.286229010567796E1   9.875108458511065E-1   1.177276533944590E2   9.877100161175412E-1   1.176892444836479E2   1.955520110009864E-2   1.184575236698523E2  
 1.850000000000000E9     2.703058086831275E-2  -4.739758336318209E1   9.882316359929020E-1   1.110203855258730E2   9.872543977990910E-1   1.109606267716435E2   2.036231278890927E-2   1.139779574486254E2  
 1.900000000000000E9     2.975663680495134E-2  -6.293608512111568E1   9.877354273845274E-1   1.043126394991839E2   9.879849332412580E-1   1.042978958083924E2   2.103995889466032E-2   1.174603115196058E2  
 1.950000000000000E9     3.344134017639944E-2  -7.477599095049636E1   9.875928885753847E-1   9.769236498690955E1   9.879598026907330E-1   9.762186325158852E1   2.162594824483580E-2   1.116115861264863E2  
 2.000000000000000E9     3.791135104295586E-2  -8.636677010105871E1   9.874933086638563E-1   9.098487399576847E1   9.877572789990755E-1   9.092256541974950E1   2.366059556838844E-2   1.047916008390841E2  
 2.050000000000000E9     4.317424499505125E-2  -9.463059466213466E1   9.879936577743635E-1   8.422255915740560E1   9.880147787863317E-1   8.425004063053322E1   2.415640502905781E-2   9.673822146114802E1  
 2.100000000000000E9     4.669780911459528E-2  -1.035435937285206E2   9.878929269704897E-1   7.758556469691496E1   9.873210125730580E-1   7.756173896032929E1   2.477489800227567E-2   9.284909375592345E1  
 2.150000000000000E9     5.091358230624742E-2  -1.111884313706307E2   9.871697242553221E-1   7.089063722826003E1   9.872413813554221E-1   7.083692604813807E1   2.609110706175812E-2   8.694220720767132E1  
 2.200000000000000E9     5.470266045971959E-2  -1.184185854238570E2   9.871127513726826E-1   6.417402957458671E1   9.879769439488292E-1   6.419237559980394E1   2.660608181520923E-2   8.025199684853716E1  
 2.250000000000000E9     5.686112416901533E-2  -1.248136539792122E2   9.875131518891517E-1   5.752726482097386E1   9.874325855521562E-1   5.744495068725845E1   2.770576218684052E-2   7.332091085484498E1  
 2.300000000000000E9     5.724565802835210E-2  -1.315495329018680E2   9.865114927866294E-1   5.082435579343555E1   9.859271636702364E-1   5.077530947009885E1   2.927979735066883E-2   7.015947982852107E1  
 2.350000000000000E9     5.767848595577045E-2  -1.380234007475202E2   9.863537401116648E-1   4.413458560197223E1   9.865240688384552E-1   4.404610531030661E1   3.157255776581954E-2   6.525457788871772E1  
 2.400000000000000E9     5.698407049940611E-2  -1.447364559892070E2   9.864505810810934E-1   3.740214390377428E1   9.858705428992858E-1   3.741670944449442E1   3.405320758657095E-2   6.267237880465989E1  
 2.450000000000000E9     5.660666235489988E-2  -1.512367912822325E2   9.861707724987123E-1   3.070634050228444E1   9.861792012659367E-1   3.068482635512428E1   3.484391353443997E-2   5.894798942688912E1  
 2.500000000000000E9     5.423313536638164E-2  -1.588945506291786E2   9.861631827607528E-1   2.400294603999837E1   9.855601242515947E-1   2.394917499670051E1   3.799784223866232E-2   5.679574997084766E1  
 2.550000000000000E9     5.125954063899230E-2  -1.664036492846240E2   9.861718699339090E-1   1.727320786290307E1   9.853088531588899E-1   1.726575886357539E1   3.925459769745140E-2   5.291258796114486E1  
 2.600000000000000E9     4.886253794771430E-2  -1.765772086128160E2   9.850918276641767E-1   1.058272694172415E1   9.847139242608938E-1   1.053447718999151E1   4.204879900464267E-2   5.082093023561861E1  
 2.650000000000000E9     4.610524301853672E-2   1.736718801833663E2   9.838613100403961E-1   3.897721591278419   9.848862555059240E-1   3.827768750445897   4.278933953461040E-2   4.731135606276813E1  
 2.700000000000000E9     4.381584649558541E-2   1.634246699214461E2   9.846122461211967E-1  -2.892677429105256   9.842733650364020E-1  -2.916830348018478   4.451508160398554E-2   4.236320706996198E1  
 2.750000000000000E9     4.240366268467495E-2   1.497637893807397E2   9.842308258714768E-1  -9.585645145745625   9.835790732133686E-1  -9.640868860094333   4.645531608389446E-2   3.808592121091820E1  
 2.800000000000000E9     4.130338550318888E-2   1.373826556687283E2   9.835667534515605E-1  -1.633831179401938E1   9.829717795880871E-1  -1.635982582329353E1   4.807687663482969E-2   3.202900260002713E1  
 2.850000000000000E9     4.213094667529485E-2   1.227829513023290E2   9.831159799400919E-1  -2.302906521021683E1   9.829502410828709E-1  -2.311208750622008E1   4.978766003537898E-2   2.570001036054176E1  
 2.900000000000000E9     4.481051973766101E-2   1.101469805584595E2   9.824253481679339E-1  -2.978333135097683E1   9.838052512794242E-1  -2.979824078842285E1   5.047927655760010E-2   1.965973960723493E1  
 2.950000000000000E9     4.507205099255519E-2   9.765927801441454E1   9.830232365513688E-1  -3.655583013720036E1   9.827585984747007E-1  -3.659246924990600E1   5.178040110685850E-2   1.187003766734188E1  
 3.000000000000000E9     4.600709821330686E-2   8.698953768601317E1   9.828217636179425E-1  -4.327907318407154E1   9.819816747937286E-1  -4.332357476966018E1   5.129019621410681E-2   6.526078829169970  
 3.050000000000000E9     4.695737271795479E-2   7.717503897797624E1   9.809958162189157E-1  -5.000094481401498E1   9.821261973456852E-1  -5.005955200617849E1   5.098164196913364E-2  -1.519814285692538  
 3.100000000000000E9     5.004910778860222E-2   6.768274336452133E1   9.820521534199077E-1  -5.675414022494167E1   9.812776134375670E-1  -5.680975128225785E1   5.056680956759067E-2  -8.488076002618445  
 3.150000000000000E9     5.033207674587887E-2   6.022621214660335E1   9.812067787234212E-1  -6.350666902473365E1   9.809978042662823E-1  -6.355929069777430E1   4.972007286022473E-2  -1.585342270401879E1  
 3.200000000000000E9     5.173097564371196E-2   5.323824806637890E1   9.814868546168726E-1  -7.019717305130628E1   9.823820827727566E-1  -7.024171123716083E1   4.843688356847500E-2  -2.392915130162827E1  
 3.250000000000000E9     5.193790779665427E-2   4.688534507294407E1   9.824902267281486E-1  -7.694373543306242E1   9.817679115424046E-1  -7.703280562503856E1   4.516212119149684E-2  -3.125915986845989E1  
 3.300000000000000E9     4.958968464998608E-2   4.115640644004418E1   9.819478607936294E-1  -8.363187628328303E1   9.817644152175749E-1  -8.371310866741050E1   4.301941390830704E-2  -4.102471566512562E1  
 3.350000000000000E9     4.899184738825025E-2   3.543851891881853E1   9.829580716925308E-1  -9.039246733144731E1   9.823608776780216E-1  -9.040346949092634E1   3.951044458689523E-2  -4.933222450009629E1  
 3.400000000000000E9     4.524763132983380E-2   3.171753748463715E1   9.829349389554377E-1  -9.705520591741835E1   9.821662284903781E-1  -9.718505595212584E1   3.569405594254877E-2  -6.011387972074200E1  
 3.450000000000000E9     4.203225071177683E-2   2.726880079429046E1   9.830555683208004E-1  -1.037917566024059E2   9.836208704304854E-1  -1.038495552103313E2   3.232995527973992E-2  -7.028795787554039E1  
 3.500000000000000E9     3.929234465283508E-2   2.324281716574811E1   9.839165424314357E-1  -1.105582779164775E2   9.844617996300967E-1  -1.106078937910379E2   2.748202345683088E-2  -8.578037462418764E1  
 3.550000000000000E9     3.348538156891136E-2   1.980915810801462E1   9.833470112408812E-1  -1.173056390189371E2   9.845891067080455E-1  -1.174006869393120E2   2.434720051028431E-2  -9.718871608312854E1  
 3.600000000000000E9     2.941169623515597E-2   1.917435559450821E1   9.844346034338781E-1  -1.239867603101433E2   9.843189503145043E-1  -1.240780889254188E2   1.987312633153331E-2  -1.149368969692863E2  
 3.650000000000000E9     2.642815473380674E-2   1.880630387263132E1   9.851696508530003E-1  -1.307378434308499E2   9.846811870160503E-1  -1.307965047209447E2   1.978119593664911E-2  -1.405955767916695E2  
 3.700000000000000E9     2.181792116618459E-2   1.911928074241829E1   9.845006972606960E-1  -1.374572202961361E2   9.849467437195687E-1  -1.375364286123332E2   1.935314239706114E-2  -1.580786929562821E2  
 3.750000000000000E9     1.662726165813271E-2   2.294766282864151E1   9.847086831690197E-1  -1.442138525611838E2   9.847606269569178E-1  -1.442899702032588E2   2.066912102570169E-2  -1.762816267703275E2  
 3.800000000000000E9     1.374949306852012E-2   4.459731058982582E1   9.848350724721974E-1  -1.509231631730982E2   9.842853976572782E-1  -1.510146986065302E2   2.023680285926480E-2   1.633491774194457E2  
 3.850000000000000E9     1.346649087050104E-2   6.981575939931203E1   9.840991575250272E-1  -1.576505903273651E2   9.840462673287622E-1  -1.576947016560420E2   2.247064150461017E-2   1.458646882993105E2  
 3.900000000000000E9     1.681957754308646E-2   8.898892491289975E1   9.844102308675505E-1  -1.643954153253774E2   9.836144260010959E-1  -1.644283142759243E2   2.508935104364829E-2   1.336093174001053E2  
 3.950000000000000E9     2.237506554219361E-2   9.941137203980190E1   9.836082541299617E-1  -1.711799956338151E2   9.835794963896788E-1  -1.711736069467793E2   2.768380986217785E-2   1.197453671041232E2  
 4.000000000000000E9     2.830627398310566E-2   1.022578952894776E2   9.834468047585124E-1  -1.778466326281830E2   9.833426718556118E-1  -1.778605256196234E2   3.100853183756198E-2   1.070063055166856E2  
 4.050000000000000E9     3.243562915384243E-2   1.010792504844939E2   9.828732544930876E-1   1.754884074837898E2   9.832792267228903E-1   1.754203498868207E2   3.387039663119597E-2   9.937447132956962E1  
 4.100000000000000E9     3.759891084578471E-2   9.979514397402951E1   9.818412862987078E-1   1.687472965183715E2   9.829157137753776E-1   1.686789800153256E2   3.597912687751829E-2   8.808601001430719E1  
 4.150000000000000E9     4.248320999215006E-2   9.594303971776185E1   9.815975405698283E-1   1.619997469503047E2   9.816579573084785E-1   1.619499525085449E2   3.916845518152777E-2   7.978832668357978E1  
 4.200000000000000E9     4.607807696898576E-2   9.174553367495508E1   9.813274220762456E-1   1.552974845350518E2   9.814458284938975E-1   1.552356109466574E2   4.218941256383289E-2   7.072883707191801E1  
 4.250000000000000E9     4.939354767670307E-2   8.607079494968440E1   9.805817280309692E-1   1.485742509303414E2   9.809999507557011E-1   1.485181813703235E2   4.679969419336929E-2   6.280784722888937E1  
 4.300000000000000E9     5.193352995710490E-2   7.966598307152346E1   9.805243678324301E-1   1.418368570614559E2   9.807964480610801E-1   1.418914209493313E2   5.090754227172456E-2   5.792112900119960E1  
 4.350000000000000E9     5.544264857333393E-2   7.300656827800606E1   9.801166110013048E-1   1.351869997783979E2   9.806434374841014E-1   1.350959711398284E2   5.537552659987542E-2   4.988593344187707E1  
 4.400000000000000E9     5.884677340548453E-2   6.579128102482615E1   9.800463538714640E-1   1.284584631911143E2   9.802365679256831E-1   1.284025910322892E2   5.851665189835893E-2   4.442835296239443E1  
 4.450000000000000E9     5.959594381368941E-2   5.920081050924418E1   9.803245589664377E-1   1.217780547391937E2   9.804118382338912E-1   1.216896215249863E2   6.103439036902079E-2   3.711129273258898E1  
 4.500000000000000E9     6.248629158839895E-2   5.150550269744080E1   9.799415277909884E-1   1.150836011247200E2   9.797936508283164E-1   1.150190322195519E2   6.460111140322306E-2   3.014909624642297E1  
 4.550000000000000E9     6.502463431429099E-2   4.426503817558967E1   9.798629811959331E-1   1.083164811936095E2   9.804082260181293E-1   1.083202851235048E2   6.708852098400993E-2   2.409337516620428E1  
 4.600000000000000E9     6.651325930552191E-2   3.643039153271946E1   9.797550551335456E-1   1.016771658757436E2   9.803763585690235E-1   1.015853855225793E2   6.814349069436790E-2   1.610662009203075E1  
 4.650000000000000E9     6.986448954817436E-2   2.768388689106664E1   9.801917397035234E-1   9.499190929940983E1   9.808673550364220E-1   9.494543686313887E1   7.021092726866249E-2   1.068433346543139E1  
 4.700000000000000E9     7.059555126408183E-2   1.967369799288810E1   9.804558775486642E-1   8.829168007554870E1   9.808783778009874E-1   8.823603322870763E1   6.930168834193354E-2   4.938636702825209  
 4.750000000000000E9     7.428718633163416E-2   1.138111667613139E1   9.812361645553999E-1   8.159224107592694E1   9.817140139005042E-1   8.155459588713828E1   6.896865292292718E-2  -1.380006886724694  
 4.800000000000000E9     7.611442472786742E-2   4.370097733083697   9.821955006764106E-1   7.492809989975390E1   9.816770719118309E-1   7.487429940659928E1   6.667013553049622E-2  -7.989859993357847  
