#  HZ   S   MA   R     50.00 
! Rohde & Schwarz ZVA67 4Ports - Version 4.11 - 1305.7002k04 SN: 101051
! Date: 2023-09-13 17:24:50
! Measurements: S11 S21 S12 S22 
! 
 6.705000000000000E10    6.504227873837723E-2  -5.292052556166404   3.316815878881509E-1   1.659900460230471E2   3.323276030527694E-1   1.698043482025866E2   4.719587314891588E-1   1.512287860618832E2  
 6.710000000000000E10    1.167953985194106E-1  -6.023408704831323E1   3.386187212001700E-1   1.211961995034058E2   3.388242235048865E-1   1.250343848216507E2   4.351592706733403E-1   1.415557098395912E2  
 6.715000000000000E10    1.117624082411142E-1  -9.104701338780539E1   3.415422871548283E-1   7.603919849669688E1   3.435960320254580E-1   7.976106023146178E1   4.006488637956183E-1   1.347039792064469E2  
 6.720000000000000E10    9.256481730408746E-2  -8.431978394654578E1   3.401516943344095E-1   3.013864058053879E1   3.416448863518701E-1   3.404778034817822E1   3.946592003175373E-1   1.321243017888813E2  
 6.725000000000000E10    1.617830139129592E-1  -7.967264820141898E1   3.281251999585534E-1  -1.520947258314316E1   3.292192707608361E-1  -1.144261294433474E1   4.405105140858550E-1   1.266741189455622E2  
 6.730000000000000E10    2.536829533024683E-1  -1.050657770815154E2   3.119317250198019E-1  -5.833436624099682E1   3.125565387357218E-1  -5.475291913592147E1   4.998990301704351E-1   1.144481950239592E2  
 6.735000000000000E10    3.058581936264889E-1  -1.372514846787497E2   3.009522511241983E-1  -9.952386167991655E1   3.012502895597154E-1  -9.585410574339446E1   5.367408935048259E-1   9.785228912274920E1  
 6.740000000000000E10    3.101953346247183E-1  -1.714499192162450E2   3.012436624333882E-1  -1.399290629816015E2   3.010742222568881E-1  -1.362095745673814E2   5.414020805554428E-1   7.983897554349348E1  
 6.745000000000000E10    2.589795135350606E-1   1.524256451082695E2   3.116150176959611E-1   1.789359840479407E2   3.113646872581207E-1  -1.773581349983990E2   5.140145226120874E-1   6.200065092735761E1  
 6.750000000000000E10    1.627050794175112E-1   1.131666051342168E2   3.258870637266536E-1   1.361619852130592E2   3.269938091952881E-1   1.399326612476761E2   4.707193857317159E-1   4.630329320575424E1  
 6.755000000000000E10    4.479783189318642E-2   5.640764789463236E1   3.387588184508190E-1   9.191822015960277E1   3.398044326951575E-1   9.569775375278182E1   4.262867790553740E-1   3.292057378754630E1  
 6.760000000000000E10    6.557431032240858E-2  -1.184226749788401E2   3.466304759452500E-1   4.721266201575052E1   3.467597640781309E-1   5.097796806812755E1   3.968774050851348E-1   2.030354769287633E1  
 6.765000000000000E10    1.154576957567484E-1  -1.577649808349751E2   3.509522252027343E-1   2.578568034066797   3.516269589003298E-1   6.414829180655971   3.634143374042267E-1   7.571224333721105  
 6.770000000000000E10    1.135263081738916E-1   1.789017422693932E2   3.553778544597016E-1  -4.244488140403933E1   3.556383629954464E-1  -3.854734399537456E1   3.237284622656966E-1  -1.989470800720527  
 6.775000000000000E10    1.065026710516707E-1  -1.783379940732420E2   3.542368812438366E-1  -8.771255618775764E1   3.544006455909767E-1  -8.402733495384815E1   3.087537117497145E-1  -5.316264121299835  
 6.780000000000000E10    1.597926623387387E-1  -1.793509471789442E2   3.429155319115737E-1  -1.329145962718027E2   3.439662786484842E-1  -1.291896227853800E2   3.528464439061111E-1  -9.787963722749492  
 6.785000000000000E10    2.283597095486153E-1   1.568340857499177E2   3.282402420789320E-1  -1.765554252915877E2   3.289921833740749E-1  -1.728218617051644E2   4.231180253074258E-1  -2.337143513506494E1  
 6.790000000000000E10    2.664698687737430E-1   1.242204314640693E2   3.167505346352698E-1   1.415874025498937E2   3.171533971259207E-1   1.453549447529430E2   4.766812411582374E-1  -4.209814406581264E1  
 6.795000000000000E10    2.629941769093234E-1   8.745513097323808E1   3.135851064943108E-1   1.006071012070334E2   3.133327938848797E-1   1.043270356768481E2   4.990032024795371E-1  -6.193325926711830E1  
 6.800000000000000E10    2.202461580030931E-1   4.551560685301934E1   3.178391191392659E-1   5.934572044948985E1   3.180855911836697E-1   6.304086790368041E1   4.922486740250954E-1  -8.051873996902017E1  
 6.805000000000000E10    1.575372805724440E-1  -5.507620539648405   3.270990954834933E-1   1.702711443170955E1   3.279353161015123E-1   2.079226605670641E1   4.685913578911636E-1  -9.726321696540319E1  
 6.810000000000000E10    9.931639227641904E-2  -7.328188806636028E1   3.369850868828492E-1  -2.623816146235543E1   3.377109997004508E-1  -2.251178817913375E1   4.400157423785199E-1  -1.110854774367569E2  
 6.815000000000000E10    7.704103337629736E-2  -1.557356771234514E2   3.433477669411230E-1  -7.020525467381386E1   3.437870087576873E-1  -6.643706581067787E1   4.175694344659473E-1  -1.233035826083985E2  
 6.820000000000000E10    6.761359086436694E-2   1.357012887453545E2   3.475444675472116E-1  -1.142583771318616E2   3.484911666281312E-1  -1.104815413282538E2   3.969899939690889E-1  -1.341083924093302E2  
 6.825000000000000E10    3.797235851999686E-2   8.344307229252611E1   3.513958962579523E-1  -1.586281255256705E2   3.518522549591751E-1  -1.549192419674878E2   3.756698944780559E-1  -1.425387295208269E2  
 6.830000000000000E10    1.615472507662635E-2   1.592287530418280E2   3.518217362897641E-1   1.564267987635736E2   3.512724108294506E-1   1.602821497695633E2   3.719063775837074E-1  -1.473106818086035E2  
 6.835000000000000E10    6.636816113292114E-2   1.302723767403078E2   3.448399419093551E-1   1.118179726096060E2   3.447214240808742E-1   1.154743440044717E2   4.024979373571700E-1  -1.524890196336139E2  
 6.840000000000000E10    1.087763417178315E-1   7.506970630940295E1   3.313081863306064E-1   6.778489352483781E1   3.320451604917422E-1   7.162966767708075E1   4.558610125917570E-1  -1.615524520911507E2  
 6.845000000000000E10    1.457431007347442E-1   1.674742014072205E1   3.188442136835029E-1   2.521640567425185E1   3.188521338610913E-1   2.901381297605471E1   5.067381241019818E-1  -1.744649518183381E2  
 6.850000000000000E10    1.816088473421237E-1  -4.016518382938403E1   3.086931295968482E-1  -1.617763455037319E1   3.095122805582972E-1  -1.227691415882142E1   5.397105510277546E-1   1.709727224505420E2  
 6.855000000000000E10    2.130755547671301E-1  -9.154960548394845E1   3.061699134164276E-1  -5.693003821906265E1   3.066237556860454E-1  -5.305576406814488E1   5.509382328546369E-1   1.559263555782508E2  
 6.860000000000000E10    2.233166611621804E-1  -1.380519038773986E2   3.093948815708874E-1  -9.770815048438665E1   3.099559283873247E-1  -9.371718134318920E1   5.400264693864344E-1   1.414005173916861E2  
 6.865000000000000E10    1.974172834816206E-1   1.791413693292585E2   3.184843534205862E-1  -1.392210568741421E2   3.194926062780850E-1  -1.353507473641910E2   5.109750084677021E-1   1.283105158875441E2  
 6.870000000000000E10    1.285471967119759E-1   1.414237991915287E2   3.300644308738903E-1   1.779547315417919E2   3.303752938946704E-1  -1.780524757676317E2   4.726663911669682E-1   1.176389399292659E2  
 6.875000000000000E10    4.342182474227539E-2   1.385707918846568E2   3.383492086726413E-1   1.341974767725553E2   3.393033891020943E-1   1.381561287613928E2   4.427966343623476E-1   1.098521702768403E2  
 6.880000000000000E10    7.616563693453331E-2  -1.672854818671858E2   3.425473526275709E-1   9.033956111467465E1   3.432513835649319E-1   9.408530373194326E1   4.277691633197862E-1   1.031281846380684E2  
 6.885000000000000E10    1.194666750262448E-1   1.644405758305599E2   3.436022672358144E-1   4.620110103576521E1   3.441207058659389E-1   5.021673268285903E1   4.251613260614678E-1   9.636776764103053E1  
 6.890000000000000E10    9.886942999164812E-2   1.288328246772650E2   3.425742332231087E-1   2.133304024782610   3.437944911941142E-1   6.050836509870598   4.247916849171095E-1   8.989773139198152E1  
 6.895000000000000E10    2.048895090723067E-2   1.216689169225747E2   3.372623672969632E-1  -4.191077289929609E1   3.378857952525796E-1  -3.818219256257201E1   4.424698548383750E-1   8.355734885085558E1  
 6.900000000000000E10    1.000893152308958E-1  -1.452595401941915E2   3.256441677280683E-1  -8.566312159350439E1   3.257858754656096E-1  -8.158899699368729E1   4.843253150099668E-1   7.489117080654225E1  
 6.905000000000000E10    2.031624406671713E-1  -1.790410359623415E2   3.121207564916135E-1  -1.275385637898443E2   3.132058462538180E-1  -1.235487896156514E2   5.258557578134109E-1   6.226845082005963E1  
 6.910000000000000E10    2.658058099409576E-1   1.464102899160626E2   3.056097940805167E-1  -1.679010701178041E2   3.055904094324033E-1  -1.639619444416242E2   5.454409241656797E-1   4.699405824564241E1  
 6.915000000000000E10    2.764621813415197E-1   1.126414239895379E2   3.065462907932481E-1   1.521016250716656E2   3.073950837919635E-1   1.560966321212191E2   5.360863678848404E-1   3.113135063755723E1  
 6.920000000000000E10    2.316193158519662E-1   8.042745469282734E1   3.172133058229306E-1   1.112841933265332E2   3.179590715930513E-1   1.152288928663788E2   4.992368288156733E-1   1.626595589985172E1  
 6.925000000000000E10    1.402398072861599E-1   5.604496108456240E1   3.312669311299386E-1   6.882744583691236E1   3.312821044066898E-1   7.280671403342195E1   4.542899626844037E-1   4.351150648297001  
 6.930000000000000E10    6.950310541671505E-2   7.826356304940630E1   3.392582321224544E-1   2.528728604482176E1   3.405835723832031E-1   2.921793395725527E1   4.219084717759568E-1  -4.655232244523769  
 6.935000000000000E10    1.229473359266922E-1   9.883420969934660E1   3.433938664553121E-1  -1.830322984045695E1   3.443095211535733E-1  -1.432136258858763E1   4.081867150090467E-1  -1.341158217028512E1  
 6.940000000000000E10    1.644460932895508E-1   7.543974950600736E1   3.461288984454465E-1  -6.161879987031875E1   3.472799512266029E-1  -5.764094176188256E1   3.943593593959921E-1  -2.398293167873016E1  
 6.945000000000000E10    1.492576364893127E-1   4.944908473369117E1   3.506113927553266E-1  -1.052628127541071E2   3.509025208766549E-1  -1.012081242610958E2   3.679613910262182E-1  -3.290462482190149E1  
 6.950000000000000E10    9.373347858589139E-2   4.204996111983346E1   3.512179177093618E-1  -1.495592533531084E2   3.513868727786397E-1  -1.454297843460558E2   3.563955231637697E-1  -3.725394825507299E1  
 6.955000000000000E10    1.053714591021498E-1   7.280206431366584E1   3.426775916683303E-1   1.664145095318748E2   3.440570405529200E-1   1.702967813371056E2   3.901682251209389E-1  -4.176768679851289E1  
 6.960000000000000E10    1.888653980174406E-1   6.017952232254261E1   3.295474961705424E-1   1.233439739246146E2   3.306255281011661E-1   1.273120276067243E2   4.494334117451234E-1  -5.285704780106438E1  
 6.965000000000000E10    2.492156580652976E-1   3.072401301728105E1   3.190893595981707E-1   8.221058941380065E1   3.194730476615628E-1   8.612105961294448E1   4.925820890747293E-1  -6.856562287927692E1  
 6.970000000000000E10    2.642024930349750E-1  -1.919521781248270   3.153656656549685E-1   4.175540551987128E1   3.162464472162800E-1   4.580036911892150E1   5.047850958125567E-1  -8.575011776679374E1  
 6.975000000000000E10    2.312149391705277E-1  -3.579827077013754E1   3.206248941291991E-1   1.135644109022110   3.210454324262230E-1   5.229366679204580   4.899003593385000E-1  -1.021523963465218E2  
 6.980000000000000E10    1.558305042250461E-1  -6.796408678510130E1   3.303132029430034E-1  -4.054519207953375E1   3.302055534279895E-1  -3.645130779239616E1   4.557514634658027E-1  -1.161269419058728E2  
 6.985000000000000E10    6.065624892198674E-2  -7.907397036587312E1   3.389388982681446E-1  -8.321313351363816E1   3.389132484080844E-1  -7.907688958436584E1   4.244635887475585E-1  -1.272831293285948E2  
 6.990000000000000E10    7.241840128064769E-2  -1.550847579348163E1   3.428244551225463E-1  -1.264166880044856E2   3.436526540684395E-1  -1.220275717563107E2   4.076712902475547E-1  -1.373972246599771E2  
 6.995000000000000E10    1.384873485205587E-1  -3.390585171984534E1   3.457039254644598E-1  -1.692048576340662E2   3.465896478697411E-1  -1.649182490990980E2   3.911314739206549E-1  -1.484721767610410E2  
 7.000000000000000E10    1.603339329003823E-1  -6.321421157450986E1   3.502318192848479E-1   1.479376675379419E2   3.510360511121990E-1   1.520015581456341E2   3.624671340869954E-1  -1.588203414467860E2  
 7.005000000000000E10    1.330938563398311E-1  -8.512299669819512E1   3.539047304288463E-1   1.045159113788746E2   3.543684116850973E-1   1.083743106190431E2   3.269926739758597E-1  -1.645255045714745E2  
 7.010000000000000E10    1.061354543189660E-1  -7.971265594572385E1   3.525920996330204E-1   6.022072313869443E1   3.523452214978793E-1   6.433022602608413E1   3.280454550275690E-1  -1.648795311552574E2  
 7.015000000000000E10    1.604362282783430E-1  -7.330465304365410E1   3.419077498149101E-1   1.661974634906944E1   3.422516922184293E-1   2.064245502448347E1   3.809689552657534E-1  -1.694293250384443E2  
 7.020000000000000E10    2.374329458014668E-1  -9.399588421694891E1   3.293522493837268E-1  -2.555183675668051E1   3.291788679094694E-1  -2.142694074778360E1   4.431476801435696E-1   1.780986468327877E2  
 7.025000000000000E10    2.831174853944651E-1  -1.227696662987278E2   3.201493437605977E-1  -6.609825501542339E1   3.200178148979513E-1  -6.198753017815231E1   4.787717174236547E-1   1.616263832343855E2  
 7.030000000000000E10    2.844413439904739E-1  -1.527954169397374E2   3.202902173006427E-1  -1.061065495759454E2   3.199043157592767E-1  -1.020984023137989E2   4.790216681461953E-1   1.445978180514997E2  
 7.035000000000000E10    2.347664421478825E-1   1.796451009728176E2   3.278946912683388E-1  -1.470270780621684E2   3.282277154083789E-1  -1.426380968129495E2   4.487618831410414E-1   1.294027310108807E2  
 7.040000000000000E10    1.499182910971149E-1   1.622162261010881E2   3.382727056423587E-1   1.707054469208370E2   3.387065544776107E-1   1.753514341305495E2   4.076470677094017E-1   1.175786888334003E2  
 7.045000000000000E10    1.027805300791388E-1  -1.787819367109273E2   3.450464558215465E-1   1.278033070831174E2   3.455108820449557E-1   1.325980338611928E2   3.831245918791309E-1   1.094047004266250E2  
 7.050000000000000E10    1.538989504131893E-1  -1.692776737981349E2   3.471317624483181E-1   8.500866032679673E1   3.477374429977947E-1   8.967615072872782E1   3.777029918153539E-1   1.003469133735126E2  
 7.055000000000000E10    1.951932532396723E-1   1.730119598843947E2   3.482290947071893E-1   4.255995781973147E1   3.496299259844462E-1   4.709926197480666E1   3.623260020988439E-1   8.891142715284768E1  
 7.060000000000000E10    1.882349106199120E-1   1.532766832936993E2   3.536682990320257E-1  -1.558294896733533E-1   3.536645224481517E-1   4.374890243962313   3.255725439722795E-1   7.891220213091093E1  
 7.065000000000000E10    1.536273949766239E-1   1.480989976769365E2   3.555004177441902E-1  -4.376676706311037E1   3.558985464453917E-1  -3.905233522544280E1   2.910843686350577E-1   7.669201776398352E1  
 7.070000000000000E10    1.724068250893753E-1   1.571370839744506E2   3.503193320536389E-1  -8.758905108485492E1   3.504069340047339E-1  -8.290245180647045E1   3.141575042921732E-1   7.762114505664124E1  
 7.075000000000000E10    2.456561677298969E-1   1.478389969121252E2   3.385740545515494E-1  -1.300532886233630E2   3.390540013011252E-1  -1.255405371179022E2   3.776044172428710E-1   6.928926751784624E1  
 7.080000000000000E10    3.015461413860714E-1   1.258661914732745E2   3.284991342114134E-1  -1.708920740400045E2   3.289137813528995E-1  -1.665841785865385E2   4.262688395927450E-1   5.304996071085695E1  
 7.085000000000000E10    3.117580950829598E-1   1.005881960277813E2   3.264721101493395E-1   1.488322681499629E2   3.265343605892598E-1   1.533913196052404E2   4.325703702996667E-1   3.471315551604815E1  
 7.090000000000000E10    2.780531771817550E-1   7.671307195348318E1   3.327305365456649E-1   1.082824326025802E2   3.328294298816294E-1   1.131020238222398E2   4.024706814604462E-1   1.724310371355560E1  
 7.095000000000000E10    2.100757866610988E-1   5.905639905955107E1   3.435072030791551E-1   6.646137419906951E1   3.433625719934381E-1   7.140911732149208E1   3.532068784873115E-1   4.210106678623643  
 7.100000000000000E10    1.568374544379354E-1   5.900592952013896E1   3.495951471165860E-1   2.374459931741313E1   3.507594884374900E-1   2.851948162535821E1   3.209221501758789E-1  -3.041176956898390  
 7.105000000000000E10    1.691867888705704E-1   6.426777004864704E1   3.527785051740351E-1  -1.911817268230621E1   3.531536007836227E-1  -1.432839560323228E1   3.247025988612998E-1  -1.034169108072390E1  
 7.110000000000000E10    1.977597443200004E-1   5.190209581696391E1   3.530981903621974E-1  -6.149061405914634E1   3.534913356681103E-1  -5.679575076213752E1   3.328161860022699E-1  -2.279361896114462E1  
 7.115000000000000E10    1.943553193563512E-1   3.220818988936538E1   3.552792068078655E-1  -1.036517930824196E2   3.555812414964795E-1  -9.904865262118140E1   3.164500829867946E-1  -3.722128811396585E1  
 7.120000000000000E10    1.515046542375096E-1   1.837652739560042E1   3.602251074939909E-1  -1.462164236467773E2   3.599090262259269E-1  -1.418403146823386E2   2.830921566958338E-1  -4.726961964157259E1  
 7.125000000000000E10    1.207528466216733E-1   2.748279767235626E1   3.596300006241837E-1   1.705117075911782E2   3.603194133331596E-1   1.747396770831284E2   2.692526197699313E-1  -4.984953101405876E1  
 7.130000000000000E10    1.662602771130857E-1   3.539553744288354E1   3.540344291722506E-1   1.272286593729221E2   3.542568333852985E-1   1.315768882373891E2   3.045891379848361E-1  -5.436306651602346E1  
 7.135000000000000E10    2.348692513378466E-1   1.929247572533100E1   3.449334294924678E-1   8.513871624900145E1   3.454363599993325E-1   8.955103298924617E1   3.541309317845632E-1  -6.728678985194495E1  
 7.140000000000000E10    2.716986138623808E-1  -5.267381184858653   3.387456795349980E-1   4.400378762241986E1   3.394186381790260E-1   4.862783760137285E1   3.796449558952398E-1  -8.491277154264863E1  
 7.145000000000000E10    2.692626613149312E-1  -3.027682064343617E1   3.394009660583042E-1   3.230446871536023   3.400015943567088E-1   7.952698800616448   3.699885736231841E-1  -1.026666786788441E2  
 7.150000000000000E10    2.329100223966371E-1  -5.093056460537589E1   3.447044855661129E-1  -3.821931891084930E1   3.450206053531953E-1  -3.340641002898748E1   3.324464384588113E-1  -1.165569105142264E2  
 7.155000000000000E10    1.908630655092284E-1  -6.051931839169590E1   3.493577434243568E-1  -8.043758194425368E1   3.499110568262766E-1  -7.575214482824104E1   2.984674837139806E-1  -1.230710635351804E2  
 7.160000000000000E10    1.910213745746481E-1  -6.226678584236288E1   3.499787392611717E-1  -1.230817239231787E2   3.502311545385060E-1  -1.183375477241241E2   3.076072850427578E-1  -1.263217618215522E2  
 7.165000000000000E10    2.247157857005795E-1  -7.415128319532464E1   3.458228899227002E-1  -1.650952510488608E2   3.465283178386946E-1  -1.606128381317350E2   3.424330159604170E-1  -1.351662263762177E2  
 7.170000000000000E10    2.414343711396746E-1  -9.547451308261145E1   3.454445947051386E-1   1.533573082540854E2   3.455086114717652E-1   1.579508494819104E2   3.646582349877977E-1  -1.490807172611733E2  
 7.175000000000000E10    2.154279601350864E-1  -1.187151757864026E2   3.487267713467008E-1   1.120193120815290E2   3.485679465471926E-1   1.164560156082566E2   3.553014998413890E-1  -1.632920188399363E2  
 7.180000000000000E10    1.502409398902543E-1  -1.345194330062334E2   3.535745539306402E-1   6.967796114033810E1   3.539763975029213E-1   7.420040663346811E1   3.271467757656850E-1  -1.730394412305057E2  
