#  HZ   S   MA   R     50.00 
! Rohde & Schwarz ZVA67 4Ports - Version 4.11 - 1305.7002k04 SN: 101051
! Date: 2023-09-13 17:22:21
! Measurements: S11 S21 S12 S22 
! 
 6.705000000000000E10    1.309816881040117E-1  -1.396286279997790E2   3.587139751615702E-1   7.867076100314655E1   3.585816943448695E-1   8.233020111063884E1   4.850853670236923E-1   1.581039952669592E2  
 6.710000000000000E10    2.209319564598184E-2   1.528298032517686E2   3.606660398359973E-1   3.456074669247552E1   3.606938571637187E-1   3.842115163455011E1   4.736786303359036E-1   1.492415231924013E2  
 6.715000000000000E10    1.068429637832909E-1  -3.326126657946966E1   3.549378753478735E-1  -9.140019596557774   3.562116578789157E-1  -5.381494580548874   4.858571916540183E-1   1.397828972469249E2  
 6.720000000000000E10    2.063738637027949E-1  -7.575652989535234E1   3.492711565850553E-1  -5.180839865494063E1   3.492082138978700E-1  -4.803832048553267E1   5.032122596788163E-1   1.275414371402685E2  
 6.725000000000000E10    2.496866255863810E-1  -1.140973626865574E2   3.478590611405919E-1  -9.339835323069067E1   3.484484079188915E-1  -8.960816727026030E1   5.023592202129040E-1   1.130963274097363E2  
 6.730000000000000E10    2.310257223963053E-1  -1.493170503333349E2   3.555730011416907E-1  -1.353130474932638E2   3.553402485540662E-1  -1.315574400902679E2   4.712871815620321E-1   9.893934490581434E1  
 6.735000000000000E10    1.528551332544869E-1  -1.776472288469616E2   3.654289940336280E-1  -1.785198505268163E2   3.656832938151849E-1  -1.746547468300356E2   4.283614167071988E-1   8.805077242979094E1  
 6.740000000000000E10    7.577226068946381E-2  -1.633222024839429E2   3.710327647478870E-1   1.373141506522492E2   3.706918131861963E-1   1.410872514077280E2   4.107634972411965E-1   8.095234534523765E1  
 6.745000000000000E10    1.316153972667638E-1  -1.397373322995127E2   3.678913861896707E-1   9.336778013615995E1   3.680041680762599E-1   9.713252175543684E1   4.272792915933570E-1   7.173119209495241E1  
 6.750000000000000E10    1.940019825822788E-1  -1.647475919386063E2   3.639491884888679E-1   5.061840823966904E1   3.642398809190519E-1   5.431447877034739E1   4.481057319996895E-1   5.806619134053332E1  
 6.755000000000000E10    1.964791260317476E-1   1.617437121429141E2   3.654289814563731E-1   8.314638482842087   3.658623734535205E-1   1.208026590316273E1   4.434519439596742E-1   4.217484585346089E1  
 6.760000000000000E10    1.379382836487242E-1   1.253536433072168E2   3.721421927950480E-1  -3.468622299009602E1   3.722650952719325E-1  -3.082284986425592E1   4.195885734281934E-1   2.745509204840424E1  
 6.765000000000000E10    3.087215639417402E-2   8.042688095154135E1   3.768685947089542E-1  -7.845705277383320E1   3.766875544163683E-1  -7.464621718166859E1   3.974302461995506E-1   1.606486719319838E1  
 6.770000000000000E10    8.954876079736858E-2  -1.282309205739947E2   3.735519471210214E-1  -1.224662020186218E2   3.744627687773361E-1  -1.186428808318264E2   4.038454259667225E-1   5.541298863850865  
 6.775000000000000E10    1.799449483681646E-1  -1.677856471694145E2   3.675832388427704E-1  -1.654783217074316E2   3.679493468581672E-1  -1.617670035736337E2   4.261440563766833E-1  -8.764705284381030  
 6.780000000000000E10    2.196575873230829E-1   1.555511427001489E2   3.641087688965174E-1   1.524779590982879E2   3.645559534252421E-1   1.562067234722083E2   4.329299903454533E-1  -2.577363114794819E1  
 6.785000000000000E10    2.028814558010202E-1   1.203448673697487E2   3.676855630369391E-1   1.104264299681610E2   3.684269308066152E-1   1.141481532754373E2   4.134305735894635E-1  -4.285396309323834E1  
 6.790000000000000E10    1.377612198321974E-1   8.780895752580382E1   3.741070439712584E-1   6.757989152033750E1   3.758800648432915E-1   7.133667936191927E1   3.806595420542587E-1  -5.599325975485862E1  
 6.795000000000000E10    5.493134146076754E-2   8.400918152735343E1   3.792877887907011E-1   2.349885521885531E1   3.801274650258627E-1   2.736110372534457E1   3.655973988200076E-1  -6.432726173110629E1  
 6.800000000000000E10    7.913093584479798E-2   1.316911818545903E2   3.758589604750099E-1  -2.034107395030324E1   3.773141764972783E-1  -1.654454974307527E1   3.881780280333613E-1  -7.242920196236808E1  
 6.805000000000000E10    1.346844008660137E-1   1.034592948630958E2   3.694616516994941E-1  -6.327924117891406E1   3.698981810823342E-1  -5.959791047946486E1   4.253940399412857E-1  -8.532682738672480E1  
 6.810000000000000E10    1.516317717796448E-1   5.970983924884781E1   3.661266679837150E-1  -1.055257421989385E2   3.664463287004978E-1  -1.017676901955905E2   4.450601408855818E-1  -1.003621824793032E2  
 6.815000000000000E10    1.346796494379020E-1   6.541388569619886   3.667113084167619E-1  -1.478266183198890E2   3.668359820818170E-1  -1.439259866435391E2   4.467613123817685E-1  -1.152550812930136E2  
 6.820000000000000E10    1.069901330466912E-1  -6.273305790918165E1   3.694132214325028E-1   1.695377881690671E2   3.699652089595994E-1   1.733052207847744E2   4.389336448973420E-1  -1.278149746689725E2  
 6.825000000000000E10    1.006863741967507E-1  -1.424712050575606E2   3.706120674343077E-1   1.265161515891385E2   3.710312380925099E-1   1.302005906498511E2   4.385928286388323E-1  -1.386134273339467E2  
 6.830000000000000E10    1.081085217755482E-1   1.425088446763520E2   3.672635202940632E-1   8.350485863312140E1   3.682298137750544E-1   8.718511813611052E1   4.474313886514172E-1  -1.491039828126528E2  
 6.835000000000000E10    1.098204651272153E-1   7.273031059139311E1   3.644209327890286E-1   4.086026494017603E1   3.659406098117495E-1   4.461680729120913E1   4.580310793427077E-1  -1.607548471891576E2  
 6.840000000000000E10    1.053124678421522E-1   1.849706658662545   3.629152398570363E-1  -1.453599676603779   3.639684609206097E-1   2.356394052594407   4.623047237753750E-1  -1.723237035466815E2  
 6.845000000000000E10    1.040097299136536E-1  -6.823418248478444E1   3.643462180579444E-1  -4.384933571115104E1   3.644828667479352E-1  -4.010964070892167E1   4.596657214211161E-1   1.766731559406643E2  
 6.850000000000000E10    9.528290465552493E-2  -1.339067357891259E2   3.642521346594572E-1  -8.668094079997651E1   3.654497662848181E-1  -8.278844571755396E1   4.564801723458701E-1   1.669490490736120E2  
 6.855000000000000E10    5.974544465804346E-2   1.585951740702179E2   3.622983279517972E-1  -1.294966199480226E2   3.630509544377148E-1  -1.258102096820558E2   4.627739242706983E-1   1.581312605717114E2  
 6.860000000000000E10    3.482059805842017E-2   1.322167035469395E1   3.581264998945373E-1  -1.723909638529274E2   3.585239884983790E-1  -1.683832035208990E2   4.793446911651830E-1   1.489169234005846E2  
 6.865000000000000E10    1.100218449176943E-1  -7.384738579213166E1   3.521575675265380E-1   1.456503423771588E2   3.533383057964620E-1   1.495177689999859E2   5.003031038493754E-1   1.380879629481784E2  
 6.870000000000000E10    1.837501251036278E-1  -1.230399608208782E2   3.486679661492533E-1   1.041675788606586E2   3.488464450227037E-1   1.082149598983152E2   5.117603148406514E-1   1.258039831014574E2  
 6.875000000000000E10    2.215476262769021E-1  -1.663763054551039E2   3.502370601195212E-1   6.331156288422475E1   3.505671911514400E-1   6.706817216463638E1   5.052333832027882E-1   1.130443962224053E2  
 6.880000000000000E10    2.036782760871207E-1   1.525163086243154E2   3.581785650812563E-1   2.160316643994559E1   3.580555241666646E-1   2.539247354800940E1   4.792678134181657E-1   1.015763470298331E2  
 6.885000000000000E10    1.267174078988579E-1   1.141509640902389E2   3.663775290232526E-1  -2.107452175558053E1   3.661844443031453E-1  -1.727894323785413E1   4.505220689716776E-1   9.328160175481533E1  
 6.890000000000000E10    1.881575098598056E-2   1.341575338286161E2   3.678939940439970E-1  -6.467781485038823E1   3.693717872113836E-1  -6.081697509491867E1   4.436706837112582E-1   8.710527605406003E1  
 6.895000000000000E10    1.087564040858339E-1  -1.656504561991447E2   3.638937570525318E-1  -1.077576515298672E2   3.649350296126257E-1  -1.038659407961046E2   4.605518556267274E-1   7.910888794743623E1  
 6.900000000000000E10    1.795876760192220E-1   1.594266316744134E2   3.593263167702607E-1  -1.499404716606775E2   3.595350566383559E-1  -1.459971480437704E2   4.776887348003105E-1   6.834570313282549E1  
 6.905000000000000E10    1.855690405912094E-1   1.236583520962999E2   3.586841549973565E-1   1.683217253962276E2   3.595936143543730E-1   1.723344136221624E2   4.761228101687051E-1   5.653234479945571E1  
 6.910000000000000E10    1.239109355229739E-1   9.175116933650077E1   3.611057571155736E-1   1.261765093562018E2   3.618790220286812E-1   1.300389105834932E2   4.624169831290892E-1   4.602635405886422E1  
 6.915000000000000E10    3.732963389156552E-2   1.212338667697304E2   3.599127592283304E-1   8.338086263175471E1   3.607337306300543E-1   8.724230966751519E1   4.605068251966591E-1   3.732756290029847E1  
 6.920000000000000E10    1.285110872521463E-1   1.607037916639631E2   3.535710497890905E-1   4.091628110712196E1   3.548365306323345E-1   4.482447252164607E1   4.784499307515122E-1   2.706129869475847E1  
 6.925000000000000E10    2.237001167625147E-1   1.314245792222797E2   3.484967830308893E-1  -2.243045101174157E-1   3.485017635957546E-1   3.774897939456734   4.985496081857457E-1   1.360323545303227E1  
 6.930000000000000E10    2.688642888481085E-1   9.839177486734272E1   3.484623081907712E-1  -4.059920529829804E1   3.486449565593032E-1  -3.657297616597445E1   4.919119325262517E-1  -1.941104545203497  
 6.935000000000000E10    2.540568384933165E-1   6.561131850983438E1   3.576992681804342E-1  -8.132076394036263E1   3.581345568034147E-1  -7.733856993032279E1   4.527187107067552E-1  -1.689598356772768E1  
 6.940000000000000E10    1.795291158303367E-1   3.616058906173001E1   3.714418687322861E-1  -1.237006927391347E2   3.720285818028230E-1  -1.196733617777802E2   3.977591787868695E-1  -2.786488453234278E1  
 6.945000000000000E10    8.829032918884015E-2   3.422840343317527E1   3.805119870781815E-1  -1.673091888730610E2   3.808482167095144E-1  -1.633875640292003E2   3.657805993689496E-1  -3.240161749731506E1  
 6.950000000000000E10    1.130693044063387E-1   6.998166095522990E1   3.781354336850487E-1   1.489098254855786E2   3.785140633113747E-1   1.528609344976617E2   3.844979829806881E-1  -3.699953524931862E1  
 6.955000000000000E10    1.797877417546820E-1   5.099059205864398E1   3.707432465760021E-1   1.064078557099054E2   3.718249646641028E-1   1.102716742739616E2   4.196351531342679E-1  -4.749014458743548E1  
 6.960000000000000E10    1.999853357773843E-1   1.944157422177313E1   3.678607078902826E-1   6.462071955711618E1   3.684964582259165E-1   6.850592808593309E1   4.355529311869361E-1  -6.117107049804680E1  
 6.965000000000000E10    1.613839947154140E-1  -1.354058651499704E1   3.690119629351498E-1   2.279420060642881E1   3.698046259653298E-1   2.664456730495643E1   4.282153705751578E-1  -7.402685352026063E1  
 6.970000000000000E10    7.441492495009638E-2  -3.520094121066574E1   3.698062837695691E-1  -1.992141802494369E1   3.708621159925831E-1  -1.578785080453564E1   4.202723652470816E-1  -8.417411519715452E1  
 6.975000000000000E10    6.207995441770749E-2   4.102740792167578E1   3.653360005394054E-1  -6.247929471958526E1   3.667792068090549E-1  -5.845889996040570E1   4.346522555869365E-1  -9.376965035407558E1  
 6.980000000000000E10    1.595675462446863E-1   2.445052813902129E1   3.592403700067383E-1  -1.043347686867720E2   3.595175946255949E-1  -1.002904410668670E2   4.606673116821911E-1  -1.059559045426100E2  
 6.985000000000000E10    2.269815409650112E-1  -8.796643202639219   3.540602863184444E-1  -1.449347017623530E2   3.539438035873924E-1  -1.408707301740230E2   4.736764999429863E-1  -1.210121115495352E2  
 6.990000000000000E10    2.467957855769622E-1  -4.350092666880979E1   3.567015879754896E-1   1.746092815393328E2   3.575094094547742E-1   1.788936870520343E2   4.586090229591622E-1  -1.369700366760275E2  
 6.995000000000000E10    2.164655601002205E-1  -7.712603491310250E1   3.677060655652110E-1   1.335481262459356E2   3.682419641108193E-1   1.377390275075605E2   4.143369747911160E-1  -1.509978794899217E2  
 7.000000000000000E10    1.406429026826960E-1  -1.024864181515494E2   3.795039366235262E-1   9.119574923559952E1   3.797489609228115E-1   9.514972936657310E1   3.617653133429751E-1  -1.594467329965110E2  
 7.005000000000000E10    7.961211887055787E-2  -8.455513234912439E1   3.837182798106572E-1   4.768174471712953E1   3.839284031558055E-1   5.157837714600342E1   3.443078843656798E-1  -1.620180362329319E2  
 7.010000000000000E10    1.394555931695573E-1  -7.077995661933123E1   3.799006924198041E-1   4.587101807130822   3.799793951257255E-1   8.417826126324945   3.721547856339520E-1  -1.673942508125192E2  
 7.015000000000000E10    2.011768188426927E-1  -9.444478577407293E1   3.745054938025534E-1  -3.745931371596775E1   3.740848421694165E-1  -3.349676031221365E1   4.029044291271087E-1  -1.785816221637745E2  
 7.020000000000000E10    2.121248690782749E-1  -1.243209383777402E2   3.730597171827308E-1  -7.895935338848322E1   3.724406397367243E-1  -7.495475381250073E1   4.082638733782081E-1   1.681270956910345E2  
 7.025000000000000E10    1.684084129207255E-1  -1.506308749320418E2   3.740938894381176E-1  -1.208805609470636E2   3.748632745010119E-1  -1.167893784911303E2   3.914801151034162E-1   1.568125215709644E2  
 7.030000000000000E10    1.008650197216368E-1  -1.520126860502652E2   3.751512365005863E-1  -1.633433154726772E2   3.753945673015537E-1  -1.593363102798825E2   3.816685987689579E-1   1.495196634611015E2  
 7.035000000000000E10    1.297983963705866E-1  -1.230467584841301E2   3.697068817806679E-1   1.539231536742827E2   3.694316852537689E-1   1.582838206892011E2   4.047676638385784E-1   1.423105043447023E2  
 7.040000000000000E10    2.187030864922869E-1  -1.368213377498543E2   3.601566176421339E-1   1.124659208214276E2   3.610157303702152E-1   1.169612067317904E2   4.405593686661414E-1   1.301764034041485E2  
 7.045000000000000E10    2.754635675363556E-1  -1.637448081482288E2   3.561628145706713E-1   7.211460025977388E1   3.563674113923006E-1   7.686988042154090E1   4.567638879213324E-1   1.144435921767730E2  
 7.050000000000000E10    2.789429958849626E-1   1.680449751928929E2   3.608642382705835E-1   3.218341722668541E1   3.606338326492063E-1   3.684530672539304E1   4.354803278119604E-1   9.802467633228139E1  
 7.055000000000000E10    2.262205425556153E-1   1.428399803013253E2   3.722675392390990E-1  -8.866488199017169   3.728159463709672E-1  -4.279695520158406   3.792458768937195E-1   8.431287840703099E1  
 7.060000000000000E10    1.443751771687225E-1   1.337652972521185E2   3.836413199134824E-1  -5.146026844084304E1   3.831667403226141E-1  -4.691144572624381E1   3.249866912088807E-1   7.830814101786686E1  
 7.065000000000000E10    1.358602834649419E-1   1.561916767681925E2   3.860461337060280E-1  -9.470598463914067E1   3.854744795416845E-1  -9.008493469388816E1   3.206515623267588E-1   7.745855793323594E1  
 7.070000000000000E10    2.021438586780775E-1   1.516306602626667E2   3.803420043845550E-1  -1.374047044776459E2   3.808223386171661E-1  -1.326978872500811E2   3.524238833291890E-1   6.987760323933892E1  
 7.075000000000000E10    2.412199217897855E-1   1.305882131922133E2   3.765596012540101E-1  -1.788038133575029E2   3.766759584599905E-1  -1.743076524275177E2   3.672300032979586E-1   5.642774416922301E1  
 7.080000000000000E10    2.269530726569454E-1   1.088573375906200E2   3.784553090069308E-1   1.399056224729020E2   3.793967194540543E-1   1.442650779516656E2   3.473314606146863E-1   4.280209795014743E1  
 7.085000000000000E10    1.774542538223233E-1   9.757410666296320E1   3.813671351871447E-1   9.748139445999235E1   3.820042422178474E-1   1.020916664906445E2   3.120355255188010E-1   3.545471172229651E1  
 7.090000000000000E10    1.677699639531712E-1   1.056933525376573E2   3.792940160099717E-1   5.470573242701655E1   3.797777632775189E-1   5.945503531182431E1   3.168031080531691E-1   3.303592172209857E1  
 7.095000000000000E10    2.269363605140281E-1   1.020710244578389E2   3.700691289771277E-1   1.280779808671371E1   3.703757664538069E-1   1.743417444201834E1   3.652110713822841E-1   2.485207942498303E1  
 7.100000000000000E10    2.854509158196383E-1   8.198138833964900E1   3.612699328758701E-1  -2.799639393509829E1   3.615332671919635E-1  -2.331594684069884E1   4.100093311939373E-1   8.730299194827055  
 7.105000000000000E10    3.014962728139535E-1   5.662768993578457E1   3.597218068482910E-1  -6.781204453353425E1   3.607111687803232E-1  -6.321456276267455E1   4.195537220693811E-1  -1.047751610924424E1  
 7.110000000000000E10    2.672452127944301E-1   2.990521233518945E1   3.684657757038117E-1  -1.078557771198558E2   3.680180738307633E-1  -1.033075019067297E2   3.887947996883807E-1  -2.941203324418454E1  
 7.115000000000000E10    1.910863242621986E-1   7.537035332705466   3.801255028977379E-1  -1.492343665357678E2   3.799061965986961E-1  -1.447901100001369E2   3.313449916994969E-1  -4.438495533509152E1  
 7.120000000000000E10    1.082576918011089E-1   7.394474050469670   3.891655327554984E-1   1.682039283959325E2   3.895592016667830E-1   1.725131492487410E2   2.868578988740186E-1  -5.081298550708620E1  
 7.125000000000000E10    1.213522138232430E-1   3.492183177248542E1   3.902103664519289E-1   1.252764257747406E2   3.907085431811573E-1   1.294995382184663E2   2.871524099748020E-1  -5.476885811404071E1  
 7.130000000000000E10    1.777163206247171E-1   2.585734035162509E1   3.870088943709329E-1   8.297023187093598E1   3.876438933681883E-1   8.714208643926585E1   3.080359672256234E-1  -6.528568998732760E1  
 7.135000000000000E10    2.033566772390914E-1   4.804289004019656   3.854352658701854E-1   4.112782267321622E1   3.858979942627417E-1   4.534800260667603E1   3.048228487846102E-1  -7.912374187435451E1  
 7.140000000000000E10    1.857493269596710E-1  -1.302005493666216E1   3.853554349805979E-1  -8.813428291185356E-1   3.865348891963049E-1   3.521574643607879   2.782900526476951E-1  -8.986571133082207E1  
 7.145000000000000E10    1.662207494979477E-1  -1.728354150950127E1   3.841338134213558E-1  -4.366351236451127E1   3.853914563160746E-1  -3.892432440426178E1   2.627814900514596E-1  -9.179019719145019E1  
 7.150000000000000E10    1.978445952738867E-1  -1.755848766553275E1   3.764122529905342E-1  -8.615392306278000E1   3.771529001957273E-1  -8.140316016098396E1   3.022044248639258E-1  -9.347054806094685E1  
 7.155000000000000E10    2.630939937866827E-1  -3.273367129994443E1   3.640636402393643E-1  -1.274023877708776E2   3.648370496223872E-1  -1.227860463574279E2   3.699723628660456E-1  -1.046300759833866E2  
 7.160000000000000E10    3.093681091788807E-1  -5.716462525206784E1   3.550935353045503E-1  -1.673502329603622E2   3.552449123705063E-1  -1.628377108128127E2   4.205668135765446E-1  -1.222686440682487E2  
 7.165000000000000E10    3.170466779385686E-1  -8.458006639290359E1   3.535013733352432E-1   1.533490263071686E2   3.536885858654631E-1   1.578563001939205E2   4.315520182012819E-1  -1.415518571103457E2  
 7.170000000000000E10    2.771798454486039E-1  -1.120438592187354E2   3.612176451082603E-1   1.137574718663398E2   3.617599698027151E-1   1.181144026378420E2   4.030699671288088E-1  -1.594569444771645E2  
 7.175000000000000E10    1.976544672698984E-1  -1.348201922178286E2   3.751502534304646E-1   7.257972147419447E1   3.748892162060989E-1   7.697754850628927E1   3.475927508871383E-1  -1.726413929139968E2  
 7.180000000000000E10    1.147039862342361E-1  -1.343999535321819E2   3.837627942393470E-1   3.003338456240462E1   3.847671668633548E-1   3.441898446669683E1   3.037908154099679E-1  -1.776693489892241E2  
