#  HZ   S   MA   R     50.00 
! Rohde & Schwarz ZVA67 4Ports - Version 4.11 - 1305.7002k04 SN: 101051
! Date: 2023-09-13 17:23:36
! Measurements: S11 S21 S12 S22 
! 
 6.705000000000000E10    1.244790903206663E-1  -7.159890444334789E1   3.495057802047041E-1   1.268122523791723E2   3.500978339799707E-1   1.302806732799652E2   4.548252906372695E-1   1.548536595443626E2  
 6.710000000000000E10    1.005522801433630E-1  -1.045255199187041E2   3.541130097491795E-1   8.198018830308951E1   3.539657340721018E-1   8.567391558080443E1   4.258710579945486E-1   1.469705038264704E2  
 6.715000000000000E10    5.106980202875324E-2  -8.126784388329345E1   3.518796492170790E-1   3.668382746924585E1   3.527835827065611E-1   4.049759028711058E1   4.213189491367891E-1   1.418675362922845E2  
 6.720000000000000E10    1.370152512954462E-1  -5.981712284900302E1   3.418159876197086E-1  -8.041869446080774   3.421270996907641E-1  -4.269348930770437   4.578113988369377E-1   1.352596711118835E2  
 6.725000000000000E10    2.371148514968087E-1  -8.983709047874424E1   3.264042425832482E-1  -5.087686283738975E1   3.276074966640185E-1  -4.735155032294579E1   5.063342641112160E-1   1.230661486649553E2  
 6.730000000000000E10    2.944257946717133E-1  -1.242020800562866E2   3.180297515238444E-1  -9.216830559017902E1   3.184161860759946E-1  -8.837453842840749E1   5.332482193764291E-1   1.073122207255398E2  
 6.735000000000000E10    2.948654085511464E-1  -1.590722485379202E2   3.195799138152711E-1  -1.326879771570249E2   3.199801608405110E-1  -1.289375042813286E2   5.272374670934394E-1   9.022772789286296E1  
 6.740000000000000E10    2.401896218237312E-1   1.656056144772297E2   3.307887936820331E-1  -1.740334645739615E2   3.313527721491449E-1  -1.703503142062484E2   4.941911398776344E-1   7.414493869869297E1  
 6.745000000000000E10    1.365634755526113E-1   1.313971183549617E2   3.456453227233549E-1   1.428348615574719E2   3.456646880554306E-1   1.464455212358568E2   4.486625410648946E-1   6.051941743044717E1  
 6.750000000000000E10    2.538543026367330E-2   1.462961935590697E2   3.556082518558682E-1   9.853933583685134E1   3.556002115683500E-1   1.022632666907820E2   4.192773232450119E-1   4.970659840629771E1  
 6.755000000000000E10    8.806087677160300E-2  -1.464714188923350E2   3.588754491091819E-1   5.431380951633358E1   3.600884809157919E-1   5.799565326295119E1   4.049539478417142E-1   3.819206410645089E1  
 6.760000000000000E10    1.277091261626641E-1  -1.757134124693046E2   3.630849234870063E-1   1.032891974361147E1   3.630418269688578E-1   1.402181408319450E1   3.892536708492623E-1   2.491020256369366E1  
 6.765000000000000E10    1.029085767452294E-1   1.591705416830950E2   3.663749509850061E-1  -3.382602486994839E1   3.666469524618781E-1  -3.002998171332797E1   3.581266659227932E-1   1.326360672829584E1  
 6.770000000000000E10    5.894163729289390E-2   1.789632209364958E2   3.673285400109665E-1  -7.860522529084641E1   3.679898531940354E-1  -7.504961347388610E1   3.412011284655565E-1   6.476148504191031  
 6.775000000000000E10    1.247220490255520E-1  -1.601424812816217E2   3.592381323887233E-1  -1.232378668668115E2   3.602841438431033E-1  -1.197738326155243E2   3.703816767930142E-1  -5.214991957129417E-1  
 6.780000000000000E10    2.083088710561313E-1   1.742071740379293E2   3.459137093595762E-1  -1.667476582249314E2   3.472276083493678E-1  -1.631100994740357E2   4.235561093243657E-1  -1.373754272998799E1  
 6.785000000000000E10    2.533396826067897E-1   1.408917475117465E2   3.359725410976026E-1   1.513788364334670E2   3.369026522674868E-1   1.550241969558867E2   4.617819664305571E-1  -3.182999377278154E1  
 6.790000000000000E10    2.501780706473686E-1   1.045641068920780E2   3.342185598034531E-1   1.102476648584776E2   3.360704783096635E-1   1.138456706654925E2   4.734769838565064E-1  -5.100281293953497E1  
 6.795000000000000E10    2.027208926500967E-1   6.500444101799194E1   3.409817741561354E-1   6.848514084883917E1   3.418747332686146E-1   7.223491609005212E1   4.574886928114272E-1  -6.881556736482688E1  
 6.800000000000000E10    1.221122284777899E-1   1.823041396976301E1   3.508011256436768E-1   2.578620127878782E1   3.515291718752252E-1   2.946864782903671E1   4.300417711352623E-1  -8.322317820905869E1  
 6.805000000000000E10    4.088667892776663E-2  -5.724529661115775E1   3.575399874658686E-1  -1.786333634316536E1   3.580715260206954E-1  -1.417867852142226E1   4.125232503309677E-1  -9.506659036698844E1  
 6.810000000000000E10    4.748874510635813E-2   1.587273153771345E2   3.589561028768622E-1  -6.147226157284732E1   3.603383450200192E-1  -5.783611383347911E1   4.094366556004382E-1  -1.060378358365021E2  
 6.815000000000000E10    7.102003161026804E-2   9.306586869592799E1   3.608472062414312E-1  -1.050667016343396E2   3.608971082242052E-1  -1.014310617417278E2   4.089388202271635E-1  -1.179262106343107E2  
 6.820000000000000E10    5.706587250243267E-2   2.876616956774361E1   3.620547501484049E-1  -1.484962053704545E2   3.626690624623539E-1  -1.448869481857540E2   4.017258350394173E-1  -1.287718068931595E2  
 6.825000000000000E10    3.925980391213435E-2  -7.403807023681104E1   3.631619862805461E-1   1.675659603477677E2   3.632783081928251E-1   1.711995391559865E2   3.969548286176309E-1  -1.376434284129333E2  
 6.830000000000000E10    6.609141221276153E-2   1.797563794836221E2   3.590579744512821E-1   1.235911885548370E2   3.594230343238327E-1   1.271446508199652E2   4.121310852288829E-1  -1.448217099865764E2  
 6.835000000000000E10    1.025628468042297E-1   1.096611718453519E2   3.498042627373642E-1   7.987060118361629E1   3.506219789542239E-1   8.356899347346757E1   4.466063006942512E-1  -1.541630615090068E2  
 6.840000000000000E10    1.266775001263632E-1   4.573062806875658E1   3.401859804851633E-1   3.734227963513958E1   3.411369183391146E-1   4.110754956102698E1   4.843337949681229E-1  -1.660676771060120E2  
 6.845000000000000E10    1.506844087279729E-1  -1.639248986145670E1   3.330231190811582E-1  -4.403131608434682   3.339397469122548E-1  -7.207392543627094E-1   5.094381829550514E-1  -1.797264178219615E2  
 6.850000000000000E10    1.721825252296569E-1  -7.448433799500428E1   3.305550746316197E-1  -4.595291444866379E1   3.313926831831414E-1  -4.202698706071594E1   5.162624699468050E-1   1.665409931797249E2  
 6.855000000000000E10    1.766627611239740E-1  -1.266139291522465E2   3.329682506814328E-1  -8.727102447621333E1   3.339400227414338E-1  -8.359485181020031E1   5.093414560513140E-1   1.534422667406398E2  
 6.860000000000000E10    1.470999306450276E-1  -1.733668500235926E2   3.391236580859588E-1  -1.293334599213044E2   3.394200304264446E-1  -1.255821521931081E2   4.916691715513744E-1   1.417657142070877E2  
 6.865000000000000E10    7.904087423257571E-2   1.455308165130753E2   3.444724527935500E-1  -1.720120044980701E2   3.447710400958738E-1  -1.683604914930637E2   4.739579161142067E-1   1.320186475126730E2  
 6.870000000000000E10    2.279873714864784E-2  -1.286150113936864E2   3.468832945178675E-1   1.447972665702348E2   3.478798923984899E-1   1.487229578341014E2   4.654477336674096E-1   1.233238134054241E2  
 6.875000000000000E10    1.088985014873961E-1  -1.387594188162580E2   3.474998388090075E-1   1.020280744065459E2   3.483183137468774E-1   1.056845097639364E2   4.647144062739437E-1   1.142232670195792E2  
 6.880000000000000E10    1.587075699443120E-1  -1.771303559631252E2   3.489475594217872E-1   5.932542593574906E1   3.496799010628283E-1   6.297665596449365E1   4.594251532974971E-1   1.045096463736089E2  
 6.885000000000000E10    1.485204738224670E-1   1.437582510826071E2   3.521705027606074E-1   1.627093648984337E1   3.524787631793481E-1   2.010013708972655E1   4.474530447665120E-1   9.569703795297117E1  
 6.890000000000000E10    7.421821436044111E-2   1.079285649535820E2   3.521592548581725E-1  -2.729728163086604E1   3.532317242423970E-1  -2.344223004395930E1   4.403918422518008E-1   8.878523087830676E1  
 6.895000000000000E10    4.292772839517037E-2  -1.406554342444758E2   3.473220714122136E-1  -7.108538787142678E1   3.474173750773782E-1  -6.704467672241465E1   4.578705477467725E-1   8.184782016827779E1  
 6.900000000000000E10    1.539007562678786E-1  -1.665901091938081E2   3.372142161130033E-1  -1.135244285703273E2   3.377273289918872E-1  -1.096512916514884E2   4.945183691891432E-1   7.181570410304937E1  
 6.905000000000000E10    2.269314142045341E-1   1.575900235749844E2   3.291450350446015E-1  -1.548561120646383E2   3.299953728031305E-1  -1.509149900903730E2   5.172848479518081E-1   5.853222723535760E1  
 6.910000000000000E10    2.431580999411628E-1   1.231391323107942E2   3.290593089259620E-1   1.647042375083071E2   3.297799965787602E-1   1.684045135980951E2   5.150568101520883E-1   4.409687350074920E1  
 6.915000000000000E10    1.986742998318725E-1   9.052913864532908E1   3.358806093242331E-1   1.232749585131514E2   3.364732430349983E-1   1.272725203587985E2   4.896797023514151E-1   3.076438511250317E1  
 6.920000000000000E10    1.085892998438252E-1   6.939784549445824E1   3.441471953790327E-1   8.089603112695269E1   3.445139798851148E-1   8.481886390390700E1   4.586131304389896E-1   1.992368781996041E1  
 6.925000000000000E10    7.031257909842413E-2   1.188405057198153E2   3.475193427463605E-1   3.801346932985294E1   3.482776881476814E-1   4.181974161706513E1   4.483555024744590E-1   1.074823345686474E1  
 6.930000000000000E10    1.543345503739269E-1   1.180785205221539E2   3.467284603938743E-1  -4.667551396632914   3.481464479425010E-1  -7.207658781855042E-1   4.503190899628532E-1  -2.097827960651321E-1  
 6.935000000000000E10    2.065470226025476E-1   9.016582018039928E1   3.480039577451623E-1  -4.655097563511828E1   3.490123609630430E-1  -4.265364022076289E1   4.404349142720854E-1  -1.310867106034338E1  
 6.940000000000000E10    1.980061097470389E-1   5.954213737786942E1   3.544026167927314E-1  -8.880959933683387E1   3.553188631871711E-1  -8.492714852525127E1   4.087074147007400E-1  -2.577224649437675E1  
 6.945000000000000E10    1.364291625211102E-1   3.679039849645216E1   3.628050880053212E-1  -1.321309717417663E2   3.629142288438786E-1  -1.282500252826964E2   3.690938962261192E-1  -3.364181613409367E1  
 6.950000000000000E10    8.359054714213088E-2   5.576440384075080E1   3.628221828011087E-1  -1.763269807915824E2   3.632580347493519E-1  -1.723553484859252E2   3.659308070831197E-1  -3.677348692945682E1  
 6.955000000000000E10    1.468716698958823E-1   6.897022816544279E1   3.539167182623038E-1   1.402627943705262E2   3.548394250505270E-1   1.441674692234807E2   4.087216109006930E-1  -4.351375639006824E1  
 6.960000000000000E10    2.163531839863560E-1   4.406932590966208E1   3.431468815647101E-1   9.819302688290576E1   3.446532481521443E-1   1.020880115731202E2   4.557599699990058E-1  -5.658798388929590E1  
 6.965000000000000E10    2.407668168141928E-1   1.180096320304825E1   3.381217974591017E-1   5.733090922014360E1   3.391296735928218E-1   6.107306273043468E1   4.750802702397831E-1  -7.233249171096217E1  
 6.970000000000000E10    2.117208545695804E-1  -2.169618347002049E1   3.407298155338874E-1   1.621611043974020E1   3.416655066778317E-1   2.008329318007056E1   4.673212933952705E-1  -8.764252798987079E1  
 6.975000000000000E10    1.351051843010800E-1  -5.331129794221420E1   3.466580398566928E-1  -2.567771780591459E1   3.469698692270328E-1  -2.161236614397476E1   4.476217496886319E-1  -1.006583984839474E2  
 6.980000000000000E10    4.512148452273057E-2  -4.852934832973318E1   3.502268054893805E-1  -6.813329638220083E1   3.509567978141118E-1  -6.413310451771513E1   4.337252523886080E-1  -1.112887938257388E2  
 6.985000000000000E10    9.409659844476162E-2   7.930360673566071   3.502790015899129E-1  -1.107316547817638E2   3.501818597271157E-1  -1.065132999697017E2   4.342803049707330E-1  -1.220910841889707E2  
 6.990000000000000E10    1.661833186880203E-1  -1.809594276325753E1   3.497792959168806E-1  -1.525975546091430E2   3.499847399919161E-1  -1.483163211196630E2   4.335164009791702E-1  -1.350207718223175E2  
 6.995000000000000E10    1.950450470442354E-1  -5.023121175428496E1   3.531313542114054E-1   1.658023412619198E2   3.537570920016475E-1   1.699847088076032E2   4.114607269070236E-1  -1.487332989306692E2  
 7.000000000000000E10    1.727208916078436E-1  -8.000105535262706E1   3.616604854037172E-1   1.235429416641853E2   3.612918072177727E-1   1.275625233122562E2   3.679038555114688E-1  -1.597209211569260E2  
 7.005000000000000E10    1.145152402459632E-1  -9.296787179210797E1   3.660605554689032E-1   8.009659413146105E1   3.666270498163629E-1   8.403718715867312E1   3.309471843305867E-1  -1.638939299809481E2  
 7.010000000000000E10    1.130103968679216E-1  -7.238986104656453E1   3.639630301173820E-1   3.635052761790242E1   3.636583643939353E-1   4.029763173773065E1   3.453808573685618E-1  -1.648522332236117E2  
 7.015000000000000E10    1.884729689326791E-1  -8.014448135026926E1   3.544040103098068E-1  -6.564540012818090   3.546182160914843E-1  -2.609177736453855   3.984715178371896E-1  -1.726271377032651E2  
 7.020000000000000E10    2.459816075755154E-1  -1.067619011735002E2   3.447644244549855E-1  -4.788998088940712E1   3.450969260402969E-1  -4.397024482227456E1   4.408188974546659E-1   1.735383929551478E2  
 7.025000000000000E10    2.577163202215286E-1  -1.366905144298049E2   3.422135546261367E-1  -8.863187073218037E1   3.418836924477517E-1  -8.460147341318979E1   4.506868232743000E-1   1.578403119623352E2  
 7.030000000000000E10    2.191096959712138E-1  -1.649104088433456E2   3.456460744738645E-1  -1.297115800575188E2   3.458837329142196E-1  -1.255334095039037E2   4.324678498782882E-1   1.435788442465623E2  
 7.035000000000000E10    1.417387987356534E-1   1.789396747404241E2   3.529212009231712E-1  -1.716732932889277E2   3.523312013254016E-1  -1.674630124905644E2   4.057041013800264E-1   1.330066755553450E2  
 7.040000000000000E10    1.039210613194357E-1  -1.580943917165185E2   3.542653142129804E-1   1.456167116947605E2   3.547777435586506E-1   1.501857349978899E2   3.973038599531472E-1   1.247793294096159E2  
 7.045000000000000E10    1.686329328380813E-1  -1.531475568672163E2   3.529606591391175E-1   1.033531680443943E2   3.532868662602740E-1   1.079979732525408E2   4.088393789048125E-1   1.146618633341281E2  
 7.050000000000000E10    2.250241458951083E-1  -1.740645083553418E2   3.523446353480275E-1   6.195359539576705E1   3.520811685069414E-1   6.653697777629240E1   4.112097387482525E-1   1.011788618806794E2  
 7.055000000000000E10    2.287221372343290E-1   1.614211431498607E2   3.556497767046467E-1   2.057181152764263E1   3.570109425805523E-1   2.508456857462922E1   3.812958750007751E-1   8.708219635177541E1  
 7.060000000000000E10    1.836359100307495E-1   1.433042309482655E2   3.645832550076187E-1  -2.176123299276713E1   3.646204179347333E-1  -1.730781081176802E1   3.285511773471200E-1   7.747543354801884E1  
 7.065000000000000E10    1.427079200095189E-1   1.482161393626571E2   3.674955022412140E-1  -6.506607545113091E1   3.677251907295884E-1  -6.061126212393714E1   2.993850176370236E-1   7.700903627350668E1  
 7.070000000000000E10    1.862786698927865E-1   1.561832304706043E2   3.622981062566272E-1  -1.083791116028263E2   3.620960556549023E-1  -1.038365279145087E2   3.324908195081134E-1   7.555891381578670E1  
 7.075000000000000E10    2.541973438101458E-1   1.408253998451752E2   3.526195891577424E-1  -1.502782542092220E2   3.532406181057217E-1  -1.457957350022319E2   3.832073377019853E-1   6.431415497877478E1  
 7.080000000000000E10    2.853597623398581E-1   1.171788000285138E2   3.482796036395436E-1   1.690161072738043E2   3.481369913913578E-1   1.733346593850707E2   4.054554452131118E-1   4.782349445557417E1  
 7.085000000000000E10    2.645220188362678E-1   9.349934190210203E1   3.504102552179565E-1   1.282097589976896E2   3.511737701636851E-1   1.326748874804380E2   3.858384509388929E-1   3.176361066377983E1  
 7.090000000000000E10    2.085067283424350E-1   7.663531123378766E1   3.574852867160762E-1   8.646138530696388E1   3.571793166624263E-1   9.115429534699514E1   3.458835599882800E-1   1.977586516218222E1  
 7.095000000000000E10    1.628148609982504E-1   7.721375308860006E1   3.606170456556620E-1   4.390929120615610E1   3.611817552544763E-1   4.867615367229455E1   3.253313451382838E-1   1.371357638824825E1  
 7.100000000000000E10    1.884645813184034E-1   8.129419973619591E1   3.590445397617274E-1   1.515940315611093   3.598088435969457E-1   6.169778143296703   3.444174459188104E-1   6.192330321326148  
 7.105000000000000E10    2.326260702102473E-1   6.757859990685549E1   3.564819301770317E-1  -4.010429493867463E1   3.564160692202167E-1  -3.544265652157721E1   3.707381166067690E-1  -7.348359871812933  
 7.110000000000000E10    2.422234331746211E-1   4.501182128586586E1   3.574115149113616E-1  -8.111084038867314E1   3.578690594435676E-1  -7.665617432559272E1   3.693531067113587E-1  -2.436213068353084E1  
 7.115000000000000E10    2.082343762619564E-1   2.234135995350802E1   3.636765370606850E-1  -1.226083790574232E2   3.634950623139013E-1  -1.181526542117238E2   3.343674504392891E-1  -4.048229057484246E1  
 7.120000000000000E10    1.415762440885388E-1   1.064414349368760E1   3.708230088930311E-1  -1.650668306991596E2   3.706304939814734E-1  -1.606771285543734E2   2.882238317497183E-1  -4.987114771601361E1  
 7.125000000000000E10    1.170004904649803E-1   2.892203130004918E1   3.716391681097227E-1   1.519870141722056E2   3.721021439457193E-1   1.560508472306251E2   2.757527699164304E-1  -5.217024532203718E1  
 7.130000000000000E10    1.733850689934864E-1   3.193883295140320E1   3.666570460885543E-1   1.091007841503082E2   3.674128461694514E-1   1.133264281508936E2   3.087508282895762E-1  -5.851111714350143E1  
 7.135000000000000E10    2.285239094893525E-1   1.271051863625527E1   3.603424891832313E-1   6.733768049621824E1   3.612006290321704E-1   7.154175064208604E1   3.404469306541309E-1  -7.252184969768835E1  
 7.140000000000000E10    2.430834494906785E-1  -1.132453098269888E1   3.580333903837332E-1   2.608445467290959E1   3.586243117712257E-1   3.050383268823271E1   3.431227898696551E-1  -8.875882094655086E1  
 7.145000000000000E10    2.204863132471417E-1  -3.189285182803607E1   3.599292121656226E-1  -1.553089899765546E1   3.606709153621340E-1  -1.089424256036328E1   3.169131425536138E-1  -1.022649407799050E2  
 7.150000000000000E10    1.857726709011990E-1  -4.198567254964657E1   3.627712726703694E-1  -5.767642969319807E1   3.625248946790867E-1  -5.300623468510219E1   2.916553487269893E-1  -1.086464572514516E2  
 7.155000000000000E10    1.919078785082137E-1  -4.267339221863600E1   3.597760345996703E-1  -1.000715872641495E2   3.597518231662801E-1  -9.545756312684738E1   3.064448679526219E-1  -1.115743796678862E2  
 7.160000000000000E10    2.359456164539716E-1  -5.353063150029310E1   3.527752787290431E-1  -1.418442770690913E2   3.535776455021908E-1  -1.373483961406006E2   3.547185051064597E-1  -1.209157988327917E2  
 7.165000000000000E10    2.715346703905881E-1  -7.541987901219305E1   3.472126919939631E-1   1.774111620354761E2   3.477376651902552E-1  -1.780542119588482E2   3.910868968851661E-1  -1.361088719910284E2  
 7.170000000000000E10    2.676557725876536E-1  -1.009041133499039E2   3.485957683908937E-1   1.372390815946367E2   3.486697854713050E-1   1.415512046178450E2   3.943363994197780E-1  -1.531684872673683E2  
 7.175000000000000E10    2.191752080752817E-1  -1.254008477481379E2   3.562701885961239E-1   9.622227558931131E1   3.561011980202914E-1   1.005958228724245E2   3.629175107006779E-1  -1.680525122324542E2  
 7.180000000000000E10    1.393590441575065E-1  -1.376018300558358E2   3.643420873329652E-1   5.408794550423795E1   3.646770825689249E-1   5.839895271983384E1   3.205659350068836E-1  -1.764373025775470E2  
