#  HZ   S   MA   R     50.00 
! Rohde & Schwarz ZVA67 4Ports - Version 4.11 - 1305.7002k04 SN: 101051
! Date: 2023-09-13 17:18:35
! Measurements: S11 S21 S12 S22 
! 
 6.705000000000000E10    4.655040387656501E-2  -9.129363726060113E1   2.741869117640024E-3  -1.762176042783008E2   2.834305997130043E-3  -1.756222046601161E2   4.811049729618402E-1   1.566487959975302E2  
 6.710000000000000E10    6.789361617245146E-2  -6.483536321722841E1   2.847268440074434E-3   1.379840433834202E2   2.803604970601325E-3   1.412268768185000E2   4.640543365359124E-1   1.470292367031284E2  
 6.715000000000000E10    1.089851759510463E-1  -7.077106022085256E1   2.755117138496881E-3   9.367411588481403E1   2.738375812409306E-3   9.868318698695184E1   4.566086753037791E-1   1.378878890718001E2  
 6.720000000000000E10    1.489020756717165E-1  -8.648586128982456E1   2.640818263331502E-3   4.528915852620783E1   2.707000699169807E-3   5.520555758449385E1   4.573966502683576E-1   1.286539057000763E2  
 6.725000000000000E10    1.807025646185249E-1  -1.058241387973475E2   2.743539966083836E-3   8.382369845159909   2.838663666747882E-3   1.274944599482830E1   4.648138779385604E-1   1.184420099072588E2  
 6.730000000000000E10    2.012544399605333E-1  -1.258486552468391E2   2.659416388837258E-3  -3.844283014553764E1   2.798268196887567E-3  -3.165667186216171E1   4.719056975465063E-1   1.070981159977866E2  
 6.735000000000000E10    2.052812176076837E-1  -1.461763718934732E2   2.800039171222256E-3  -7.940106534928715E1   2.737712852926524E-3  -7.009326059510194E1   4.759504179562230E-1   9.451187308195016E1  
 6.740000000000000E10    1.964430886600385E-1  -1.662369147547960E2   2.759702820839893E-3  -1.193847544795978E2   2.841069532928328E-3  -1.156413906124033E2   4.753909232589137E-1   8.112179131035417E1  
 6.745000000000000E10    1.708743432338373E-1   1.740979930720355E2   2.784436473061911E-3  -1.599439203363721E2   2.847346601993382E-3  -1.556008987697032E2   4.657865503988614E-1   6.699059761023490E1  
 6.750000000000000E10    1.351690003403691E-1   1.572618510160272E2   3.157104932022216E-3   1.590059264312487E2   2.803009341231573E-3   1.627337166803353E2   4.513132363710448E-1   5.303310526696524E1  
 6.755000000000000E10    8.947006972787158E-2   1.473794787368433E2   3.071613982850289E-3   1.134546181695945E2   3.004326026917793E-3   1.182128823636943E2   4.286046297174888E-1   3.929122888424166E1  
 6.760000000000000E10    5.561666123009865E-2   1.622698793364736E2   2.983618665226669E-3   7.145604736017164E1   3.053799657763255E-3   7.370407699333561E1   4.086071833952615E-1   2.622695735680845E1  
 6.765000000000000E10    6.582897637216836E-2  -1.658359010494963E2   3.054063107566928E-3   3.016644718942939E1   2.986703626311794E-3   3.262602323429538E1   3.886340763613412E-1   1.405308259079875E1  
 6.770000000000000E10    1.045760756728881E-1  -1.653439213630304E2   2.890886416652938E-3  -1.645613368406957E1   3.077502340419928E-3  -1.049681434014719E1   3.772245468838137E-1   2.952457066247591  
 6.775000000000000E10    1.411557796754069E-1   1.795570968134716E2   2.998349345579632E-3  -5.732822616049173E1   3.106237086523013E-3  -5.202383814141491E1   3.771382834057788E-1  -8.480138726954818  
 6.780000000000000E10    1.671158798294009E-1   1.608735647662683E2   3.176600681490871E-3  -1.039510308146238E2   3.176584969042916E-3  -9.730679771887247E1   3.860753147703925E-1  -2.001365981789715E1  
 6.785000000000000E10    1.780791762821663E-1   1.404333855543106E2   3.123837518036657E-3  -1.428152476752446E2   3.143238629600031E-3  -1.403990258280929E2   4.010623028154899E-1  -3.294870090593198E1  
 6.790000000000000E10    1.759380840583996E-1   1.180509020106807E2   3.054296925888020E-3   1.703060934666686E2   3.171205774409425E-3   1.766212641833730E2   4.187119530080820E-1  -4.697004147727248E1  
 6.795000000000000E10    1.607002884802797E-1   9.503855113269131E1   3.016981425662970E-3   1.302452818883995E2   3.051093322381083E-3   1.358517847934977E2   4.325039811589807E-1  -6.162705313063987E1  
 6.800000000000000E10    1.330538469086569E-1   7.016756772234668E1   3.032528611832128E-3   8.468202535115579E1   3.097177729678693E-3   8.999460961390982E1   4.404426565381490E-1  -7.631388462957702E1  
 6.805000000000000E10    9.922442504627635E-2   4.280515566775108E1   3.006331341846533E-3   4.464903704223413E1   3.022032247372029E-3   5.409760982520474E1   4.429907849057285E-1  -9.108093223986327E1  
 6.810000000000000E10    6.475261794706913E-2   9.857892078912926   3.332860013411405E-3   4.572916566945006   2.927971682222611E-3   7.346211470903798   4.364353181901963E-1  -1.048803910356226E2  
 6.815000000000000E10    3.252275033478991E-2  -3.790723963823537E1   3.085071077433651E-3  -4.092667191003603E1   3.185310614783304E-3  -3.522626293683852E1   4.283234711206975E-1  -1.178452025364321E2  
 6.820000000000000E10    2.478784062162211E-2  -1.291830893245194E2   3.089993201542797E-3  -7.955239988215743E1   3.268931477886697E-3  -7.683018609535569E1   4.191648859646973E-1  -1.291621048289894E2  
 6.825000000000000E10    3.659652557627054E-2   1.664990627396428E2   3.341287955676479E-3  -1.214813610338804E2   3.336361752798420E-3  -1.200006795866748E2   4.137760650737847E-1  -1.392362766715774E2  
 6.830000000000000E10    4.710409478618271E-2   1.233562896112716E2   3.176398419686325E-3  -1.665128113054054E2   3.305829540987093E-3  -1.612666922746028E2   4.172305108007063E-1  -1.481288405526273E2  
 6.835000000000000E10    5.140903656452236E-2   8.318832878141924E1   3.118291622181589E-3   1.501737600218011E2   2.981764361640570E-3   1.549000248036058E2   4.311659753963367E-1  -1.572367756409361E2  
 6.840000000000000E10    5.275904106320037E-2   3.930850370218840E1   2.928233111477949E-3   1.064200270813578E2   3.228317501841639E-3   1.086820023028240E2   4.526089773215932E-1  -1.670130480819270E2  
 6.845000000000000E10    5.975937559071713E-2  -7.225118221391745   3.258759159537496E-3   6.551888914103928E1   3.119208552037791E-3   6.691124742767623E1   4.755261849126109E-1  -1.781002517849309E2  
 6.850000000000000E10    7.386637416958174E-2  -5.204125091879639E1   3.016849566655102E-3   2.279106322162606E1   3.014510437355423E-3   2.385836604925288E1   4.949234654083532E-1   1.701151783654834E2  
 6.855000000000000E10    9.194995139126051E-2  -8.808292236954900E1   3.075996488550273E-3  -2.102321247072764E1   3.019174451290512E-3  -1.495291235250874E1   5.083067527142623E-1   1.578099136123878E2  
 6.860000000000000E10    1.111569302354072E-1  -1.175930410044458E2   3.216603752228490E-3  -5.524519605877720E1   3.101110206777544E-3  -5.674355214119592E1   5.109761875984288E-1   1.455097151398274E2  
 6.865000000000000E10    1.241528356483311E-1  -1.440178455086918E2   2.915006328478560E-3  -1.015053018387626E2   3.055217650098854E-3  -9.473718059894304E1   5.051765764114672E-1   1.335208255304796E2  
 6.870000000000000E10    1.285984056737138E-1  -1.667835427546034E2   2.996706113875901E-3  -1.437746347459391E2   3.085254905216816E-3  -1.384093201110231E2   4.899080237727628E-1   1.222113640879645E2  
 6.875000000000000E10    1.239947202580770E-1   1.734936287483189E2   3.114856710756462E-3   1.738468074893425E2   3.127042350688349E-3   1.779705006082847E2   4.702814690891288E-1   1.120934880526340E2  
 6.880000000000000E10    1.091976975339999E-1   1.575326202792612E2   3.131443896990338E-3   1.330804527547041E2   3.344144450201499E-3   1.352063515323852E2   4.510454277819895E-1   1.034663847188114E2  
 6.885000000000000E10    8.993804768792568E-2   1.491670550171285E2   3.218586026678403E-3   8.808063921597343E1   3.283880953360884E-3   9.271135223144141E1   4.413549229049790E-1   9.622662962132684E1  
 6.890000000000000E10    7.462211946676468E-2   1.521007939210558E2   3.403510592467538E-3   4.638100209105760E1   3.313156646587462E-3   5.050345490376442E1   4.428843520549466E-1   8.907708514747283E1  
 6.895000000000000E10    7.836022922602599E-2   1.617518797829641E2   3.154992272537298E-3   5.369118625398482   3.244751722663113E-3   7.742152795641130   4.553519562167410E-1   8.086949201711023E1  
 6.900000000000000E10    1.004634368023280E-1   1.642786002777964E2   3.062892437034678E-3  -4.038179746849281E1   3.128464062931739E-3  -3.396371895196844E1   4.752591899327091E-1   7.136962948524105E1  
 6.905000000000000E10    1.290542101456500E-1   1.558233348731615E2   3.053086819473663E-3  -8.105506931691052E1   3.199776495405279E-3  -7.756208054401742E1   4.923844399807249E-1   6.031313281039827E1  
 6.910000000000000E10    1.535701193807871E-1   1.427846176902658E2   2.944560036602476E-3  -1.218227897005334E2   3.015742807912816E-3  -1.175009642937944E2   5.020936567831139E-1   4.806164550452506E1  
 6.915000000000000E10    1.706765162558916E-1   1.276205979672548E2   3.042742604133199E-3  -1.622462837947752E2   3.037679190165650E-3  -1.586122626380872E2   5.036396267839498E-1   3.520856159518488E1  
 6.920000000000000E10    1.795472431241502E-1   1.115317142197286E2   2.941928942032962E-3   1.568083570354917E2   3.109033084615573E-3   1.622826221544747E2   4.937393591812187E-1   2.188868146952146E1  
 6.925000000000000E10    1.782007965546710E-1   9.643200505137492E1   3.265367864847171E-3   1.135822470072226E2   2.997351786362558E-3   1.181302584296058E2   4.761947207954425E-1   8.853589044460446  
 6.930000000000000E10    1.684078138847755E-1   8.205559291939005E1   3.225924491284535E-3   7.068361785121928E1   3.122364190381029E-3   8.039150815654975E1   4.493310139423857E-1  -3.408751706555749  
 6.935000000000000E10    1.524340997516124E-1   7.001815055082689E1   3.128545602231087E-3   2.850624103257668E1   3.279874927198689E-3   3.542601270943678E1   4.185081645018636E-1  -1.407766369554564E1  
 6.940000000000000E10    1.352758813066591E-1   6.106812572600433E1   3.438371076190680E-3  -1.162682644889153E1   3.338945714814667E-3  -5.863606282453820   3.932859704529190E-1  -2.314944711747986E1  
 6.945000000000000E10    1.249031974977956E-1   5.649666746013947E1   3.443078489884593E-3  -5.221781239773702E1   3.502116309147939E-3  -4.977170524345372E1   3.800141355277737E-1  -3.055402344687193E1  
 6.950000000000000E10    1.251450156138269E-1   5.318625377547495E1   3.465396003010567E-3  -9.695341819547151E1   3.401323288326698E-3  -9.097642448505714E1   3.841631976343312E-1  -3.784916149319356E1  
 6.955000000000000E10    1.328474683631050E-1   4.700697148466460E1   3.432457020001259E-3  -1.370630941146760E2   3.261496417864773E-3  -1.340652171488864E2   4.025573990527132E-1  -4.634903395689771E1  
 6.960000000000000E10    1.452115784730371E-1   3.704182138838407E1   3.256036469130982E-3   1.791013292262173E2   3.349743941570926E-3  -1.765951007434693E2   4.281523048134714E-1  -5.708354186161535E1  
 6.965000000000000E10    1.574056662821589E-1   2.355907219446655E1   3.091856493016439E-3   1.403016023610186E2   3.173017790215144E-3   1.440991563653375E2   4.497756339427948E-1  -6.943954337313896E1  
 6.970000000000000E10    1.640503740795310E-1   8.154643139679260   3.169339666988454E-3   9.873581232311852E1   3.219773608086051E-3   1.017708138704747E2   4.651237548610499E-1  -8.301572818213356E1  
 6.975000000000000E10    1.646117718450779E-1  -8.233712174238837   3.122759282255433E-3   5.444439611955364E1   3.186483579100035E-3   6.147192927965769E1   4.710910932293903E-1  -9.707775154254762E1  
 6.980000000000000E10    1.580807932521084E-1  -2.551068038631762E1   3.221778858231597E-3   1.734858894235061E1   3.219603178850389E-3   2.370180472069347E1   4.642622023156765E-1  -1.110944517301830E2  
 6.985000000000000E10    1.481240880258604E-1  -4.076614954196523E1   3.548361164587881E-3  -2.428413217050667E1   3.317941212973910E-3  -1.984420681162630E1   4.484735566543718E-1  -1.246143585372966E2  
 6.990000000000000E10    1.336034695044828E-1  -5.443235545561515E1   3.275981378416079E-3  -6.428280695526932E1   3.538834865712019E-3  -6.097959283280939E1   4.230884520363519E-1  -1.371159634628370E2  
 6.995000000000000E10    1.214049126501026E-1  -6.352446044839265E1   3.415677296241931E-3  -1.064495075961305E2   3.370603110413525E-3  -1.056456066285734E2   3.934163320340126E-1  -1.478683542009102E2  
 7.000000000000000E10    1.164051547844625E-1  -6.923913868394436E1   3.589857802172143E-3  -1.510514115694403E2   3.581660059432070E-3  -1.486211152369862E2   3.670402773024805E-1  -1.562696936247785E2  
 7.005000000000000E10    1.218066287082412E-1  -7.324109190034223E1   3.592572578290167E-3   1.654636739803834E2   3.708164233039500E-3   1.717494609958451E2   3.531714026651432E-1  -1.625917660218641E2  
 7.010000000000000E10    1.378917394020597E-1  -8.074108677279183E1   3.445337839339339E-3   1.253549775323663E2   3.623839738650415E-3   1.285115306439823E2   3.573716947381435E-1  -1.683194887306491E2  
 7.015000000000000E10    1.610990600046517E-1  -9.152672681464796E1   3.684453876796104E-3   7.970002162159308E1   3.524354761170556E-3   8.683989555677803E1   3.774701240546762E-1  -1.758201019097133E2  
 7.020000000000000E10    1.821682477104482E-1  -1.055421512914248E2   3.533937264013977E-3   4.063144650932809E1   3.488488845130841E-3   4.337573792683532E1   4.027563312980591E-1   1.745381752399162E2  
 7.025000000000000E10    1.998409136610093E-1  -1.216034101804959E2   3.440541492077930E-3  -2.855135051991956   3.357452474515743E-3   1.994551798877534   4.257623302730363E-1   1.627464772553938E2  
 7.030000000000000E10    2.117055963931408E-1  -1.385826196119122E2   3.210365726453477E-3  -4.346520834402630E1   3.359811744782572E-3  -3.690662420140441E1   4.410562145000414E-1   1.499731554349238E2  
 7.035000000000000E10    2.148734388421449E-1  -1.550249840111863E2   3.366185731668576E-3  -7.933520359303897E1   3.439967951795251E-3  -7.684150117050805E1   4.448776979296600E-1   1.366032709937911E2  
 7.040000000000000E10    2.069319170188487E-1  -1.706589429643425E2   3.506402114861406E-3  -1.235306301680742E2   3.466539015652250E-3  -1.189599582313349E2   4.366672253909459E-1   1.230543718556284E2  
 7.045000000000000E10    1.927136351850402E-1   1.754431777438898E2   3.415707632949273E-3  -1.659548136888003E2   3.669446348869127E-3  -1.594977045265781E2   4.178315687282133E-1   1.102447835039494E2  
 7.050000000000000E10    1.738582941751424E-1   1.650156708821391E2   3.508553682093689E-3   1.535526570014892E2   3.782105241014980E-3   1.580968974406299E2   3.913198724600325E-1   9.860188287761183E1  
 7.055000000000000E10    1.561991294082030E-1   1.591368089433722E2   3.734283540335509E-3   1.091294756505886E2   3.852026167748884E-3   1.160771096738862E2   3.593616978257209E-1   8.875542811616121E1  
 7.060000000000000E10    1.517575040895152E-1   1.575734576049350E2   3.534042104207534E-3   6.942616333394381E1   3.835906594703726E-3   7.414883343490266E1   3.340030815448035E-1   8.129042633459784E1  
 7.065000000000000E10    1.642772796328458E-1   1.558698611011858E2   3.727316595972109E-3   2.398213800002599E1   3.856784438389775E-3   3.153600229919405E1   3.206998051703344E-1   7.582652027865203E1  
 7.070000000000000E10    1.886954330412352E-1   1.499450932365191E2   3.852680398103720E-3  -1.277959270145764E1   3.790832827320447E-3  -1.286466438617033E1   3.247525248822785E-1   7.038995281773319E1  
 7.075000000000000E10    2.168914823012805E-1   1.394483309059005E2   3.590345876555780E-3  -5.779628073143006E1   3.618731784460455E-3  -5.208731575600726E1   3.417976082366359E-1   6.314785735590913E1  
 7.080000000000000E10    2.425128658786132E-1   1.254822939548166E2   3.646951528729039E-3  -9.667165286956993E1   3.684009418458130E-3  -9.488525415883797E1   3.644760766355165E-1   5.290928107121825E1  
 7.085000000000000E10    2.574533101146397E-1   1.100302926481882E2   3.443653311771015E-3  -1.413233081643984E2   3.466887905164421E-3  -1.373587282094362E2   3.808694924847736E-1   4.105460787151020E1  
 7.090000000000000E10    2.637871670237822E-1   9.350923744942199E1   3.504200570480746E-3   1.784113686056305E2   3.601093529118686E-3  -1.756382593357972E2   3.903314053433258E-1   2.749316933493402E1  
 7.095000000000000E10    2.571402525906065E-1   7.672351122229651E1   3.853043450944248E-3   1.391548455295106E2   3.810232460235291E-3   1.458188415144381E2   3.888399070452998E-1   1.341662472508436E1  
 7.100000000000000E10    2.412041540183645E-1   6.029906127850767E1   3.530152549006202E-3   1.018641621959314E2   3.601032282252703E-3   1.017996602068352E2   3.787419918464041E-1  -1.047896682132373  
 7.105000000000000E10    2.125651916609913E-1   4.541592398103872E1   3.748120215565226E-3   5.738815739496118E1   3.718171133185024E-3   6.278297487566147E1   3.602873228772948E-1  -1.467632895069677E1  
 7.110000000000000E10    1.769254772597959E-1   3.322705260259717E1   3.579227934028228E-3   1.578437001009163E1   3.737375120406329E-3   2.081369542024385E1   3.341897679986713E-1  -2.716612249233147E1  
 7.115000000000000E10    1.454613622676900E-1   2.760889136202226E1   3.673995822791715E-3  -2.609512568982296E1   3.831205669613644E-3  -2.301016697873610E1   3.076522227436027E-1  -3.817568742757442E1  
 7.120000000000000E10    1.288737227318145E-1   2.946255582577481E1   3.893629722071282E-3  -6.870398179891026E1   3.833319739294008E-3  -6.354745937157742E1   2.878763709175854E-1  -4.657037183868678E1  
 7.125000000000000E10    1.396029413206846E-1   3.250714418185454E1   3.980653573782281E-3  -1.109242000438239E2   3.884702664597326E-3  -1.053756381127120E2   2.800793350673881E-1  -5.323909233497813E1  
 7.130000000000000E10    1.665265342572422E-1   2.814208880262459E1   3.843634985951363E-3  -1.513786289751334E2   3.783829428664490E-3  -1.482312970460612E2   2.876722559881788E-1  -6.033690443781311E1  
 7.135000000000000E10    2.017866165077003E-1   1.669945112084224E1   3.691883956829419E-3   1.674541557105507E2   3.903328611419270E-3   1.714530909274013E2   3.041343388676148E-1  -6.891216609873931E1  
 7.140000000000000E10    2.297314717205130E-1   1.016894099246264   3.758657864162659E-3   1.254876662163989E2   3.795849502332462E-3   1.297082026468029E2   3.261497802558178E-1  -7.964171355263021E1  
 7.145000000000000E10    2.519738893329940E-1  -1.674237617262020E1   3.867891032802432E-3   8.255083724551953E1   3.739931460001309E-3   8.850834057420123E1   3.469629657628970E-1  -9.200143234200516E1  
 7.150000000000000E10    2.630004987784494E-1  -3.559924047570900E1   3.927722991751217E-3   4.217375124767968E1   3.847406672192975E-3   4.851245968386522E1   3.599911322716277E-1  -1.052176430056932E2  
 7.155000000000000E10    2.640627377563543E-1  -5.463521065799037E1   3.854794117392451E-3   3.350677849306889   3.777247186375267E-3   8.016009947814213   3.646922802203666E-1  -1.184901976205016E2  
 7.160000000000000E10    2.522770879483918E-1  -7.347267867292406E1   3.736514177706689E-3  -3.488119683754913E1   3.833010905484314E-3  -3.158347688139408E1   3.621206222895268E-1  -1.315787240691604E2  
 7.165000000000000E10    2.316435735875332E-1  -9.142920784972333E1   3.858712574839218E-3  -7.782461393891765E1   3.783869198569347E-3  -7.227494615388434E1   3.519347884942501E-1  -1.436886059148705E2  
 7.170000000000000E10    1.999797882075282E-1  -1.067981578630448E2   3.992779615508684E-3  -1.199648836706577E2   4.015242551684188E-3  -1.142969337259667E2   3.381816136816200E-1  -1.542008350684171E2  
 7.175000000000000E10    1.657132930582554E-1  -1.177027014442047E2   4.102050491301245E-3  -1.617806571403245E2   4.039619978054835E-3  -1.558640155146946E2   3.251787363184724E-1  -1.631363510238055E2  
 7.180000000000000E10    1.380614153111314E-1  -1.205686849056325E2   4.073791835025914E-3   1.564774905302166E2   4.074707362808386E-3   1.632678614901658E2   3.175524845018611E-1  -1.704472255787352E2  
