#  HZ   S   MA   R     50.00 
! Rohde & Schwarz ZVA67 4Ports - Version 4.11 - 1305.7002k04 SN: 101051
! Date: 2023-09-13 17:17:42
! Measurements: S11 S21 S12 S22 
! 
 6.705000000000000E10    5.032217224079699E-1  -9.854168938437300E1   4.213808217912274E-3  -1.370282005266932E2   4.191764756806145E-3  -1.338179333799062E2   7.430230262991879E-1   1.599982316933858E2  
 6.710000000000000E10    4.887309141833613E-1  -1.337020026152081E2   4.569252101046431E-3  -1.739573693880377E2   4.653593970546504E-3  -1.683047008926420E2   7.300356958525398E-1   1.404055380333433E2  
 6.715000000000000E10    4.506842823240178E-1  -1.714561520046348E2   5.143689871953798E-3   1.496185349629111E2   5.337459286267808E-3   1.539322448124827E2   6.938222823386864E-1   1.197066827670166E2  
 6.720000000000000E10    3.912483725306589E-1   1.452228347998951E2   6.107781206211003E-3   1.095457423253405E2   6.126050811742627E-3   1.139827020680695E2   6.184796660757582E-1   9.697794913810935E1  
 6.725000000000000E10    3.300509503172004E-1   9.334723616828899E1   7.225443020637592E-3   6.204573499809217E1   7.281942334599084E-3   6.849928713127424E1   4.806752443054192E-1   7.066905392125618E1  
 6.730000000000000E10    3.062781382345925E-1   3.321669042281680E1   8.439117034492650E-3   1.241910558063306E1   8.275019018597608E-3   1.679015299162135E1   2.455246764079853E-1   4.181837208881438E1  
 6.735000000000000E10    3.412500630118258E-1  -2.403796674679056E1   8.193557849570826E-3  -4.187126456504252E1   8.626030324742578E-3  -3.695793906662174E1   7.148648424427870E-2   1.569812982195430E2  
 6.740000000000000E10    3.997413753296688E-1  -7.100649198349743E1   7.701683589556300E-3  -9.217985295227074E1   7.693698200650621E-3  -8.694581520706920E1   3.477627071119346E-1   1.397404675507090E2  
 6.745000000000000E10    4.556695352087098E-1  -1.094523700484238E2   6.872392864621974E-3  -1.389616328767464E2   6.684943758329352E-3  -1.328879838627151E2   5.269962668231625E-1   1.104250648036601E2  
 6.750000000000000E10    4.900741311835674E-1  -1.436674254368504E2   5.880302392390217E-3  -1.784709905959631E2   5.696693821726601E-3  -1.738151829276586E2   6.259348810444244E-1   8.415076735004622E1  
 6.755000000000000E10    5.050810703119255E-1  -1.758771040658272E2   5.435323074802618E-3   1.448326641884933E2   5.333529685246368E-3   1.478769716208312E2   6.727604995033032E-1   5.990593400284599E1  
 6.760000000000000E10    4.989136551110420E-1   1.515778271082542E2   5.140455208592448E-3   1.074832135876693E2   5.308729959623027E-3   1.128645210660222E2   6.944426921132049E-1   3.666315799624389E1  
 6.765000000000000E10    4.691377959301825E-1   1.166104686217034E2   5.565765026556878E-3   6.989058427047911E1   5.460808690855203E-3   7.634672150536972E1   6.913763421105693E-1   1.344971179896809E1  
 6.770000000000000E10    4.210780810219749E-1   7.684309436328687E1   6.238602421224879E-3   3.733782669288754E1   6.188098857327813E-3   3.971181366816357E1   6.707940059909601E-1  -1.026501123536648E1  
 6.775000000000000E10    3.653297857930238E-1   2.980371533176649E1   7.042073891359591E-3  -6.749568584644416   6.903589169856716E-3  -3.392354386674866E-1   6.277542145664730E-1  -3.550652569686024E1  
 6.780000000000000E10    3.299373028667667E-1  -2.589816519377867E1   7.605332830529533E-3  -4.981171848569685E1   7.920706121607394E-3  -4.568426613914743E1   5.477012444493218E-1  -6.290823708661419E1  
 6.785000000000000E10    3.417067575007554E-1  -8.296596703948578E1   8.648292068237298E-3  -9.517121126671677E1   8.766891196764968E-3  -9.127229396640236E1   4.118078330869210E-1  -9.439177320684300E1  
 6.790000000000000E10    3.810499832090821E-1  -1.328884903279823E2   9.688989037429820E-3  -1.458549845718127E2   9.393978210973816E-3  -1.430388280071139E2   2.011523945257774E-1  -1.332270993157714E2  
 6.795000000000000E10    4.211042597479850E-1  -1.751769572662717E2   9.250428682907097E-3   1.615923724071153E2   9.232953720442295E-3   1.656432879007087E2   8.001087042523089E-2   4.441086087354697E1  
 6.800000000000000E10    4.466200587199501E-1   1.470102768198978E2   8.449050954942000E-3   1.134980618479097E2   8.586373239883472E-3   1.163579352747851E2   3.285530912530220E-1  -1.009069077151429E1  
 6.805000000000000E10    4.575419581011812E-1   1.111317058435493E2   7.349220309570474E-3   6.659991987178829E1   7.305865222840743E-3   7.149302390462837E1   5.077008669308704E-1  -4.409494243742746E1  
 6.810000000000000E10    4.556515575416713E-1   7.496623176617072E1   6.702331154830436E-3   2.874837522572762E1   6.771547057943247E-3   3.301741905819485E1   6.128254925863513E-1  -7.212819263883340E1  
 6.815000000000000E10    4.449686598753848E-1   3.754121592656221E1   6.202061000833577E-3  -9.361322695658947   6.140116944997062E-3  -5.196030495143806   6.733964851485963E-1  -9.689078171649429E1  
 6.820000000000000E10    4.322761830264825E-1  -2.839192741971283   6.184305657324552E-3  -4.649805725304124E1   6.085758456341601E-3  -4.113809443559823E1   7.030335103387153E-1  -1.192600738568753E2  
 6.825000000000000E10    4.242839316728788E-1  -4.501574000341592E1   6.083870807624302E-3  -8.418472427714879E1   6.027766557078054E-3  -7.923831297779454E1   7.088193778928122E-1  -1.407085127339159E2  
 6.830000000000000E10    4.232703615067745E-1  -8.864874183477983E1   6.485148996719045E-3  -1.194683653792630E2   6.566049496974888E-3  -1.169189865583095E2   6.933628677417121E-1  -1.616560596740527E2  
 6.835000000000000E10    4.237650039680119E-1  -1.325885944835170E2   7.263882295611653E-3  -1.607636939437379E2   7.061894297084656E-3  -1.563042936489401E2   6.507185677125483E-1   1.765653338544271E2  
 6.840000000000000E10    4.212298597856866E-1  -1.759785754720131E2   7.974110379053280E-3   1.573958774234641E2   7.964661347795082E-3   1.615123576235368E2   5.641964010207754E-1   1.533583462610204E2  
 6.845000000000000E10    4.110656996863940E-1   1.408904628894011E2   9.164537897440397E-3   1.119939755522957E2   9.255833002650180E-3   1.157372959814933E2   4.024213976159057E-1   1.279313097493614E2  
 6.850000000000000E10    3.913753723707308E-1   9.694694323168740E1   1.004431260897716E-2   6.033572949409169E1   9.952715970799660E-3   6.481665602375271E1   1.456391043001784E-1   1.106053899716135E2  
 6.855000000000000E10    3.747564173014337E-1   5.148161675046304E1   9.847782510853213E-3   6.669677090044951   9.812408991716457E-3   1.138169347678079E1   1.951636378391068E-1  -1.453201987498308E2  
 6.860000000000000E10    3.714330495532813E-1   4.633039190851460   8.446327095625084E-3  -4.243174676499422E1   8.583535572066437E-3  -3.822595808777770E1   4.471167063590184E-1  -1.672508792689136E2  
 6.865000000000000E10    3.872458949269826E-1  -4.124845617819207E1   7.329594277315077E-3  -8.696243444708635E1   7.209282858542884E-3  -8.129397072663224E1   6.022325310525307E-1   1.678974072608901E2  
 6.870000000000000E10    4.200903311050923E-1  -8.390961934692732E1   6.398390447836774E-3  -1.245335894430483E2   6.334096752759578E-3  -1.192840918716181E2   6.831161533233637E-1   1.458339150003027E2  
 6.875000000000000E10    4.585354982749963E-1  -1.226345694330590E2   5.776785662868631E-3  -1.617622359194054E2   5.835376783542129E-3  -1.577711134253939E2   7.218178672170788E-1   1.258632117892325E2  
 6.880000000000000E10    4.896914187646843E-1  -1.582747942346413E2   5.515486737747727E-3   1.634048814651159E2   5.708328584836864E-3   1.679950388405817E2   7.319846282937725E-1   1.068839971565319E2  
 6.885000000000000E10    5.065620481604622E-1   1.676357136411874E2   5.653659637696257E-3   1.302672886530897E2   5.896009763540842E-3   1.325142070189064E2   7.200091588453705E-1   8.804126274716853E1  
 6.890000000000000E10    5.014460600417350E-1   1.336424925600194E2   6.369733358752065E-3   9.213664685126658E1   6.554167236617056E-3   9.711215060088223E1   6.819996926318203E-1   6.824131173652975E1  
 6.895000000000000E10    4.738137432345256E-1   9.781013979833202E1   7.334580931910806E-3   5.479496733981772E1   7.369058224948244E-3   5.919761016767311E1   6.028255806259764E-1   4.650776844645909E1  
 6.900000000000000E10    4.207189807078102E-1   5.796351998379451E1   8.754835940395601E-3   1.059282066581602E1   8.628802588113022E-3   1.430254575784549E1   4.604299466666383E-1   2.253713419645989E1  
 6.905000000000000E10    3.558249320850225E-1   1.119358682490509E1   9.915741550441063E-3  -3.807417293497137E1   9.966113311241065E-3  -3.478911136436214E1   2.254508153032041E-1  -2.084228304718799E-1  
 6.910000000000000E10    3.124614339850948E-1  -4.470320761270908E1   1.031605528853265E-2  -9.255691160929104E1   1.030306436716979E-2  -8.790279182811199E1   1.086698939438658E-1   9.733162838578029E1  
 6.915000000000000E10    3.229311806762167E-1  -1.031253315209739E2   9.194914188193661E-3  -1.436056291204569E2   9.195757639176029E-3  -1.394196174391484E2   3.704650422009266E-1   8.806598857675635E1  
 6.920000000000000E10    3.770251992071232E-1  -1.529485641858142E2   7.801625498353024E-3   1.700159972718077E2   7.761634648290000E-3   1.739534322163012E2   5.452746368752907E-1   6.230974384588053E1  
 6.925000000000000E10    4.391459584544354E-1   1.664973372992853E2   6.423334721872458E-3   1.296457585391432E2   6.586531135640443E-3   1.341868734238855E2   6.431683541483837E-1   3.842353233970141E1  
 6.930000000000000E10    4.888163347583101E-1   1.317835535263935E2   6.113634095843902E-3   9.390348324282866E1   5.851976443535677E-3   9.809675683413397E1   6.894865711195938E-1   1.650042928026390E1  
 6.935000000000000E10    5.204559754636892E-1   1.000444770784156E2   5.571218769295256E-3   5.922033748730566E1   5.513898690281504E-3   6.177103964553929E1   7.044623120251331E-1  -4.341163684856713  
 6.940000000000000E10    5.322766218237089E-1   6.914984122486582E1   5.744484792706446E-3   2.521876518834007E1   5.749549545764815E-3   2.908148611714004E1   6.982595477038565E-1  -2.529747744235289E1  
 6.945000000000000E10    5.281015249225940E-1   3.782936271943611E1   5.923390899042868E-3  -9.999970539607610   6.065556774953909E-3  -4.445408859412401   6.683932704677597E-1  -4.680734832767867E1  
 6.950000000000000E10    5.008415238937031E-1   4.294756297282175   6.904372019056971E-3  -4.644847482011220E1   6.781088476262278E-3  -4.270838073775586E1   6.079351913129413E-1  -6.989945603828716E1  
 6.955000000000000E10    4.517223289834803E-1  -3.349849350958621E1   7.816542506717369E-3  -8.742006938911121E1   7.980394154310434E-3  -8.272253596367631E1   4.991062772206267E-1  -9.546126800426197E1  
 6.960000000000000E10    3.874558059594264E-1  -7.724270408232995E1   9.262588585295422E-3  -1.339851998060655E2   9.247270475455453E-3  -1.290031400857107E2   3.196753702419882E-1  -1.246703670400399E2  
 6.965000000000000E10    3.312433990276688E-1  -1.292725111199204E2   9.908598518153625E-3   1.750824260241335E2   1.015491763137854E-2  -1.797780917001729E2   6.120445582854004E-2  -1.543394467504930E2  
 6.970000000000000E10    3.137129127688178E-1   1.721060670352932E2   1.018965553041291E-2   1.231947011681845E2   1.005517429007623E-2   1.281210817569771E2   2.178869060309621E-1  -1.431853889678527E1  
 6.975000000000000E10    3.428222213024718E-1   1.171247252751631E2   8.681531074882150E-3   7.520963187694765E1   8.699465172720673E-3   8.008619842127678E1   4.379715382489096E-1  -4.567202869387773E1  
 6.980000000000000E10    3.936459296767002E-1   7.090514850511738E1   7.708674718264979E-3   3.176525478799738E1   7.622567489645800E-3   3.649907313971285E1   5.749708171917521E-1  -7.306669239279120E1  
 6.985000000000000E10    4.441259162127071E-1   3.131607894690251E1   6.780107525838801E-3  -6.821921088179597   6.669944103297702E-3  -4.388446833235262   6.497771387413898E-1  -9.738725681791175E1  
 6.990000000000000E10    4.832301141804984E-1  -3.776514823444136   6.294259857674619E-3  -4.403550681808379E1   6.151617459340332E-3  -4.008951201553030E1   6.848725069534675E-1  -1.197223022017502E2  
 6.995000000000000E10    5.119785071498676E-1  -3.658876173387794E1   5.873506024878860E-3  -7.796837876063165E1   6.026206597499187E-3  -7.352911486786277E1   6.935557531753407E-1  -1.411115246705919E2  
 7.000000000000000E10    5.260812886161349E-1  -6.845073597856973E1   6.059721867266680E-3  -1.104307667452678E2   6.068583179968644E-3  -1.079861331874551E2   6.777859039452127E-1  -1.624332291445268E2  
 7.005000000000000E10    5.232470692523058E-1  -1.003795211080462E2   6.572237903905202E-3  -1.487315180339306E2   6.662526874323694E-3  -1.431020328555807E2   6.349168988054411E-1   1.753809168322773E2  
 7.010000000000000E10    5.034342185608614E-1  -1.337713153307296E2   7.805617151793561E-3   1.737038915984094E2   7.692525601771635E-3   1.791556037301135E2   5.552759485454156E-1   1.511352581729020E2  
 7.015000000000000E10    4.600647269798386E-1  -1.697973203308511E2   8.855341947433716E-3   1.315218515938229E2   8.940400083092886E-3   1.353701229342387E2   4.175207983879625E-1   1.233015644495925E2  
 7.020000000000000E10    3.918304966452340E-1   1.486807338482616E2   1.020605229548127E-2   8.582287342192423E1   1.038640365569757E-2   8.920039638797888E1   2.050382503700251E-1   8.901408972659016E1  
 7.025000000000000E10    3.169025736006350E-1   9.810235386624899E1   1.107748349178775E-2   3.396346781334950E1   1.113203034837117E-2   3.875687625269930E1   7.070264172329606E-2  -9.600895796017690E1  
 7.030000000000000E10    2.764582663153924E-1   3.586155995913200E1   1.061740384038283E-2  -1.736856589372014E1   1.071561811374928E-2  -1.355968318145974E1   3.194958881191750E-1  -1.456525110670679E2  
 7.035000000000000E10    3.085982074728697E-1  -2.647642799451463E1   9.499475854497470E-3  -6.647929241213342E1   9.388585611526659E-3  -6.079824039340449E1   4.987101523229462E-1  -1.766362595894951E2  
 7.040000000000000E10    3.818082884425106E-1  -7.561176918452082E1   8.135884949653524E-3  -1.066453183817139E2   8.144340253986094E-3  -1.040068854413995E2   6.039249893938065E-1   1.568702264304506E2  
 7.045000000000000E10    4.542730205922794E-1  -1.144765971091397E2   7.244964997804991E-3  -1.466616795477378E2   7.196703842229728E-3  -1.422046414108882E2   6.594075188629394E-1   1.334061303579614E2  
 7.050000000000000E10    5.092545933685909E-1  -1.473769194554006E2   6.541222955952323E-3   1.765469135996932E2   6.450803373866678E-3  -1.789004691598795E2   6.818568410211926E-1   1.113094621792287E2  
 7.055000000000000E10    5.435903022211819E-1  -1.772255851112819E2   6.211733969846562E-3   1.414392574028711E2   6.459318609952008E-3   1.463447490890978E2   6.756393502855395E-1   8.946383094852254E1  
 7.060000000000000E10    5.575282939130898E-1   1.541905289102005E2   6.705918198978919E-3   1.080124322820183E2   6.552427393224240E-3   1.135141885136827E2   6.459774169300453E-1   6.697248283970438E1  
 7.065000000000000E10    5.486048566978408E-1   1.255493603616670E2   7.373268574980832E-3   7.254923450371707E1   7.164492647528772E-3   7.805779631865418E1   5.813828427107787E-1   4.262735829944242E1  
 7.070000000000000E10    5.141141183925432E-1   9.494276629405582E1   8.350963805122180E-3   3.357982022320697E1   8.324492859953299E-3   3.907976619435426E1   4.701729514919644E-1   1.468887202442292E1  
 7.075000000000000E10    4.477871886445240E-1   6.052682551578126E1   9.469502186068960E-3  -9.623288340151092   9.734830790378110E-3  -3.570984654156010   2.979943128402799E-1  -2.036936292504128E1  
 7.080000000000000E10    3.533894606916246E-1   1.855985559999652E1   1.068615190518893E-2  -5.822619440581611E1   1.086674488812726E-2  -5.292279255220517E1   9.608669748735929E-2  -9.303904702367596E1  
 7.085000000000000E10    2.594640011915247E-1  -3.954154930165586E1   1.117669900151547E-2  -1.081284534683961E2   1.114383619565372E-2  -1.033389927920948E2   2.075667907047025E-1   1.316334313951927E2  
 7.090000000000000E10    2.456412328142774E-1  -1.138157513062217E2   1.034425676810501E-2  -1.580014080500945E2   1.044982462252419E-2  -1.526749154849169E2   3.989204504942364E-1   8.934519831167376E1  
 7.095000000000000E10    3.248927977279797E-1  -1.743268325375247E2   9.093905213360993E-3   1.554572517576652E2   9.073608877063844E-3   1.622895437431170E2   5.286660115542533E-1   5.796524071629099E1  
 7.100000000000000E10    4.147132967049867E-1   1.424433041602672E2   8.057328083928183E-3   1.144249285085352E2   7.985141364179786E-3   1.199918625102665E2   6.046220009493130E-1   3.061072356096213E1  
 7.105000000000000E10    4.841925554747832E-1   1.080722806825227E2   7.233650792470973E-3   7.804449517547741E1   7.152474522290606E-3   8.333839732787604E1   6.445568436766678E-1   5.632921876454543  
 7.110000000000000E10    5.257732275106031E-1   7.743242224410733E1   6.721609442163275E-3   4.389747791768810E1   6.654188089289860E-3   4.854664757593449E1   6.545216800921029E-1  -1.854072085576136E1  
 7.115000000000000E10    5.454869648854576E-1   4.868225983568366E1   6.542919838697975E-3   9.573637010436359   6.784600120351641E-3   1.372663554040298E1   6.400411492644027E-1  -4.307649598150101E1  
 7.120000000000000E10    5.445432596893935E-1   1.988501510264577E1   6.904610290337948E-3  -2.472586357642109E1   7.091496680662909E-3  -2.047636249774609E1   6.016941051816573E-1  -6.836653629041567E1  
 7.125000000000000E10    5.236763671755595E-1  -9.880962478265404   7.792456527769932E-3  -6.329901442844143E1   7.873882777614624E-3  -5.670042883247123E1   5.292874156677067E-1  -9.603378714488687E1  
 7.130000000000000E10    4.771462072214131E-1  -4.236383053938867E1   9.102443301714735E-3  -1.004297364832799E2   9.087325764752781E-3  -9.719317522367577E1   4.168464686963472E-1  -1.281027200481784E2  
 7.135000000000000E10    4.070201376930018E-1  -7.973374322466813E1   1.049328749307268E-2  -1.468878668933999E2   1.047471997663553E-2  -1.412780725935346E2   2.550821454306312E-1  -1.700167063707351E2  
 7.140000000000000E10    3.180765592949103E-1  -1.264178497070921E2   1.159947299148971E-2   1.659868789709030E2   1.155076507965075E-2   1.702746086724000E2   1.181883572374609E-1   9.858500080593508E1  
 7.145000000000000E10    2.494622012274053E-1   1.718152142356894E2   1.157886776844043E-2   1.150952349496491E2   1.159697753438790E-2   1.206196658536020E2   2.449746490658311E-1  -3.621549631197874E-1  
 7.150000000000000E10    2.630314446689335E-1   1.017922525524268E2   1.062098209491995E-2   6.720338391888303E1   1.075087885579221E-2   7.191893655272135E1   4.138950714218606E-1  -4.362373867178661E1  
 7.155000000000000E10    3.405389046873621E-1   4.635599812181161E1   9.532650045479056E-3   2.275949266032990E1   9.501944658441047E-3   2.752333115970304E1   5.346981796586816E-1  -7.551612028771396E1  
 7.160000000000000E10    4.209374507325395E-1   4.557310572138418   8.355389581843722E-3  -1.673335847333306E1   8.272360876675633E-3  -1.210363450771560E1   6.098488267417582E-1  -1.026843144875034E2  
 7.165000000000000E10    4.834212561296239E-1  -3.031875084202188E1   7.527012402946346E-3  -5.434192443415248E1   7.516086657334424E-3  -4.906485938395138E1   6.480331584075659E-1  -1.271950524595199E2  
 7.170000000000000E10    5.240910000161410E-1  -6.124651957008774E1   7.533930284098334E-3  -8.868590789286779E1   7.355535291331060E-3  -8.281891050507215E1   6.595508682514704E-1  -1.504862097028320E2  
 7.175000000000000E10    5.455836134971108E-1  -9.021943436738118E1   7.429312765682850E-3  -1.226006238747667E2   7.638054367480622E-3  -1.172687289790881E2   6.451909577297562E-1  -1.736919317406424E2  
 7.180000000000000E10    5.477930810780921E-1  -1.187146167533023E2   7.926483096866707E-3  -1.574178247700634E2   8.160818898258130E-3  -1.529209720672261E2   5.994524464032792E-1   1.622428271279573E2  
