#  HZ   S   MA   R     50.00 
! Rohde & Schwarz ZVA67 4Ports - Version 4.11 - 1305.7002k04 SN: 101051
! Date: 2023-09-13 17:17:04
! Measurements: S11 S21 S12 S22 
! 
 6.705000000000000E10    6.536045420290533E-2   7.346805422186648E1   3.568499612886841E-1   1.459220861406830E1   3.573765470543327E-1   1.904003036926729E1   4.951168170132779E-1   1.534232517179257E2  
 6.710000000000000E10    1.239024834867366E-1  -2.608829435238201E1   3.629626774392430E-1  -2.928971542839765E1   3.625285907634430E-1  -2.451553481182397E1   4.704719105319771E-1   1.425984819222387E2  
 6.715000000000000E10    1.677099376387715E-1  -7.499163126701575E1   3.676064410249205E-1  -7.271117672212269E1   3.680720661095921E-1  -6.807061021045486E1   4.417151838462467E-1   1.318369142449683E2  
 6.720000000000000E10    1.502807900296453E-1  -1.084239018377419E2   3.735277661670015E-1  -1.166580221330115E2   3.733241802577237E-1  -1.120855821119007E2   4.030911898817570E-1   1.240122650047043E2  
 6.725000000000000E10    1.050414366175100E-1  -1.114161631611693E2   3.725574914799670E-1  -1.615985867153590E2   3.736325851909360E-1  -1.570199597910962E2   3.894607878165438E-1   1.207569061430531E2  
 6.730000000000000E10    1.533244379672077E-1  -9.717314338440869E1   3.620962786409074E-1   1.540983319949899E2   3.621528409434678E-1   1.583543277308238E2   4.293340852623725E-1   1.160521843967537E2  
 6.735000000000000E10    2.429088594195184E-1  -1.179669193294536E2   3.458475810503627E-1   1.113732223302786E2   3.459098646707783E-1   1.156354379990130E2   4.888135233249800E-1   1.039658642949269E2  
 6.740000000000000E10    2.991469441084024E-1  -1.495613042159146E2   3.345449107137080E-1   7.072509433904610E1   3.347069186878674E-1   7.492810660196520E1   5.279713712230997E-1   8.718525714330134E1  
 6.745000000000000E10    3.012561508446844E-1   1.754160437750570E2   3.360180550374775E-1   3.067964945297419E1   3.350165162224043E-1   3.487406090922813E1   5.309750618118451E-1   6.863931693734386E1  
 6.750000000000000E10    2.492760499914227E-1   1.370729428493569E2   3.472778117473316E-1  -9.990137831838290   3.464159200529682E-1  -5.828070090141852   5.045135239315434E-1   5.081311935985006E1  
 6.755000000000000E10    1.478665916870005E-1   8.994253076021572E1   3.610599884536107E-1  -5.262122707000808E1   3.619386431511247E-1  -4.815579645187320E1   4.580358621117189E-1   3.511569304518288E1  
 6.760000000000000E10    5.436634721873886E-2  -7.262700386315944   3.729918302984243E-1  -9.638537154826923E1   3.734239216623955E-1  -9.186474926657880E1   4.231915064284640E-1   2.212137340162033E1  
 6.765000000000000E10    1.115080685248452E-1  -1.164097303070202E2   3.763509871159731E-1  -1.402521361405203E2   3.771532952032412E-1  -1.356583374184599E2   4.005370361275387E-1   9.243914071419823  
 6.770000000000000E10    1.633451616050831E-1  -1.623051971202529E2   3.803371397502122E-1   1.761783811892388E2   3.800416693631239E-1  -1.789200060209923E2   3.753250694803467E-1  -4.675638698111736  
 6.775000000000000E10    1.600013525435525E-1   1.653154802529535E2   3.841494868147394E-1   1.326178851274418E2   3.847268652350565E-1   1.374960320540982E2   3.365838343564839E-1  -1.689792681361971E1  
 6.780000000000000E10    1.228491075250373E-1   1.523892642763642E2   3.863497792892746E-1   8.834781946832256E1   3.856803864765522E-1   9.321241099577765E1   3.058613854694240E-1  -2.194063377917832E1  
 6.785000000000000E10    1.325249471694534E-1   1.609736651579128E2   3.782161336426470E-1   4.389057706370860E1   3.796022623170679E-1   4.849646065020854E1   3.324248865877912E-1  -2.428578273149099E1  
 6.790000000000000E10    1.954529154434890E-1   1.467479897936402E2   3.640984352029052E-1   5.773190087742320E-1   3.649213192327676E-1   5.121668117791748   4.039744718084091E-1  -3.497676281586602E1  
 6.795000000000000E10    2.429740065817548E-1   1.162628947783685E2   3.514387042730237E-1  -4.128514670508121E1   3.509905166798856E-1  -3.671665384503800E1   4.677960354972439E-1  -5.247014324575154E1  
 6.800000000000000E10    2.519013625950388E-1   7.870988638207663E1   3.435281659562590E-1  -8.184671975123445E1   3.448109451956224E-1  -7.724964874614798E1   5.001099346067693E-1  -7.174912105169345E1  
 6.805000000000000E10    2.277520758536024E-1   3.440896832670823E1   3.465366261736477E-1  -1.223724727143915E2   3.464127367363308E-1  -1.177394796237187E2   5.021972059162471E-1  -9.074487441739969E1  
 6.810000000000000E10    1.847838811831768E-1  -1.921619167571020E1   3.554380630461499E-1  -1.636643970187910E2   3.552639836584255E-1  -1.590214881257284E2   4.816446762752076E-1  -1.074592046811411E2  
 6.815000000000000E10    1.457709588114118E-1  -8.554869608389575E1   3.647000858345211E-1   1.540338011471669E2   3.646730561902149E-1   1.585373752767720E2   4.553097740734093E-1  -1.218595707471301E2  
 6.820000000000000E10    1.293250140416225E-1  -1.566300622170811E2   3.716198826940190E-1   1.109698176517968E2   3.723002695079265E-1   1.155037698139981E2   4.331234449975784E-1  -1.339446620315702E2  
 6.825000000000000E10    1.157186179121881E-1   1.392236434354132E2   3.752982233355343E-1   6.771477951962837E1   3.765454287836563E-1   7.221867146491391E1   4.124628179017161E-1  -1.448431640915150E2  
 6.830000000000000E10    8.395900544444267E-2   7.946167588666594E1   3.795004332117303E-1   2.450965884814651E1   3.801200377321916E-1   2.888055690951519E1   3.925857336491244E-1  -1.535857487402305E2  
 6.835000000000000E10    3.519694349278742E-2   1.653807042679645E1   3.812359859004278E-1  -1.932444449516590E1   3.816116984642250E-1  -1.503969542630800E1   3.812231621308299E-1  -1.597523407333219E2  
 6.840000000000000E10    1.953604654091926E-2   1.633803673658809E2   3.760395151219403E-1  -6.317121572951654E1   3.771299737810299E-1  -5.913315671000609E1   3.990676185422767E-1  -1.644696983641917E2  
 6.845000000000000E10    6.716129467445731E-2   8.582808753776149E1   3.644901142453839E-1  -1.067349655747867E2   3.655267545484346E-1  -1.026690622410083E2   4.439567200468356E-1  -1.719084708761282E2  
 6.850000000000000E10    1.144498099230721E-1   2.012530028294346E1   3.505195478428719E-1  -1.493022040174852E2   3.510388506552709E-1  -1.449519388426593E2   4.956694113909687E-1   1.767582760355529E2  
 6.855000000000000E10    1.707374066378457E-1  -3.852165997481924E1   3.378961067964156E-1   1.696531348536794E2   3.384516349919234E-1   1.741108747426071E2   5.380779294907344E-1   1.629753995594156E2  
 6.860000000000000E10    2.272148073370227E-1  -8.920100230247769E1   3.306864144131814E-1   1.294346164241636E2   3.309440184444304E-1   1.342021808425944E2   5.584834528949967E-1   1.480355249007804E2  
 6.865000000000000E10    2.638060721384001E-1  -1.352221297390708E2   3.324679477068704E-1   8.997405774460076E1   3.326998280809418E-1   9.464728047341772E1   5.557349342230320E-1   1.331321797300105E2  
 6.870000000000000E10    2.611959284347035E-1  -1.781587685254705E2   3.418626168964589E-1   4.976278640810253E1   3.424022083665844E-1   5.460400136855080E1   5.279867138991151E-1   1.188801536542008E2  
 6.875000000000000E10    2.090244383150383E-1   1.405257316289436E2   3.567355314703129E-1   8.239005726300382   3.574268213204598E-1   1.300784798059170E1   4.822752083709123E-1   1.069664314848849E2  
 6.880000000000000E10    1.091765530593419E-1   1.018983661860203E2   3.705523470466046E-1  -3.471805990729794E1   3.709419428533903E-1  -3.024794662824265E1   4.351937377247742E-1   9.905691940654086E1  
 6.885000000000000E10    1.961021767014265E-2   1.696537288696424E2   3.769438741106306E-1  -7.844793603351086E1   3.768330475254736E-1  -7.407826489807488E1   4.169746526399533E-1   9.435831022441745E1  
 6.890000000000000E10    9.833295692995299E-2   1.795761835358930E2   3.761531386959459E-1  -1.221099012114053E2   3.764314487273140E-1  -1.177584336987978E2   4.211629383109740E-1   8.842925528734867E1  
 6.895000000000000E10    1.215298724491083E-1   1.429940827976203E2   3.735443353875246E-1  -1.652701661549214E2   3.736965011027718E-1  -1.609911629796425E2   4.298222961760008E-1   8.073795085656991E1  
 6.900000000000000E10    7.198564486945738E-2   1.102205247351685E2   3.683850777345213E-1   1.513477795443841E2   3.690557611131255E-1   1.558672372280642E2   4.414918607748489E-1   7.325722975925010E1  
 6.905000000000000E10    4.041137742844163E-2  -1.508031536183428E2   3.589653908923113E-1   1.084129484068182E2   3.595135196539022E-1   1.128632453164039E2   4.686481890826857E-1   6.531908143599429E1  
 6.910000000000000E10    1.594349402085463E-1  -1.688951995910698E2   3.454776045429326E-1   6.655392920630209E1   3.448872231666471E-1   7.094087308415121E1   5.095918226011272E-1   5.418680250815788E1  
 6.915000000000000E10    2.585942179919666E-1   1.568930051003075E2   3.315800460469954E-1   2.630853207382707E1   3.323387307195337E-1   3.074772632519429E1   5.429210940110330E-1   3.961976103162114E1  
 6.920000000000000E10    3.128447401550425E-1   1.223295622961322E2   3.286561502482652E-1  -1.271800885950810E1   3.291640094808324E-1  -8.222836534457676   5.493460044812800E-1   2.294463000448551E1  
 6.925000000000000E10    3.128272206279393E-1   8.847708512187687E1   3.368754690250125E-1  -5.173166784444289E1   3.369676681021223E-1  -4.722052489275443E1   5.242687066103126E-1   6.039082989686019  
 6.930000000000000E10    2.558865116211335E-1   5.500088281756262E1   3.544663936347375E-1  -9.217166923933885E1   3.553177598749700E-1  -8.776229785610742E1   4.680987866614845E-1  -9.145674568928071  
 6.935000000000000E10    1.492696278666003E-1   2.555012443081319E1   3.733959474939625E-1  -1.345824623962220E2   3.740905637207420E-1  -1.305199991583403E2   4.013232467613825E-1  -1.918681388117874E1  
 6.940000000000000E10    5.298715407292370E-2   4.712289533622890E1   3.840125961600852E-1  -1.786558695830629E2   3.846866063739481E-1  -1.745198583085964E2   3.682411175580970E-1  -2.400717800463999E1  
 6.945000000000000E10    1.114317971483098E-1   7.977404644752770E1   3.851626893305440E-1   1.376977564169838E2   3.853828406134223E-1   1.418602098625846E2   3.725603866479040E-1  -2.996349462932111E1  
 6.950000000000000E10    1.511732446552647E-1   5.357147568664776E1   3.828727780835679E-1   9.454239530060170E1   3.837842867040432E-1   9.895167259481829E1   3.810986322752816E-1  -3.936719769172508E1  
 6.955000000000000E10    1.261090476736017E-1   2.569877923175003E1   3.806960768021790E-1   5.154274397458342E1   3.824827539265160E-1   5.617964819734096E1   3.778562200954468E-1  -4.833909294341012E1  
 6.960000000000000E10    6.478486977215642E-2   2.645593759577477E1   3.778189054328060E-1   8.246542240264521   3.787255222225105E-1   1.300269792449513E1   3.871763886527300E-1  -5.525270902864330E1  
 6.965000000000000E10    1.072680841900761E-1   6.812745861839382E1   3.670164063713174E-1  -3.469976384858746E1   3.669921203352887E-1  -2.996599411946744E1   4.258515595019585E-1  -6.337390638244665E1  
 6.970000000000000E10    2.043315096370698E-1   4.699323609015526E1   3.518883515659540E-1  -7.633051137670280E1   3.521115855817253E-1  -7.137236346981082E1   4.779134511177944E-1  -7.642311838677240E1  
 6.975000000000000E10    2.718676758218275E-1   1.460128800424388E1   3.405187873942657E-1  -1.161356459363529E2   3.407086133464840E-1  -1.112491378191547E2   5.129962818929913E-1  -9.295686364898057E1  
 6.980000000000000E10    2.976693424214821E-1  -1.999394480238390E1   3.391033372014111E-1  -1.551190750349744E2   3.396774167310513E-1  -1.503580622969376E2   5.168658803042723E-1  -1.106198737495542E2  
 6.985000000000000E10    2.764526601336153E-1  -5.540831717903789E1   3.483733531472124E-1   1.654264237363947E2   3.490507222330897E-1   1.701268051389069E2   4.873589663469266E-1  -1.277619349317599E2  
 6.990000000000000E10    2.077571986322452E-1  -9.133166757107972E1   3.641019784311060E-1   1.245904971405357E2   3.648727799291580E-1   1.291927430831790E2   4.340184617556471E-1  -1.421047893581603E2  
 6.995000000000000E10    1.025470350805058E-1  -1.213550229295178E2   3.792817800635954E-1   8.202947660146585E1   3.799474466791186E-1   8.645084107350174E1   3.797691297676848E-1  -1.513396704417418E2  
 7.000000000000000E10    3.946230282545841E-2  -5.713423612828075E1   3.865191123291207E-1   3.868635395071733E1   3.869658528541847E-1   4.298975146251640E1   3.554698223907263E-1  -1.566259817436351E2  
 7.005000000000000E10    1.162834624523868E-1  -5.330186914768302E1   3.867334953662842E-1  -4.388558260201034   3.865179444667072E-1  -9.299885750403505E-2   3.553722550771746E-1  -1.634106083973479E2  
 7.010000000000000E10    1.527030524503357E-1  -8.288345598227831E1   3.847360932916785E-1  -4.707045612565143E1   3.851509831421215E-1  -4.274934982856298E1   3.531872545127230E-1  -1.721690189594070E2  
 7.015000000000000E10    1.346026020788589E-1  -1.059232498133735E2   3.842977841146841E-1  -8.989942936506668E1   3.849834164354815E-1  -8.540726489184098E1   3.417119682017740E-1  -1.790419140013116E2  
 7.020000000000000E10    1.034194656455287E-1  -1.002702313257292E2   3.800872523215019E-1  -1.329402149358078E2   3.799256705089245E-1  -1.285339747768719E2   3.505831058822551E-1   1.773079834873178E2  
 7.025000000000000E10    1.592205836402157E-1  -8.998258606660066E1   3.673061099002513E-1  -1.756423903713244E2   3.671288014473251E-1  -1.712020916786236E2   3.997250084601114E-1   1.710187816986397E2  
 7.030000000000000E10    2.512166909768325E-1  -1.100327721387937E2   3.505088352568861E-1   1.433237566015001E2   3.505032681591456E-1   1.476626842935972E2   4.608782018612699E-1   1.581808239807161E2  
 7.035000000000000E10    3.163118945835043E-1  -1.382955227151679E2   3.398732821272637E-1   1.038735031192849E2   3.395942509127863E-1   1.083273472871712E2   4.996419934349498E-1   1.413173224682742E2  
 7.040000000000000E10    3.347409659867009E-1  -1.684405507000026E2   3.397074833753553E-1   6.518453896792848E1   3.397195261513850E-1   6.985105602728898E1   5.013494061391342E-1   1.229809223200578E2  
 7.045000000000000E10    3.023143188931823E-1   1.612703891293457E2   3.510228914193686E-1   2.579068788543496E1   3.509708024729982E-1   3.091365302472684E1   4.639371808992369E-1   1.055580067627962E2  
 7.050000000000000E10    2.167520768347588E-1   1.336735835601698E2   3.685331051279120E-1  -1.515203224793311E1   3.688989490939741E-1  -9.965558000460439   3.988879434838377E-1   9.161343159823615E1  
 7.055000000000000E10    1.055878457563270E-1   1.245194330261179E2   3.833215810670597E-1  -5.807520033364789E1   3.838834982169637E-1  -5.273186723426979E1   3.385818150510739E-1   8.458264747144493E1  
 7.060000000000000E10    9.761694216960293E-2   1.699229419101398E2   3.894264265269815E-1  -1.013778022967954E2   3.891659186984105E-1  -9.601023112481661E1   3.227373774088134E-1   8.105692715480048E1  
 7.065000000000000E10    1.650290908852531E-1   1.641807389387063E2   3.876742698720507E-1  -1.442287420675413E2   3.881817353588430E-1  -1.387812048564847E2   3.248957883249732E-1   7.370503340157156E1  
 7.070000000000000E10    1.849501251591438E-1   1.452125890587111E2   3.874328938452676E-1   1.733736306636276E2   3.873211886877584E-1   1.788328308224764E2   3.088886888536199E-1   6.438006893755691E1  
 7.075000000000000E10    1.689977051175421E-1   1.358014519641876E2   3.861660272895859E-1   1.307898027654032E2   3.860159317518207E-1   1.359905293638488E2   2.841361950450458E-1   6.051219877544618E1  
 7.080000000000000E10    1.836129105699245E-1   1.398100160585908E2   3.773753589463330E-1   8.796962015670054E1   3.779264976711158E-1   9.299039744875901E1   3.046391241218151E-1   6.123327528661469E1  
 7.085000000000000E10    2.543991934630285E-1   1.319751275236178E2   3.629868270983571E-1   4.593675955295081E1   3.629686740555430E-1   5.083487096780260E1   3.732062935731817E-1   5.400397392358749E1  
 7.090000000000000E10    3.256197570064974E-1   1.105567393853110E2   3.473760816054502E-1   5.705678741403855   3.475417220208923E-1   1.060983899904891E1   4.392139072296488E-1   3.753555039554679E1  
 7.095000000000000E10    3.598183591203175E-1   8.451503961144213E1   3.401825843053812E-1  -3.303583441348200E1   3.402754181853172E-1  -2.798993419228419E1   4.697275773733691E-1   1.755147899905725E1  
 7.100000000000000E10    3.500163161986377E-1   5.690290222940693E1   3.441261626871080E-1  -7.158057404951323E1   3.451790372784601E-1  -6.647194679329812E1   4.581707774253208E-1  -3.473663926297540  
 7.105000000000000E10    2.915087360563196E-1   2.872426781942579E1   3.592643483890712E-1  -1.110535964866463E2   3.598852645395994E-1  -1.059660840739618E2   4.087229420954300E-1  -2.283456033292566E1  
 7.110000000000000E10    1.911727154663338E-1   3.576373376227920   3.771230026796268E-1  -1.525341487933123E2   3.779930063033553E-1  -1.474753657079555E2   3.373578147638781E-1  -3.753612564089336E1  
 7.115000000000000E10    8.911743947506308E-2   2.542241074149376   3.900208751280062E-1   1.646776108235538E2   3.910737010648666E-1   1.695794475284290E2   2.813589973529995E-1  -4.448046988008859E1  
 7.120000000000000E10    9.119290836662307E-2   4.451436443675723E1   3.945135478732503E-1   1.214394430894718E2   3.953502598924495E-1   1.263334650541990E2   2.681190689733598E-1  -4.856114668443546E1  
 7.125000000000000E10    1.417564214995352E-1   3.870812158318982E1   3.942697016296036E-1   7.875435551257705E1   3.940638120040733E-1   8.357225956517576E1   2.662777726415526E-1  -5.692809651526377E1  
 7.130000000000000E10    1.525939634975450E-1   2.455718776076483E1   3.920937359661657E-1   3.624383809366571E1   3.927051605410157E-1   4.097876750305608E1   2.500589681925088E-1  -6.526445535905458E1  
 7.135000000000000E10    1.549956043101620E-1   2.045504225030165E1   3.881385750720716E-1  -6.513229052890758   3.884004141745015E-1  -1.713158927049751   2.395403446037543E-1  -6.601353011317133E1  
 7.140000000000000E10    1.961041910427629E-1   1.823558364640305E1   3.765974802598083E-1  -4.920415648451142E1   3.776642427777116E-1  -4.437786711350333E1   2.831864023950796E-1  -6.623724589793198E1  
 7.145000000000000E10    2.702082389199944E-1   2.080723810054809   3.613755309221050E-1  -9.090412836770791E1   3.612457167746430E-1  -8.570790450586767E1   3.630096875423806E-1  -7.724578180946942E1  
 7.150000000000000E10    3.323394405907888E-1  -2.246281702587717E1   3.457304330464294E-1  -1.308793576818785E2   3.467368225963937E-1  -1.254026770637846E2   4.292978740743856E-1  -9.554810662772051E1  
 7.155000000000000E10    3.613754452163251E-1  -5.008543783073413E1   3.400075840879613E-1  -1.693851357953842E2   3.401068376555471E-1  -1.638459224291738E2   4.588226040945151E-1  -1.160663892970038E2  
 7.160000000000000E10    3.483778706635683E-1  -7.874332476517448E1   3.447763176359330E-1   1.523390277580086E2   3.445256641870512E-1   1.576837941891515E2   4.485838935119809E-1  -1.366022837739560E2  
 7.165000000000000E10    2.942301028267557E-1  -1.071016699554211E2   3.580444085440036E-1   1.129098157032382E2   3.585718978741181E-1   1.181483292104516E2   3.983149727386768E-1  -1.550780947022355E2  
 7.170000000000000E10    2.019967466232396E-1  -1.307207068174204E2   3.759126530204626E-1   7.165272398481153E1   3.759070984385504E-1   7.680866300994710E1   3.256561008948440E-1  -1.674758676556276E2  
 7.175000000000000E10    1.137270924559310E-1  -1.327920633890478E2   3.881035942350953E-1   2.901538594882397E1   3.880672151027340E-1   3.405593057564771E1   2.750141025694219E-1  -1.699208309311860E2  
 7.180000000000000E10    1.117036805215572E-1  -1.097103668326125E2   3.918799248253534E-1  -1.403093935868135E1   3.918273263501456E-1  -9.014399421658723   2.774978114185877E-1  -1.698047858949472E2  
