#  HZ   S   MA   R     50.00 
! Rohde & Schwarz ZVA67 4Ports - Version 4.11 - 1305.7002k04 SN: 101051
! Date: 2023-05-31 14:06:06
! Measurements: S11 S21 S12 S22 
! 
 5.000000000000000E7     1.263037412347390E-2   2.662459719384230E1   9.955357734652702E-1  -7.188164584338667   9.944119911100310E-1  -7.036616322827059   1.653755070974340E-2   2.745867154124769  
 1.000000000000000E8     1.023382899245300E-2  -1.415110900598900E1   9.923433013215393E-1  -1.439944047489961E1   9.894466219931055E-1  -1.452821116447496E1   1.084505969976624E-2  -1.316461504434419E1  
 1.500000000000000E8     1.631569698057619E-2  -1.077570002372088E1   9.916754979402256E-1  -2.146564495160589E1   9.909035246201782E-1  -2.185429816714647E1   1.624675429655201E-2  -2.191528207687939E1  
 2.000000000000000E8     1.445199617188045E-2  -1.466715468934762E1   9.908034645104245E-1  -2.853546086945522E1   9.932450853618448E-1  -2.910589489180250E1   1.601957584305785E-2  -2.067267859761631E1  
 2.500000000000000E8     1.823459939861840E-2  -2.057912653596060E1   9.888563776889030E-1  -3.589007477510573E1   9.892394937358543E-1  -3.625239827267230E1   2.043831415995725E-2  -2.834411153828170E1  
 3.000000000000000E8     2.139145379280937E-2  -3.086183731245993E1   9.882877807819237E-1  -4.321153803507816E1   9.880368280966451E-1  -4.349374078486220E1   2.425843537726136E-2  -3.401900121093475E1  
 3.500000000000000E8     2.351950237580219E-2  -3.768118206533940E1   9.877712621247156E-1  -5.034406085345182E1   9.882379126436567E-1  -5.067010217887212E1   2.554661071472276E-2  -4.032268617565537E1  
 4.000000000000000E8     2.627090738215256E-2  -4.431590518785703E1   9.858194067347530E-1  -5.750206672125302E1   9.871001473345930E-1  -5.789111890991244E1   3.000533356320734E-2  -4.470290836631084E1  
 4.500000000000000E8     2.627478417759178E-2  -4.862062109571611E1   9.874746186591807E-1  -6.474095187930600E1   9.866606883244365E-1  -6.506563394747566E1   3.318345440782499E-2  -5.193073882378766E1  
 5.000000000000000E8     2.688374467723999E-2  -5.904434914723061E1   9.860669160229982E-1  -7.195183370829321E1   9.872567111308033E-1  -7.222115952200274E1   3.352173217073170E-2  -6.366651076418326E1  
 5.500000000000000E8     2.331483723210275E-2  -6.647566313999997E1   9.850125393526659E-1  -7.909723168459685E1   9.865410945967645E-1  -7.942272005620775E1   3.522265477088389E-2  -7.154552468610196E1  
 6.000000000000000E8     2.102567250407748E-2  -8.092380809282011E1   9.850342768951398E-1  -8.636055579706931E1   9.850895774845848E-1  -8.670664807855525E1   3.721780252613248E-2  -8.334702718988491E1  
 6.500000000000000E8     1.887329116328282E-2  -8.425500025869388E1   9.843714764491096E-1  -9.344911294107104E1   9.846680255758841E-1  -9.385210315585290E1   3.931367414168464E-2  -9.627123325852281E1  
 7.000000000000000E8     1.473739719092360E-2  -1.090639443721818E2   9.845029209980996E-1  -1.006833016088409E2   9.837208851884355E-1  -1.010970075411365E2   3.882669431996349E-2  -1.102968499137608E2  
 7.500000000000000E8     8.353674306842121E-3  -1.204095264506093E2   9.833942252374013E-1  -1.078907883105304E2   9.834861703331546E-1  -1.082679705071488E2   3.802350044327513E-2  -1.239767022069028E2  
 8.000000000000000E8     6.924500627167930E-3   1.757680572935168E2   9.834248078731234E-1  -1.150369951018444E2   9.823029767688053E-1  -1.154333160693241E2   3.642298130541900E-2  -1.395761377908825E2  
 8.500000000000000E8     6.815072669115503E-3   1.324114002128973E2   9.827042273168147E-1  -1.222919579081466E2   9.820023696777055E-1  -1.227097374573817E2   3.838174810765554E-2  -1.536421797080539E2  
 9.000000000000000E8     1.178795018746805E-2   1.029993466164778E2   9.809710869233923E-1  -1.294633731202609E2   9.809473464778932E-1  -1.298997761068193E2   4.091516422780728E-2  -1.669033213898863E2  
 9.500000000000000E8     1.479996447910394E-2   9.227186170963488E1   9.806380297513716E-1  -1.366523948534568E2   9.806123538276782E-1  -1.371363227614842E2   4.111147740632030E-2  -1.774222272903552E2  
 1.000000000000000E9     1.869807087317531E-2   8.654510833207230E1   9.800321196791733E-1  -1.438552835260833E2   9.797003450841481E-1  -1.443386072591881E2   4.209978979495281E-2   1.708305489255594E2  
 1.050000000000000E9     2.024054701908510E-2   7.782254145712143E1   9.794576293407441E-1  -1.510508842077743E2   9.790038997524609E-1  -1.515388230605325E2   4.083978095879563E-2   1.630668393060729E2  
 1.100000000000000E9     2.255649570434070E-2   7.179270536017519E1   9.781870635228711E-1  -1.582276720205893E2   9.782239421502745E-1  -1.587052347985236E2   4.067515003487059E-2   1.516830451617669E2  
 1.150000000000000E9     2.430527233917386E-2   6.392627545667988E1   9.774892710104295E-1  -1.653801430588459E2   9.768590436225639E-1  -1.658952883166144E2   3.876585541391213E-2   1.435119327848254E2  
 1.200000000000000E9     2.469273099205885E-2   5.982696444115469E1   9.771304847352826E-1  -1.725713137077888E2   9.766766559691181E-1  -1.731408788014147E2   3.820325062330819E-2   1.339674700722665E2  
 1.250000000000000E9     2.341388270899504E-2   5.391566263896341E1   9.757938017361721E-1  -1.797953959784066E2   9.759178178990154E-1   1.797043153278707E2   3.393026811916930E-2   1.317003122275161E2  
 1.300000000000000E9     2.301152822738019E-2   4.733350878331326E1   9.759217647594870E-1   1.730609793551957E2   9.756360606535730E-1   1.724727354780137E2   3.269969276862190E-2   1.270381333459424E2  
 1.350000000000000E9     2.230767649435741E-2   4.068585746527078E1   9.750445456353709E-1   1.658914291272763E2   9.749090115814375E-1   1.653053577402476E2   2.829932582364167E-2   1.249057211625751E2  
 1.400000000000000E9     1.921729175988171E-2   3.420434498756945E1   9.747729981611278E-1   1.587443420991195E2   9.736541000288245E-1   1.581413711069498E2   2.637697830656320E-2   1.242128597765191E2  
 1.450000000000000E9     1.683969914433623E-2   2.234508934899191E1   9.739453026776793E-1   1.516408734707242E2   9.740168178435570E-1   1.509606112505857E2   2.358277608425928E-2   1.309754888260889E2  
 1.500000000000000E9     1.363526159516189E-2   1.529223648700943E1   9.738628547162455E-1   1.444603605888685E2   9.744390405819288E-1   1.438449138926797E2   2.376985693040259E-2   1.358283020702997E2  
 1.550000000000000E9     1.140868820738491E-2  -6.349820943595153   9.740832190004142E-1   1.373712537279596E2   9.740881625190319E-1   1.366712666639765E2   2.435658176034122E-2   1.460076139457746E2  
 1.600000000000000E9     9.008370597872926E-3  -3.250381218697039E1   9.746003139583546E-1   1.302154749455461E2   9.748052429632338E-1   1.295812643540675E2   2.809586831313147E-2   1.469738919270984E2  
 1.650000000000000E9     9.235404773697897E-3  -6.730885093868359E1   9.757859365041611E-1   1.230236266400420E2   9.754621381986793E-1   1.223911298120455E2   3.199790311040026E-2   1.480355427205422E2  
 1.700000000000000E9     1.132741202451244E-2  -9.210622480150262E1   9.757955580955738E-1   1.158883147940954E2   9.754591938472556E-1   1.152578473452981E2   3.621437074167307E-2   1.451061839747437E2  
 1.750000000000000E9     1.694742661376466E-2  -1.093013493259753E2   9.755160177549119E-1   1.087612682357352E2   9.755376359216506E-1   1.080592240598202E2   3.992405254603138E-2   1.429400625582847E2  
 1.800000000000000E9     2.068130396571825E-2  -1.169253080670640E2   9.751378236909569E-1   1.016110020545915E2   9.757110557865314E-1   1.009274417906497E2   4.197089112396234E-2   1.381856050795363E2  
 1.850000000000000E9     2.647608899939214E-2  -1.239249219272086E2   9.758819408465534E-1   9.446493545530659E1   9.751990229157388E-1   9.376326761593900E1   4.365172200463557E-2   1.318754224130428E2  
 1.900000000000000E9     3.136589129254020E-2  -1.320972933642536E2   9.753758263032358E-1   8.735794792641049E1   9.755977369713568E-1   8.661349649507194E1   4.601779125597894E-2   1.270703255647424E2  
 1.950000000000000E9     3.660056591435415E-2  -1.385675107813592E2   9.749180227956851E-1   8.024813385097687E1   9.762416392420609E-1   7.947544979212027E1   4.791177877709672E-2   1.192684960889873E2  
 2.000000000000000E9     4.165476027504808E-2  -1.450180550163676E2   9.747422879547804E-1   7.312725315819348E1   9.759243583086222E-1   7.232197051091347E1   4.995817477125037E-2   1.109818320156250E2  
 2.050000000000000E9     4.610901173476101E-2  -1.494534701310757E2   9.753116998919152E-1   6.593669078561528E1   9.756469564366938E-1   6.516993742817743E1   5.067266598451597E-2   1.038056647634514E2  
 2.100000000000000E9     4.905059629808152E-2  -1.572759662357515E2   9.751697520077939E-1   5.883571157526257E1   9.750225617426104E-1   5.806946911113738E1   5.179376398058483E-2   9.813853759711488E1  
 2.150000000000000E9     5.264942991581843E-2  -1.623162925547487E2   9.752162841068696E-1   5.168033424946361E1   9.744873061637310E-1   5.087682013919439E1   5.335697461086612E-2   9.045910568673139E1  
 2.200000000000000E9     5.456548814039230E-2  -1.692738036323035E2   9.742117055568613E-1   4.461173405225600E1   9.751673255657406E-1   4.379058926537972E1   5.407665986587135E-2   8.433767746215436E1  
 2.250000000000000E9     5.442892421929799E-2  -1.753605908662573E2   9.745667572373856E-1   3.745645655186588E1   9.743266802669911E-1   3.658129641316432E1   5.458349949947396E-2   7.642366718420739E1  
 2.300000000000000E9     5.301090039180033E-2   1.753692941557940E2   9.741607683314880E-1   3.036807913345128E1   9.731449352820869E-1   2.947249326034229E1   5.832253303809067E-2   7.110778623205586E1  
 2.350000000000000E9     5.177688715344146E-2   1.685309585714060E2   9.738392261802360E-1   2.322706529776444E1   9.736506886556877E-1   2.232110828942068E1   5.994181284627949E-2   6.485652869709644E1  
 2.400000000000000E9     4.985743229542002E-2   1.582239391092313E2   9.736428995749369E-1   1.604632278230287E1   9.730870477313821E-1   1.522207940070114E1   6.373045050384460E-2   5.990900483489862E1  
 2.450000000000000E9     4.790654316838391E-2   1.510200734992541E2   9.729929975233046E-1   8.912880631072577   9.728363818243123E-1   8.034822351645028   6.400400578402470E-2   5.465210765629070E1  
 2.500000000000000E9     4.570814478880331E-2   1.372814952873571E2   9.726962320800946E-1   1.764585491132757   9.727950859960951E-1   8.729582168973349E-1   6.819025303837709E-2   4.987190209202010E1  
 2.550000000000000E9     4.306364083814853E-2   1.270459416326648E2   9.729265087235597E-1  -5.407869743652349   9.721101012020360E-1  -6.220279602202431   6.737754207978627E-2   4.433349058887195E1  
 2.600000000000000E9     4.368028048991498E-2   1.110890796794458E2   9.722909712057524E-1  -1.254764018448161E1   9.717156598432007E-1  -1.341926551370518E1   7.074268671191218E-2   3.929163397628778E1  
 2.650000000000000E9     4.293493517105813E-2   9.938643279762502E1   9.718422379275409E-1  -1.971382512751393E1   9.718639022181937E-1  -2.051115335987036E1   7.002839668050281E-2   3.320449229601807E1  
 2.700000000000000E9     4.477114964629540E-2   8.539685024484912E1   9.707897502236257E-1  -2.692957445280061E1   9.712231671556321E-1  -2.772859041854716E1   7.265043005516680E-2   2.758178866357536E1  
 2.750000000000000E9     4.643574339747220E-2   7.350506717848022E1   9.717071405464490E-1  -3.404612750895092E1   9.710228208688151E-1  -3.488761852200283E1   7.207344749017189E-2   2.107394133399298E1  
 2.800000000000000E9     5.037779039884174E-2   6.096542703774085E1   9.716169209175107E-1  -4.120148720521846E1   9.698085111236930E-1  -4.208732194103996E1   7.297612204873434E-2   1.469287767321198E1  
 2.850000000000000E9     5.345047125686588E-2   5.035167802735882E1   9.714864753486531E-1  -4.844353487032394E1   9.704382617591294E-1  -4.926949464400084E1   7.142409298269251E-2   6.977899329445984  
 2.900000000000000E9     5.852127749433961E-2   4.161174458222758E1   9.707226508254659E-1  -5.564031680243716E1   9.705093020639428E-1  -5.646764952130135E1   7.143993676913307E-2   1.052148627319307E-3  
 2.950000000000000E9     5.816782591144021E-2   3.131877150689036E1   9.699886392924332E-1  -6.280851881780487E1   9.704432260584851E-1  -6.367242541948361E1   6.941776880444853E-2  -8.328959863178396  
 3.000000000000000E9     6.061203493781803E-2   2.252489061050667E1   9.711234270815898E-1  -6.996773341561104E1   9.694081569435945E-1  -7.087180422321515E1   6.831504354946527E-2  -1.459123202010560E1  
 3.050000000000000E9     5.939785297986795E-2   1.349998813280327E1   9.703996208718223E-1  -7.715983320374441E1   9.702891392539158E-1  -7.813694908811037E1   6.496659327566279E-2  -2.362035627461147E1  
 3.100000000000000E9     6.241649719152834E-2   5.767123094159326   9.706536210269126E-1  -8.432552417642086E1   9.694322398685861E-1  -8.541035345218215E1   6.372500346994220E-2  -3.064570259995285E1  
 3.150000000000000E9     5.889241825884074E-2  -2.070502114663644   9.701492589403838E-1  -9.152350419243822E1   9.692775329223909E-1  -9.264795937662130E1   5.903326347456837E-2  -3.834961649019698E1  
 3.200000000000000E9     5.837053127022068E-2  -9.421874226255717   9.685981919903506E-1  -9.869431903890254E1   9.692503257622323E-1  -9.978461185445940E1   5.578460595672594E-2  -4.644682302586030E1  
 3.250000000000000E9     5.500801124191228E-2  -1.715562397884640E1   9.697048145469497E-1  -1.058542424371283E2   9.691573811881368E-1  -1.070270057236500E2   4.996405493487229E-2  -5.482023267307233E1  
 3.300000000000000E9     5.039486751866792E-2  -2.405472651032172E1   9.685930232839523E-1  -1.129805898711974E2   9.698559939571727E-1  -1.140844751716001E2   4.543170776028607E-2  -6.463054777980216E1  
 3.350000000000000E9     4.595284413416226E-2  -3.429031659433503E1   9.686467327364865E-1  -1.201375250657978E2   9.702670532194705E-1  -1.212332935392231E2   4.035959124112058E-2  -7.424753818615191E1  
 3.400000000000000E9     4.039406263287197E-2  -4.127631416960367E1   9.687110153330718E-1  -1.272649635352990E2   9.710980092555205E-1  -1.284621363558762E2   3.559027518214894E-2  -8.341838221695581E1  
 3.450000000000000E9     3.457090090207472E-2  -5.479228842062042E1   9.688077102386291E-1  -1.343431592894703E2   9.713982181920925E-1  -1.356959706028973E2   3.057109081531403E-2  -9.551511123813579E1  
 3.500000000000000E9     2.974831997163194E-2  -6.523257132132927E1   9.728245386734231E-1  -1.414806522286267E2   9.726785247928876E-1  -1.429725345616479E2   2.448909042269733E-2  -1.063424620320750E2  
 3.550000000000000E9     2.397466573066128E-2  -8.622441347270353E1   9.732801288587050E-1  -1.486101504752778E2   9.725555418665873E-1  -1.502413169792773E2   1.976633061603178E-2  -1.242597927917518E2  
 3.600000000000000E9     1.954411272873339E-2  -1.017517635771633E2   9.750991812941492E-1  -1.559578605959143E2   9.728104674863616E-1  -1.574055789403569E2   1.673898139128187E-2  -1.420756574758160E2  
 3.650000000000000E9     1.905483793336165E-2  -1.282019449776142E2   9.753737127146209E-1  -1.632183460270399E2   9.723251771171864E-1  -1.645716671921495E2   1.551386473402132E-2  -1.701774160364745E2  
 3.700000000000000E9     1.942413354816197E-2  -1.567141502866370E2   9.743301089879743E-1  -1.704653482496896E2   9.719982183914935E-1  -1.717337859508632E2   1.550358018300559E-2   1.750693834496430E2  
 3.750000000000000E9     2.536040345917665E-2   1.799787795152362E2   9.739157235011149E-1  -1.776859576500187E2   9.718362079625179E-1  -1.789703003340856E2   1.402184641072925E-2   1.551616490839363E2  
 3.800000000000000E9     2.811778774568846E-2   1.591753411551685E2   9.725681778578752E-1   1.751932307233494E2   9.712450983867795E-1   1.738620385158924E2   1.348722554033793E-2   1.301907858163582E2  
 3.850000000000000E9     3.503332090832648E-2   1.455961786273564E2   9.716704878516557E-1   1.680007866422613E2   9.716932618282246E-1   1.667287909286919E2   1.532613699870193E-2   1.138478461854703E2  
 3.900000000000000E9     4.027967442163941E-2   1.332030267307506E2   9.714438836050425E-1   1.608156017264813E2   9.699625939937449E-1   1.594750688129488E2   1.732438407833510E-2   9.730675666955138E1  
 3.950000000000000E9     4.675936053575329E-2   1.255030212927789E2   9.704778910821282E-1   1.536699241166719E2   9.699092473500078E-1   1.523571993867762E2   1.854580088067748E-2   8.498379851153213E1  
 4.000000000000000E9     5.053152556844266E-2   1.154665690502275E2   9.701760949539523E-1   1.464947598381117E2   9.702090594691238E-1   1.451647006544350E2   2.043305699294927E-2   7.300236045203573E1  
 4.050000000000000E9     5.456931468608346E-2   1.105620162642389E2   9.705004048695134E-1   1.394348602229931E2   9.695363504935731E-1   1.380169297253482E2   2.177450528083917E-2   6.486568944308577E1  
 4.100000000000000E9     5.694185595504680E-2   1.021022727794932E2   9.690813497564350E-1   1.322296646117986E2   9.687963962828079E-1   1.308257394661612E2   2.345031277326312E-2   5.362063845379912E1  
 4.150000000000000E9     5.984028306298648E-2   9.542546264259552E1   9.686164178136835E-1   1.250665860741902E2   9.677901953658403E-1   1.236385878689425E2   2.524990659753532E-2   4.629740291793267E1  
 4.200000000000000E9     6.014133226844219E-2   8.818415763997996E1   9.686003326689651E-1   1.178764519743273E2   9.674419690656139E-1   1.165011574389377E2   2.775374583952543E-2   3.706797524795947E1  
 4.250000000000000E9     5.988704810225563E-2   8.175758515380016E1   9.678675507295809E-1   1.107535603114424E2   9.672699791587648E-1   1.093451858845831E2   2.953013237682106E-2   3.127030042944408E1  
 4.300000000000000E9     5.920286616221965E-2   7.362339645397154E1   9.676517033214632E-1   1.035363122144110E2   9.670295055246044E-1   1.022198529491180E2   3.271384751385686E-2   2.792959281601259E1  
 4.350000000000000E9     5.903838370595645E-2   6.690200979043360E1   9.673691177831659E-1   9.643371869071086E1   9.667990228204673E-1   9.500430608572090E1   3.185033777171685E-2   2.102022465093903E1  
 4.400000000000000E9     5.784603817740858E-2   5.710248977732292E1   9.677411197357818E-1   8.928397873080394E1   9.661474957396904E-1   8.786129103914871E1   3.363592035054305E-2   1.488490798526880E1  
 4.450000000000000E9     5.546365703972163E-2   5.215586015812611E1   9.672640139904309E-1   8.214102975497490E1   9.666944425208365E-1   8.070641447061799E1   3.173742655893225E-2   8.894053139940342  
 4.500000000000000E9     5.502649501147736E-2   4.202107053448678E1   9.673461020719713E-1   7.497308429515496E1   9.660335883306276E-1   7.356804748555648E1   3.314995425742785E-2   2.111166114993839  
 4.550000000000000E9     5.297210946940386E-2   3.583695210554011E1   9.669561168050153E-1   6.779924650226782E1   9.666372089734708E-1   6.639693462834033E1   3.090738983658406E-2  -1.100832281726919  
 4.600000000000000E9     5.136062773030063E-2   2.653794836707530E1   9.673232883251713E-1   6.071230942590851E1   9.668244258039027E-1   5.923153341192965E1   2.912884190548836E-2  -8.640269425125112  
 4.650000000000000E9     4.817628678371651E-2   1.906886839790935E1   9.673912410720341E-1   5.353507310187799E1   9.668993579510734E-1   5.207301957866201E1   2.726011059836334E-2  -6.071171436136787  
 4.700000000000000E9     4.675335050076468E-2   1.113591757670032E1   9.683423419469514E-1   4.644109019817765E1   9.676160060800834E-1   4.493577428342756E1   2.389759383278507E-2  -6.270978704570241  
 4.750000000000000E9     4.403739845517146E-2   4.322246944051232   9.688511892876902E-1   3.930728395182896E1   9.678635165872369E-1   3.778976734879166E1   2.012759233362023E-2  -5.397847425660875  
 4.800000000000000E9     4.317128777461297E-2  -3.094347126004187   9.697633354483177E-1   3.216420774459188E1   9.679104598827979E-1   3.064694444401345E1   1.812974780244716E-2  -4.764984565927044  
