#  HZ   S   MA   R     50.00 
! Rohde & Schwarz ZVA67 4Ports - Version 4.11 - 1305.7002k04 SN: 101051
! Date: 2023-05-31 14:02:51
! Measurements: S11 S21 S12 S22 
! 
 5.000000000000000E7     8.932473230196773E-3   3.437937489676673E1   9.959476846205085E-1  -7.263798097183942   9.919503754043068E-1  -6.940808211102384   1.147937154583888E-2   7.099500481831211  
 1.000000000000000E8     5.498403703066169E-3  -1.742255861023946E1   9.947480567237993E-1  -1.354759219972202E1   9.967613084968753E-1  -1.393906773395820E1   5.860196690994225E-3  -1.615691862715327E1  
 1.500000000000000E8     1.264485946109706E-2  -9.455016244367547   9.936711220981854E-1  -2.037508846115316E1   9.960392114657550E-1  -2.052166337697909E1   1.238443589601600E-2  -2.307245413343991E1  
 2.000000000000000E8     1.055657255328728E-2  -1.011559607483451E1   9.923673344001600E-1  -2.716118270916684E1   9.951326182115955E-1  -2.766973683623209E1   1.274659244130563E-2  -2.155596863908323E1  
 2.500000000000000E8     1.471563198670089E-2  -1.676242082962567E1   9.922591831846717E-1  -3.414953080976877E1   9.929615653696596E-1  -3.435442341731976E1   1.715031138750144E-2  -2.797021380094770E1  
 3.000000000000000E8     1.793182186282951E-2  -3.009617692950594E1   9.925947589411489E-1  -4.100370775783331E1   9.894115496320324E-1  -4.128673841097887E1   2.125705345067037E-2  -3.398765522478069E1  
 3.500000000000000E8     2.059450200020922E-2  -3.740109216132557E1   9.913393094122591E-1  -4.786214283847384E1   9.905537653433181E-1  -4.807732650978137E1   2.204502487885201E-2  -3.991405620612515E1  
 4.000000000000000E8     2.331491482106595E-2  -4.528106740260036E1   9.897401588162179E-1  -5.457563402292643E1   9.908531540966246E-1  -5.497890284171415E1   2.589850000278536E-2  -4.397013835000397E1  
 4.500000000000000E8     2.321157883999110E-2  -4.953570561791352E1   9.895707075307803E-1  -6.147396678107964E1   9.901079775982369E-1  -6.174704125103446E1   2.881050511478098E-2  -5.087402885322182E1  
 5.000000000000000E8     2.395709704211982E-2  -6.060116602938121E1   9.893412509770713E-1  -6.829236908758800E1   9.898623404450496E-1  -6.858322313689958E1   2.921713142529415E-2  -6.398676441754115E1  
 5.500000000000000E8     2.094089384511658E-2  -6.937732194984393E1   9.888147924752356E-1  -7.513847215593113E1   9.894216404496173E-1  -7.546328417095678E1   3.083800614355078E-2  -7.191463691057351E1  
 6.000000000000000E8     1.932913125700335E-2  -8.535744728077977E1   9.890627190005401E-1  -8.198270274269659E1   9.885062123867054E-1  -8.232608188653470E1   3.308201417098879E-2  -8.360009963174734E1  
 6.500000000000000E8     1.730901919902734E-2  -9.009178317088473E1   9.883455994384817E-1  -8.874847846502431E1   9.884231366236570E-1  -8.915264678344813E1   3.607096668880411E-2  -9.580560073830606E1  
 7.000000000000000E8     1.488794839089876E-2  -1.163464216688637E2   9.875693998538062E-1  -9.558930633652250E1   9.869231191907621E-1  -9.599572347965669E1   3.625687051695995E-2  -1.103045229588179E2  
 7.500000000000000E8     9.670440283629631E-3  -1.353704833205210E2   9.874821578077769E-1  -1.024279020996819E2   9.870652698205122E-1  -1.028334297425061E2   3.654447361135146E-2  -1.237976575852249E2  
 8.000000000000000E8     1.034077088485717E-2   1.735204783197945E2   9.863462067736648E-1  -1.092397313203860E2   9.862005505223647E-1  -1.096374452169551E2   3.511890109827178E-2  -1.403980620034962E2  
 8.500000000000000E8     1.087877933580325E-2   1.441804353134055E2   9.864389567430373E-1  -1.161272185569942E2   9.860502025663188E-1  -1.165182098419785E2   3.783951784424972E-2  -1.539079432746192E2  
 9.000000000000000E8     1.559179870410004E-2   1.176719740627230E2   9.852685052630309E-1  -1.229306549523983E2   9.850070928703147E-1  -1.233601293709191E2   4.107508252196346E-2  -1.670907342238633E2  
 9.500000000000000E8     1.868443131152069E-2   1.073818754843876E2   9.840823002826347E-1  -1.297389961079664E2   9.839835433218612E-1  -1.302124148306888E2   4.227636091782616E-2  -1.774998856277469E2  
 1.000000000000000E9     2.310181017134865E-2   1.000102415548713E2   9.841204854648499E-1  -1.365702223183073E2   9.838200001844442E-1  -1.370491795187848E2   4.444593535792935E-2   1.709872941641635E2  
 1.050000000000000E9     2.479663270606278E-2   9.253275858341971E1   9.836388730539178E-1  -1.433942967322348E2   9.837531535187682E-1  -1.438906772693315E2   4.383232758887257E-2   1.628660864989652E2  
 1.100000000000000E9     2.775841899733561E-2   8.623650834704932E1   9.832037649703792E-1  -1.502258750527785E2   9.829254188938451E-1  -1.506857744520520E2   4.523985673566521E-2   1.516727564320838E2  
 1.150000000000000E9     3.029317239789523E-2   7.923439635949379E1   9.829420416711934E-1  -1.570195788174767E2   9.818587047737291E-1  -1.575314131011719E2   4.421302323588192E-2   1.431603463919754E2  
 1.200000000000000E9     3.202774001175881E-2   7.522216511597220E1   9.819411128162493E-1  -1.638774836016422E2   9.815575142755487E-1  -1.644213765690954E2   4.534459128659741E-2   1.335063695147991E2  
 1.250000000000000E9     3.133348145334210E-2   6.975360916549568E1   9.812499520223644E-1  -1.706897165573014E2   9.809406964087736E-1  -1.712400493925860E2   4.103800985829734E-2   1.282754818610610E2  
 1.300000000000000E9     3.180093013056048E-2   6.451967856160844E1   9.812149936708154E-1  -1.775105017776062E2   9.814887679885529E-1  -1.780770544688765E2   4.068674445763956E-2   1.218350961020888E2  
 1.350000000000000E9     3.197545843283404E-2   5.859404320562530E1   9.816776988217092E-1   1.756746738424640E2   9.810238150855458E-1   1.751165241039274E2   3.646965189450323E-2   1.162680012145170E2  
 1.400000000000000E9     3.024967222598294E-2   5.458517113948560E1   9.808230514440194E-1   1.688870944188454E2   9.812935230165890E-1   1.682923008235186E2   3.517977358844361E-2   1.112809471480632E2  
 1.450000000000000E9     2.862020269662524E-2   4.696295475468260E1   9.813961240418562E-1   1.621008148730628E2   9.809256345318453E-1   1.614375470264679E2   3.103019041680570E-2   1.096946973806477E2  
 1.500000000000000E9     2.692631158786141E-2   4.412637656227411E1   9.808901967382145E-1   1.552578595638676E2   9.811894669952183E-1   1.546473710256254E2   2.921487305594158E-2   1.082667044740305E2  
 1.550000000000000E9     2.439892468279097E-2   3.465330910303084E1   9.810322615857408E-1   1.484853651588557E2   9.809454585168380E-1   1.478240788185767E2   2.537279180236340E-2   1.113751343339883E2  
 1.600000000000000E9     2.299910830277297E-2   2.666280695036681E1   9.812508995786081E-1   1.416782945562597E2   9.810912842308502E-1   1.410118699465349E2   2.422634742765185E-2   1.120907207032699E2  
 1.650000000000000E9     1.952796002012745E-2   1.276704410321280E1   9.816882580593429E-1   1.348569011792688E2   9.811421292528199E-1   1.342304176714222E2   2.336350860350875E-2   1.182204380493996E2  
 1.700000000000000E9     1.779031311837085E-2   2.140137003429081E-1   9.813996631836487E-1   1.280445480748020E2   9.807067198936504E-1   1.274176469130198E2   2.454795281422586E-2   1.216349372683890E2  
 1.750000000000000E9     1.636261521941395E-2  -2.554327475027240E1   9.812259553967742E-1   1.213326316835513E2   9.812177667384555E-1   1.206341036821853E2   2.552043369514068E-2   1.262452577582087E2  
 1.800000000000000E9     1.749063331815722E-2  -4.196560759139770E1   9.813889205000858E-1   1.145207233637087E2   9.816235855553810E-1   1.138421332797339E2   2.605063776273397E-2   1.249922994301750E2  
 1.850000000000000E9     2.066545579735278E-2  -6.205673820174624E1   9.820625776141844E-1   1.077478901874236E2   9.812041424255380E-1   1.070638608197074E2   2.740402543770715E-2   1.208919593307632E2  
 1.900000000000000E9     2.389453393839879E-2  -7.707959455899635E1   9.817030492339540E-1   1.009819969434048E2   9.814898906484810E-1   1.002664194608327E2   2.842472909765073E-2   1.191049140142088E2  
 1.950000000000000E9     2.855585290351417E-2  -9.045092840988679E1   9.811629036380311E-1   9.425735630359498E1   9.823230045687938E-1   9.348810652881278E1   3.011296457948135E-2   1.140415780511331E2  
 2.000000000000000E9     3.310946633091069E-2  -1.010136952222700E2   9.810980665768763E-1   8.750089251961225E1   9.822741675077538E-1   8.666477636700179E1   3.223771312998772E-2   1.059144521921108E2  
 2.050000000000000E9     3.879664321397226E-2  -1.083050206111484E2   9.813548215816764E-1   8.065998794661853E1   9.818576314365356E-1   7.990513895865365E1   3.305177844302723E-2   9.853522938573677E1  
 2.100000000000000E9     4.205223367025497E-2  -1.170439419846601E2   9.812188224011950E-1   7.392607745081601E1   9.812862950193771E-1   7.310255885468796E1   3.341620218266853E-2   9.369290342465227E1  
 2.150000000000000E9     4.706818866997248E-2  -1.236442400170236E2   9.811717447754221E-1   6.708893582926704E1   9.807898593489961E-1   6.630415188136247E1   3.491533414351143E-2   8.736848245731827E1  
 2.200000000000000E9     4.999771554444785E-2  -1.309917593751345E2   9.803208476021753E-1   6.037525009798974E1   9.814734310899600E-1   5.959392913459252E1   3.554072562777463E-2   8.060312368861071E1  
 2.250000000000000E9     5.251202451572073E-2  -1.366387775760756E2   9.798017450670431E-1   5.358386633080222E1   9.808581056791373E-1   5.271962586661875E1   3.606230779887885E-2   7.325836573461210E1  
 2.300000000000000E9     5.189963506225627E-2  -1.442924254034595E2   9.794650041374499E-1   4.685186185621651E1   9.792749397868011E-1   4.599505816728190E1   3.901232860914344E-2   6.903113547902946E1  
 2.350000000000000E9     5.261604252506621E-2  -1.500220538923869E2   9.798703180811615E-1   4.008602336091456E1   9.797068411222855E-1   3.917896196289673E1   4.052587234247058E-2   6.382844332706997E1  
 2.400000000000000E9     5.089095807200088E-2  -1.580248942303679E2   9.796857945293025E-1   3.326948097888130E1   9.794170343034869E-1   3.242538682300979E1   4.380769337777104E-2   6.061685679708447E1  
 2.450000000000000E9     5.092071861535554E-2  -1.632933480705075E2   9.796697619087421E-1   2.648579774411887E1   9.791949349477227E-1   2.563164276850158E1   4.389495770240383E-2   5.605539650257095E1  
 2.500000000000000E9     4.766595296602253E-2  -1.728640364165699E2   9.802593104632555E-1   1.969171452995973E1   9.796445537052355E-1   1.882398980852388E1   4.787578603982797E-2   5.319386015556714E1  
 2.550000000000000E9     4.504060140994846E-2  -1.799116381522429E2   9.808291397359712E-1   1.289285640833025E1   9.797072981808648E-1   1.207463611768978E1   4.728603265139534E-2   4.855755797822089E1  
 2.600000000000000E9     4.252524278058605E-2   1.669057757942074E2   9.791195870592506E-1   6.075589058539759   9.790226715166059E-1   5.232495989208285   5.115296778361034E-2   4.570104954149717E1  
 2.650000000000000E9     4.040586321959071E-2   1.578832422443446E2   9.797372324367503E-1  -7.545006690264426E-1   9.787873481940832E-1  -1.562744240000440   5.051004128947931E-2   4.107281655166908E1  
 2.700000000000000E9     3.845846297110615E-2   1.442645520042537E2   9.785648093743306E-1  -7.608873955133280   9.785832957482129E-1  -8.360118844827534   5.341956740252118E-2   3.597160841943255E1  
 2.750000000000000E9     3.767207893844185E-2   1.315551940089885E2   9.780797752006339E-1  -1.438566409891348E1   9.772202838013596E-1  -1.516673483108264E1   5.396189151971841E-2   3.067823157379895E1  
 2.800000000000000E9     3.809456258274169E-2   1.158981403406739E2   9.777124743769629E-1  -2.122402666310525E1   9.767823612558733E-1  -2.202867559115906E1   5.602655473178441E-2   2.476732713546546E1  
 2.850000000000000E9     3.963116921401750E-2   1.025146767292571E2   9.782011239207049E-1  -2.805937389038250E1   9.770039621720206E-1  -2.886292431265818E1   5.620636672780151E-2   1.833137463280582E1  
 2.900000000000000E9     4.432637049580897E-2   9.018418007978515E1   9.782815333154328E-1  -3.490416706995698E1   9.785630467941692E-1  -3.569615405160281E1   5.720376401763012E-2   1.209698354800187E1  
 2.950000000000000E9     4.386480445260334E-2   7.886060612671076E1   9.777230261291217E-1  -4.175600613536222E1   9.775867187224330E-1  -4.258011808062581E1   5.735524576940638E-2   4.248890216534718  
 3.000000000000000E9     4.671432742726585E-2   6.790466586393551E1   9.781660490880964E-1  -4.856527317184556E1   9.760769832894614E-1  -4.946988131421676E1   5.712337691002856E-2  -8.309889950766778E-1  
 3.050000000000000E9     4.675870869024618E-2   5.932037641068747E1   9.776161524894195E-1  -5.544259289592165E1   9.772839778135478E-1  -5.632094929124368E1   5.556244595498674E-2  -9.762607364365488  
 3.100000000000000E9     5.108194891167624E-2   4.927574396445948E1   9.768072991409502E-1  -6.223222349086689E1   9.758296280365720E-1  -6.323050329798587E1   5.596643207296200E-2  -1.646264445582086E1  
 3.150000000000000E9     4.999072152291238E-2   4.251338123974273E1   9.762945606690494E-1  -6.902343874451415E1   9.748943100621336E-1  -7.010725393506375E1   5.373437564340308E-2  -2.435896578329816E1  
 3.200000000000000E9     5.166607562475508E-2   3.510472582882913E1   9.745473078208329E-1  -7.583257378065726E1   9.758185945270553E-1  -7.690541498785231E1   5.255619847197956E-2  -3.216803272655061E1  
 3.250000000000000E9     5.044439529697215E-2   2.884534985427835E1   9.755282783350094E-1  -8.264461561292841E1   9.755163472877002E-1  -8.375759888013420E1   4.805480513523842E-2  -4.044448311268651E1  
 3.300000000000000E9     4.856223231602068E-2   2.360027618850528E1   9.754259340849661E-1  -8.936577401297750E1   9.764290581355156E-1  -9.044550871917853E1   4.585686726237140E-2  -4.991390939364391E1  
 3.350000000000000E9     4.545597458194534E-2   1.658175464288897E1   9.750495929771402E-1  -9.618761502489284E1   9.762768778033003E-1  -9.726585070996374E1   4.186573822628363E-2  -5.955225854462559E1  
 3.400000000000000E9     4.243070980121081E-2   1.260938417298278E1   9.750275374687051E-1  -1.029096133008745E2   9.769486293389064E-1  -1.041130819289734E2   3.837910534126968E-2  -6.925740582436166E1  
 3.450000000000000E9     3.729359990742918E-2   6.469687332936358   9.760026343755988E-1  -1.096308477059494E2   9.774951556194272E-1  -1.110071329601948E2   3.434782113084126E-2  -8.145348566356526E1  
 3.500000000000000E9     3.503432563991016E-2   2.040652670230156   9.791342512383581E-1  -1.163645182837676E2   9.790450342697100E-1  -1.178642489524532E2   2.970739568404842E-2  -9.525471901200361E1  
 3.550000000000000E9     2.704640896126812E-2  -4.216309322347953   9.803741071142843E-1  -1.232101395547961E2   9.797560142094166E-1  -1.247777220150982E2   2.642848271279584E-2  -1.095557385434200E2  
 3.600000000000000E9     2.301631198878924E-2  -5.370829239016075   9.820968527731167E-1  -1.301514208905188E2   9.791680211489053E-1  -1.315977867966404E2   2.261986072772563E-2  -1.252047462669431E2  
 3.650000000000000E9     1.749962805339040E-2  -9.219545478031177   9.824644056107790E-1  -1.370631522668851E2   9.793928082590335E-1  -1.383662938679380E2   2.284731743512012E-2  -1.503544021555366E2  
 3.700000000000000E9     1.264720377931924E-2  -9.498707225185331   9.815019411119065E-1  -1.439119399083882E2   9.797384986199137E-1  -1.452283734546823E2   2.259745658335274E-2  -1.646051841838923E2  
 3.750000000000000E9     4.346289104172584E-3  -1.202747364395118E1   9.810902038353636E-1  -1.508103657225213E2   9.793787720757007E-1  -1.520954225474789E2   2.354870783475047E-2   1.773179185695848E2  
 3.800000000000000E9     3.731823873245131E-3   9.307665433032489E1   9.805726972162584E-1  -1.576355367792305E2   9.789850266640311E-1  -1.589039153269300E2   2.281347229760122E-2   1.597357190119902E2  
 3.850000000000000E9     1.136113230821821E-2   1.251304589015244E2   9.789951848345926E-1  -1.644489043774392E2   9.784131370662855E-1  -1.657257947133075E2   2.547547963214161E-2   1.432941840594513E2  
 3.900000000000000E9     1.793694570772544E-2   1.229026108425758E2   9.790391074156741E-1  -1.712435823750500E2   9.779420856830182E-1  -1.725845840642410E2   2.759576676796036E-2   1.314943382323367E2  
 3.950000000000000E9     2.632601717939623E-2   1.222402772715051E2   9.787711727561026E-1  -1.780610048653199E2   9.782604738181772E-1  -1.793925894509140E2   2.954308707379252E-2   1.183340064742723E2  
 4.000000000000000E9     3.228004927183614E-2   1.156929056113263E2   9.788376112153995E-1   1.751458442968637E2   9.782376465669512E-1   1.738128363151808E2   3.232240595084170E-2   1.050027400166179E2  
 4.050000000000000E9     3.796289309350329E-2   1.127284694495837E2   9.791330649405764E-1   1.684292302229272E2   9.782265396459282E-1   1.670327467856904E2   3.475036593425389E-2   9.660010457112459E1  
 4.100000000000000E9     4.233020297374378E-2   1.068906176303652E2   9.779090552396673E-1   1.615688804889564E2   9.771208312844126E-1   1.601878493296638E2   3.683174342485627E-2   8.548166889731287E1  
 4.150000000000000E9     4.807225557198734E-2   1.016004809824410E2   9.771163332044792E-1   1.547400541422944E2   9.765987684185103E-1   1.533709535507429E2   3.991604473245265E-2   7.706598774377945E1  
 4.200000000000000E9     5.072521948254295E-2   9.565682866975730E1   9.772317981303822E-1   1.479361034915966E2   9.760328427491873E-1   1.465486719174862E2   4.315247414261335E-2   6.801672170147104E1  
 4.250000000000000E9     5.392656363153742E-2   8.978842087383269E1   9.763502443740207E-1   1.411067437882965E2   9.752319924274229E-1   1.397376675957470E2   4.702236937782084E-2   6.037954388555000E1  
 4.300000000000000E9     5.600197927845588E-2   8.228652735544783E1   9.758504507910507E-1   1.342936356308966E2   9.745180808312242E-1   1.329693706748144E2   5.166687042447162E-2   5.474591786760785E1  
 4.350000000000000E9     5.894629468540474E-2   7.584895857885903E1   9.756453140001500E-1   1.275323840830897E2   9.750356949384280E-1   1.261180805046348E2   5.457256574971817E-2   4.717903894117577E1  
 4.400000000000000E9     6.148794889433582E-2   6.638748421400739E1   9.755960517115991E-1   1.207094654434631E2   9.745137248737331E-1   1.193438987880341E2   5.807956805534278E-2   4.068521995189974E1  
 4.450000000000000E9     6.165095715098816E-2   6.076963561724661E1   9.758332022358566E-1   1.139372235754275E2   9.745385196187194E-1   1.125315193946650E2   5.947509122109419E-2   3.342803267773345E1  
 4.500000000000000E9     6.398204344101384E-2   5.140131321022218E1   9.755521021309811E-1   1.071232416303608E2   9.743400801654845E-1   1.057449693416642E2   6.303905918032975E-2   2.602734190905582E1  
 4.550000000000000E9     6.531144044103210E-2   4.462939834077185E1   9.755205582373931E-1   1.003055645320252E2   9.749354408957459E-1   9.893948127452224E1   6.406054444894795E-2   2.018667013181190E1  
 4.600000000000000E9     6.671217999748361E-2   3.546796573060201E1   9.757701830822509E-1   9.356900261698696E1   9.751510249768932E-1   9.211814594712256E1   6.493140863216078E-2   1.149934125978645E1  
 4.650000000000000E9     6.784098344137024E-2   2.723394940066046E1   9.761097746927617E-1   8.677217645647116E1   9.754464236587833E-1   8.533619042931727E1   6.564500421960069E-2   7.003175561161936  
 4.700000000000000E9     6.905265599358645E-2   1.818635848560454E1   9.761343261239595E-1   8.002305914733374E1   9.755481045281984E-1   7.855573748428360E1   6.475038025514784E-2   9.161329852759256E-1  
 4.750000000000000E9     7.048551145222894E-2   1.069977864004897E1   9.770793487401974E-1   7.325190966751970E1   9.759639675150715E-1   7.173932227321294E1   6.277341531850533E-2  -4.905187174337818  
 4.800000000000000E9     7.236400113915308E-2   2.329555868451543   9.774135266595120E-1   6.647363978981538E1   9.758492840140416E-1   6.498018227533441E1   6.078135319001054E-2  -1.149004994152081E1  
