!Agilent Technologies,E8364A,US41440284,A.06.04.32
!Agilent E8364A: A.06.04.32
!Date: Wednesday, May 24, 2023 11:18:08
!Correction: S11(Full 2 Port(1,2)) S21(Full 2 Port(1,2)) S12(Full 2 Port(1,2)) S22(Full 2 Port(1,2)) 
!S2P File: Measurements: S11, S21, S12, S22:
# Hz S  RI   R 50
4000000000 3.801128e-001 -6.563022e-001 -1.563744e+000 3.638491e+000 2.717105e-002 5.980269e-002 4.329488e-001 -2.403175e-001
4080000000 3.614850e-001 -6.547501e-001 -1.493264e+000 3.641412e+000 2.672593e-002 6.190078e-002 4.270887e-001 -2.461498e-001
4160000000 3.414880e-001 -6.432322e-001 -1.389088e+000 3.649734e+000 2.724767e-002 6.191128e-002 4.219201e-001 -2.429151e-001
4240000000 3.240207e-001 -6.443669e-001 -1.309988e+000 3.667783e+000 2.761941e-002 6.339241e-002 4.143475e-001 -2.470804e-001
4320000000 3.049689e-001 -6.443834e-001 -1.225241e+000 3.679289e+000 2.799245e-002 6.453533e-002 4.067076e-001 -2.516371e-001
4400000000 2.836099e-001 -6.402268e-001 -1.137501e+000 3.701285e+000 2.821589e-002 6.519051e-002 4.019512e-001 -2.513257e-001
4480000000 2.679690e-001 -6.459065e-001 -1.081381e+000 3.700210e+000 2.889021e-002 6.621747e-002 3.915598e-001 -2.617619e-001
4560000000 2.414082e-001 -6.486915e-001 -9.735920e-001 3.717323e+000 2.906691e-002 6.806117e-002 3.872146e-001 -2.672055e-001
4640000000 2.234963e-001 -6.428009e-001 -8.807763e-001 3.694692e+000 2.969680e-002 6.812192e-002 3.775878e-001 -2.689267e-001
4720000000 1.990566e-001 -6.521975e-001 -8.035757e-001 3.730118e+000 3.066738e-002 6.983325e-002 3.694161e-001 -2.815346e-001
4800000000 1.782546e-001 -6.487733e-001 -7.098128e-001 3.699476e+000 3.114867e-002 7.018679e-002 3.582334e-001 -2.840841e-001
4880000000 1.548180e-001 -6.570219e-001 -6.371043e-001 3.720066e+000 3.233442e-002 7.091460e-002 3.474814e-001 -2.957874e-001
4960000000 1.288410e-001 -6.558065e-001 -5.532112e-001 3.707333e+000 3.255821e-002 7.247654e-002 3.372743e-001 -3.029264e-001
5040000000 1.048275e-001 -6.474910e-001 -4.460413e-001 3.665742e+000 3.284578e-002 7.231300e-002 3.265579e-001 -3.050282e-001
5120000000 8.459952e-002 -6.521167e-001 -3.489781e-001 3.688794e+000 3.505412e-002 7.209362e-002 3.152107e-001 -3.137590e-001
5200000000 5.561569e-002 -6.550313e-001 -2.929222e-001 3.680029e+000 3.594555e-002 7.465562e-002 2.998675e-001 -3.250911e-001
5280000000 3.153941e-002 -6.462072e-001 -1.779778e-001 3.648903e+000 3.670821e-002 7.411198e-002 2.893403e-001 -3.275988e-001
5360000000 6.793213e-003 -6.431761e-001 -9.081155e-002 3.620252e+000 3.753494e-002 7.445484e-002 2.762433e-001 -3.334044e-001
5440000000 -1.354302e-002 -6.370127e-001 -7.724697e-003 3.596741e+000 3.838138e-002 7.366730e-002 2.633758e-001 -3.358868e-001
5520000000 -3.377675e-002 -6.327329e-001 9.348237e-002 3.559339e+000 4.000185e-002 7.376894e-002 2.521296e-001 -3.401368e-001
5600000000 -5.797916e-002 -6.315743e-001 1.460046e-001 3.578912e+000 4.136330e-002 7.552975e-002 2.393721e-001 -3.481248e-001
5680000000 -7.328737e-002 -6.184903e-001 2.154373e-001 3.489610e+000 4.010929e-002 7.472070e-002 2.310976e-001 -3.463424e-001
5760000000 -8.767740e-002 -6.134136e-001 2.821338e-001 3.466500e+000 4.148582e-002 7.401161e-002 2.197704e-001 -3.495249e-001
5840000000 -1.017361e-001 -6.109745e-001 3.461087e-001 3.451730e+000 4.204191e-002 7.427786e-002 2.094610e-001 -3.539395e-001
5920000000 -1.147650e-001 -6.046544e-001 3.841853e-001 3.388342e+000 4.182868e-002 7.439259e-002 1.999657e-001 -3.541851e-001
6000000000 -1.244653e-001 -6.028031e-001 4.563979e-001 3.383639e+000 4.320251e-002 7.449848e-002 1.921335e-001 -3.576000e-001
6080000000 -1.341887e-001 -5.969816e-001 4.949998e-001 3.316982e+000 4.142820e-002 7.469684e-002 1.833009e-001 -3.573344e-001
6160000000 -1.381457e-001 -5.936965e-001 5.544078e-001 3.276561e+000 4.286744e-002 7.296524e-002 1.745635e-001 -3.584258e-001
6240000000 -1.447917e-001 -5.906289e-001 6.233149e-001 3.250643e+000 4.327008e-002 7.339860e-002 1.716585e-001 -3.597212e-001
6320000000 -1.495990e-001 -5.874962e-001 6.664110e-001 3.218063e+000 4.381040e-002 7.292120e-002 1.628562e-001 -3.602785e-001
6400000000 -1.528814e-001 -5.858091e-001 7.203431e-001 3.209790e+000 4.416219e-002 7.371537e-002 1.586690e-001 -3.624615e-001
6480000000 -1.569562e-001 -5.845351e-001 7.527410e-001 3.165881e+000 4.361713e-002 7.329018e-002 1.538613e-001 -3.609296e-001
6560000000 -1.564835e-001 -5.806777e-001 7.976606e-001 3.150245e+000 4.322603e-002 7.298706e-002 1.513412e-001 -3.592865e-001
6640000000 -1.550627e-001 -5.785875e-001 8.402225e-001 3.115321e+000 4.336086e-002 7.367178e-002 1.513216e-001 -3.573678e-001
6720000000 -1.583658e-001 -5.773273e-001 8.542112e-001 3.120850e+000 4.275126e-002 7.521634e-002 1.473103e-001 -3.580295e-001
6800000000 -1.548456e-001 -5.729302e-001 8.740575e-001 3.064502e+000 4.083636e-002 7.517373e-002 1.497670e-001 -3.539380e-001
6880000000 -1.530071e-001 -5.684095e-001 8.909077e-001 3.050756e+000 4.003970e-002 7.557215e-002 1.486849e-001 -3.508140e-001
6960000000 -1.448340e-001 -5.634674e-001 9.277168e-001 3.017404e+000 3.931190e-002 7.466345e-002 1.519910e-001 -3.446363e-001
7040000000 -1.416668e-001 -5.607704e-001 9.392946e-001 3.017733e+000 3.839951e-002 7.640810e-002 1.530133e-001 -3.433708e-001
7120000000 -1.365950e-001 -5.557554e-001 9.622948e-001 2.991796e+000 3.737228e-002 7.661666e-002 1.572669e-001 -3.387873e-001
7200000000 -1.302863e-001 -5.502295e-001 9.762834e-001 2.969562e+000 3.558278e-002 7.636111e-002 1.604840e-001 -3.345758e-001
7280000000 -1.228216e-001 -5.442610e-001 9.899210e-001 2.959467e+000 3.487946e-002 7.708036e-002 1.645792e-001 -3.335433e-001
7360000000 -1.150489e-001 -5.393311e-001 1.006532e+000 2.946878e+000 3.361415e-002 7.834709e-002 1.694655e-001 -3.326624e-001
7440000000 -1.137557e-001 -5.359447e-001 1.031641e+000 2.947522e+000 3.230697e-002 8.067065e-002 1.696364e-001 -3.346872e-001
7520000000 -1.078188e-001 -5.267429e-001 1.045253e+000 2.926277e+000 3.068539e-002 8.149672e-002 1.726342e-001 -3.331597e-001
7600000000 -1.036704e-001 -5.239703e-001 1.064309e+000 2.926402e+000 2.934612e-002 8.338030e-002 1.717380e-001 -3.336445e-001
7680000000 -9.906101e-002 -5.155668e-001 1.076746e+000 2.908888e+000 2.900887e-002 8.467834e-002 1.717879e-001 -3.340989e-001
7760000000 -1.005107e-001 -5.089547e-001 1.103943e+000 2.902889e+000 2.788167e-002 8.599478e-002 1.691498e-001 -3.307979e-001
7840000000 -9.800316e-002 -5.012739e-001 1.114315e+000 2.880213e+000 2.805858e-002 8.681141e-002 1.686514e-001 -3.275124e-001
7920000000 -1.009354e-001 -4.935467e-001 1.139343e+000 2.878568e+000 2.744453e-002 8.781632e-002 1.692653e-001 -3.236602e-001
8000000000 -9.928257e-002 -4.821212e-001 1.140239e+000 2.865967e+000 2.765094e-002 8.727978e-002 1.718278e-001 -3.166650e-001
8080000000 -9.990597e-002 -4.701829e-001 1.154235e+000 2.855865e+000 2.634274e-002 8.662460e-002 1.795949e-001 -3.163148e-001
8160000000 -9.738250e-002 -4.632326e-001 1.176114e+000 2.874171e+000 2.375553e-002 8.570945e-002 1.871681e-001 -3.204152e-001
8240000000 -9.474735e-002 -4.591598e-001 1.209253e+000 2.888005e+000 2.110063e-002 8.612784e-002 1.915332e-001 -3.297534e-001
8320000000 -1.006563e-001 -4.592935e-001 1.271504e+000 2.890745e+000 1.807849e-002 8.776725e-002 1.922517e-001 -3.428625e-001
8400000000 -1.078227e-001 -4.583071e-001 1.333439e+000 2.910051e+000 1.555934e-002 8.959231e-002 1.882349e-001 -3.542612e-001
8480000000 -1.181233e-001 -4.563000e-001 1.395918e+000 2.886405e+000 1.351142e-002 9.204927e-002 1.835141e-001 -3.666066e-001
8560000000 -1.301175e-001 -4.546454e-001 1.473296e+000 2.860635e+000 1.227749e-002 9.484883e-002 1.721130e-001 -3.788723e-001
8640000000 -1.463292e-001 -4.498652e-001 1.536203e+000 2.831895e+000 1.048314e-002 9.709082e-002 1.599338e-001 -3.891894e-001
8720000000 -1.592056e-001 -4.476887e-001 1.577430e+000 2.787543e+000 1.026324e-002 9.911509e-002 1.451363e-001 -3.986834e-001
8800000000 -1.782787e-001 -4.423757e-001 1.651430e+000 2.755401e+000 9.467735e-003 1.017853e-001 1.303173e-001 -4.087064e-001
8880000000 -1.938543e-001 -4.363097e-001 1.688894e+000 2.696143e+000 9.650065e-003 1.033578e-001 1.128845e-001 -4.153697e-001
8960000000 -2.131862e-001 -4.328027e-001 1.747882e+000 2.648233e+000 9.769212e-003 1.055154e-001 9.542005e-002 -4.235796e-001
9040000000 -2.327556e-001 -4.298953e-001 1.787573e+000 2.613983e+000 1.002963e-002 1.071133e-001 7.809800e-002 -4.294687e-001
9120000000 -2.556605e-001 -4.258181e-001 1.806583e+000 2.589397e+000 9.840198e-003 1.084601e-001 5.846102e-002 -4.335313e-001
9200000000 -2.817090e-001 -4.212163e-001 1.848153e+000 2.543052e+000 9.731606e-003 1.094650e-001 3.989983e-002 -4.366231e-001
9280000000 -3.093486e-001 -4.106581e-001 1.888079e+000 2.535429e+000 9.128495e-003 1.106592e-001 2.019690e-002 -4.344404e-001
9360000000 -3.367464e-001 -3.967496e-001 1.946378e+000 2.504580e+000 8.251258e-003 1.121720e-001 3.669623e-003 -4.340816e-001
9440000000 -3.599427e-001 -3.796716e-001 2.021748e+000 2.472562e+000 8.416650e-003 1.135799e-001 -1.204064e-002 -4.301444e-001
9520000000 -3.788075e-001 -3.600301e-001 2.075268e+000 2.421020e+000 8.143626e-003 1.150692e-001 -2.562914e-002 -4.273401e-001
9600000000 -3.926842e-001 -3.404522e-001 2.133634e+000 2.340813e+000 7.904425e-003 1.158892e-001 -3.532641e-002 -4.241317e-001
9680000000 -4.061324e-001 -3.204789e-001 2.203185e+000 2.271685e+000 8.714133e-003 1.164241e-001 -4.778990e-002 -4.230682e-001
9760000000 -4.088515e-001 -2.999128e-001 2.216236e+000 2.179805e+000 8.119616e-003 1.166959e-001 -5.347699e-002 -4.200238e-001
9840000000 -4.081873e-001 -2.829659e-001 2.226691e+000 2.116059e+000 7.210956e-003 1.163956e-001 -5.708483e-002 -4.168650e-001
9920000000 -4.019499e-001 -2.721943e-001 2.231372e+000 2.043657e+000 4.880689e-003 1.167590e-001 -5.637411e-002 -4.193232e-001
10000000000 -3.980348e-001 -2.673355e-001 2.222598e+000 1.996331e+000 2.935734e-003 1.179159e-001 -5.493921e-002 -4.222492e-001
10080000000 -3.935753e-001 -2.666304e-001 2.230603e+000 1.966427e+000 1.393656e-003 1.195047e-001 -5.553544e-002 -4.295652e-001
10160000000 -3.885329e-001 -2.679524e-001 2.221354e+000 1.935467e+000 -9.200561e-004 1.202146e-001 -5.043162e-002 -4.366044e-001
10240000000 -3.839447e-001 -2.726237e-001 2.223922e+000 1.927488e+000 -3.780449e-003 1.213774e-001 -4.706046e-002 -4.462896e-001
10320000000 -3.814037e-001 -2.784563e-001 2.243526e+000 1.914720e+000 -6.889373e-003 1.234209e-001 -4.299969e-002 -4.595812e-001
10400000000 -3.792565e-001 -2.874908e-001 2.243703e+000 1.911704e+000 -1.002712e-002 1.258217e-001 -3.799957e-002 -4.733506e-001
10480000000 -3.790588e-001 -2.976281e-001 2.288745e+000 1.910677e+000 -1.378783e-002 1.286892e-001 -3.446002e-002 -4.916689e-001
10560000000 -3.781399e-001 -3.094815e-001 2.295509e+000 1.897700e+000 -1.736606e-002 1.318481e-001 -3.200930e-002 -5.084122e-001
10640000000 -3.839210e-001 -3.226106e-001 2.365565e+000 1.904565e+000 -2.056560e-002 1.363076e-001 -3.163598e-002 -5.300109e-001
10720000000 -3.856968e-001 -3.324406e-001 2.391430e+000 1.864429e+000 -2.434782e-002 1.407851e-001 -3.122573e-002 -5.481077e-001
10800000000 -3.919895e-001 -3.457338e-001 2.458157e+000 1.886383e+000 -2.723788e-002 1.460978e-001 -3.668639e-002 -5.692600e-001
10880000000 -3.975570e-001 -3.560442e-001 2.520095e+000 1.827805e+000 -3.058159e-002 1.521550e-001 -3.937218e-002 -5.892313e-001
10960000000 -4.044845e-001 -3.676234e-001 2.558584e+000 1.848026e+000 -3.294906e-002 1.571472e-001 -4.500952e-002 -6.028126e-001
11040000000 -4.120541e-001 -3.740401e-001 2.631417e+000 1.797780e+000 -3.542783e-002 1.637663e-001 -5.070171e-002 -6.196483e-001
11120000000 -4.174656e-001 -3.840757e-001 2.659616e+000 1.790651e+000 -3.815391e-002 1.692284e-001 -5.831869e-002 -6.336260e-001
11200000000 -4.265268e-001 -3.912033e-001 2.744738e+000 1.756077e+000 -4.021729e-002 1.763074e-001 -6.394831e-002 -6.493624e-001
11280000000 -4.366042e-001 -3.987137e-001 2.793604e+000 1.740744e+000 -4.340821e-002 1.826344e-001 -7.039900e-002 -6.596518e-001
11360000000 -4.463050e-001 -4.047426e-001 2.867929e+000 1.727552e+000 -4.545106e-002 1.887769e-001 -7.929736e-002 -6.701356e-001
11440000000 -4.528669e-001 -4.083604e-001 2.899838e+000 1.690903e+000 -4.706727e-002 1.954983e-001 -8.614872e-002 -6.800520e-001
11520000000 -4.644464e-001 -4.134177e-001 2.964715e+000 1.670335e+000 -4.955019e-002 2.021900e-001 -9.540518e-002 -6.901471e-001
11600000000 -4.770325e-001 -4.149831e-001 3.041922e+000 1.609088e+000 -5.160350e-002 2.096750e-001 -1.023310e-001 -7.010360e-001
11680000000 -4.918681e-001 -4.168095e-001 3.102081e+000 1.601775e+000 -5.395245e-002 2.161383e-001 -1.130843e-001 -7.044652e-001
11760000000 -5.012319e-001 -4.152365e-001 3.149067e+000 1.538679e+000 -5.586374e-002 2.243764e-001 -1.251728e-001 -7.167659e-001
11840000000 -5.150938e-001 -4.159955e-001 3.198608e+000 1.514894e+000 -5.768507e-002 2.318522e-001 -1.358892e-001 -7.234054e-001
11920000000 -5.330603e-001 -4.112433e-001 3.272597e+000 1.439947e+000 -5.918764e-002 2.397438e-001 -1.489316e-001 -7.332072e-001
12000000000 -5.488051e-001 -4.082527e-001 3.311764e+000 1.409614e+000 -6.142510e-002 2.483557e-001 -1.634601e-001 -7.373846e-001
12080000000 -5.712795e-001 -4.053642e-001 3.399949e+000 1.349087e+000 -6.223053e-002 2.563469e-001 -1.816661e-001 -7.483006e-001
12160000000 -5.931209e-001 -3.999556e-001 3.445317e+000 1.307769e+000 -6.369162e-002 2.650120e-001 -1.988531e-001 -7.534256e-001
12240000000 -6.179355e-001 -3.957122e-001 3.526289e+000 1.237745e+000 -6.388316e-002 2.738105e-001 -2.190928e-001 -7.660237e-001
12320000000 -6.438308e-001 -3.865436e-001 3.604150e+000 1.174139e+000 -6.368068e-002 2.839775e-001 -2.438299e-001 -7.709392e-001
12400000000 -6.733522e-001 -3.789075e-001 3.663275e+000 1.143762e+000 -6.474356e-002 2.918890e-001 -2.693648e-001 -7.761712e-001
12480000000 -7.039312e-001 -3.681546e-001 3.754243e+000 1.033671e+000 -6.278384e-002 3.015885e-001 -3.005144e-001 -7.920850e-001
12560000000 -7.390608e-001 -3.529704e-001 3.825869e+000 9.455191e-001 -6.175514e-002 3.130255e-001 -3.319065e-001 -7.989458e-001
12640000000 -7.713680e-001 -3.373383e-001 3.908717e+000 8.485484e-001 -6.003106e-002 3.224584e-001 -3.710848e-001 -8.089494e-001
12720000000 -8.074585e-001 -3.223453e-001 3.963527e+000 7.409652e-001 -5.773526e-002 3.329428e-001 -4.119363e-001 -8.156694e-001
12800000000 -8.438963e-001 -2.993941e-001 4.057685e+000 6.251361e-001 -5.224098e-002 3.438804e-001 -4.608143e-001 -8.199763e-001
12880000000 -8.817061e-001 -2.787600e-001 4.100385e+000 4.862497e-001 -4.969797e-002 3.532314e-001 -5.053430e-001 -8.243578e-001
12960000000 -9.200659e-001 -2.529040e-001 4.171591e+000 3.257438e-001 -4.149676e-002 3.665217e-001 -5.602486e-001 -8.270534e-001
13040000000 -9.509615e-001 -2.222004e-001 4.211401e+000 2.104798e-001 -4.000468e-002 3.781480e-001 -6.091700e-001 -8.248566e-001
13120000000 -9.955494e-001 -1.896580e-001 4.243567e+000 2.738782e-002 -3.064924e-002 3.848519e-001 -6.670231e-001 -8.190888e-001
13200000000 -1.027691e+000 -1.581142e-001 4.283909e+000 -1.338398e-001 -1.950854e-002 3.986951e-001 -7.293376e-001 -8.124959e-001
13280000000 -1.066387e+000 -1.189986e-001 4.268284e+000 -3.034599e-001 -1.566780e-002 4.097260e-001 -7.884949e-001 -8.028730e-001
13360000000 -1.100602e+000 -8.269480e-002 4.300771e+000 -4.765432e-001 -4.117672e-003 4.157658e-001 -8.510470e-001 -7.853901e-001
13440000000 -1.130517e+000 -4.360693e-002 4.263063e+000 -6.502606e-001 6.731025e-003 4.289797e-001 -9.116201e-001 -7.695289e-001
13520000000 -1.160066e+000 3.203333e-003 4.221752e+000 -8.223841e-001 1.490808e-002 4.326648e-001 -9.703659e-001 -7.464300e-001
13600000000 -1.192555e+000 4.253286e-002 4.209804e+000 -1.038103e+000 3.132659e-002 4.359610e-001 -1.032982e+000 -7.121870e-001
13680000000 -1.213493e+000 8.727191e-002 4.157754e+000 -1.186722e+000 4.558756e-002 4.463897e-001 -1.092377e+000 -6.816396e-001
13760000000 -1.237388e+000 1.325384e-001 4.079089e+000 -1.364650e+000 5.514985e-002 4.484832e-001 -1.146530e+000 -6.515942e-001
13840000000 -1.258727e+000 1.769778e-001 4.024053e+000 -1.579036e+000 7.545309e-002 4.527992e-001 -1.209343e+000 -6.033574e-001
13920000000 -1.274816e+000 2.184293e-001 3.968834e+000 -1.697296e+000 7.985174e-002 4.600307e-001 -1.257589e+000 -5.786273e-001
14000000000 -1.295606e+000 2.642335e-001 3.882175e+000 -1.891963e+000 9.545889e-002 4.601544e-001 -1.314066e+000 -5.354000e-001
14080000000 -1.310539e+000 3.118886e-001 3.818076e+000 -2.071149e+000 1.160076e-001 4.644871e-001 -1.374785e+000 -4.823385e-001
14160000000 -1.329341e+000 3.596028e-001 3.754750e+000 -2.199272e+000 1.193507e-001 4.747708e-001 -1.428487e+000 -4.559638e-001
14240000000 -1.351228e+000 4.094227e-001 3.607257e+000 -2.404749e+000 1.381213e-001 4.649638e-001 -1.473266e+000 -3.925126e-001
14320000000 -1.358562e+000 4.698066e-001 3.502553e+000 -2.603808e+000 1.645401e-001 4.700419e-001 -1.533893e+000 -3.184488e-001
14400000000 -1.375696e+000 5.242189e-001 3.382689e+000 -2.762613e+000 1.804187e-001 4.720839e-001 -1.582016e+000 -2.603549e-001
14480000000 -1.383201e+000 5.838002e-001 3.231588e+000 -2.903526e+000 1.961119e-001 4.653671e-001 -1.611806e+000 -1.912676e-001
14560000000 -1.382388e+000 6.360216e-001 3.081056e+000 -3.095783e+000 2.202746e-001 4.618111e-001 -1.652108e+000 -1.135168e-001
14640000000 -1.391417e+000 7.015652e-001 2.939140e+000 -3.201630e+000 2.289061e-001 4.545955e-001 -1.675841e+000 -5.881438e-002
14720000000 -1.372375e+000 7.505496e-001 2.793654e+000 -3.423566e+000 2.551009e-001 4.434539e-001 -1.702986e+000 2.954484e-002
14800000000 -1.390469e+000 8.275130e-001 2.648826e+000 -3.546986e+000 2.747746e-001 4.494225e-001 -1.755474e+000 9.110554e-002
14880000000 -1.379890e+000 9.048136e-001 2.517416e+000 -3.743699e+000 2.801859e-001 4.444192e-001 -1.780351e+000 1.549967e-001
14960000000 -1.383060e+000 9.689863e-001 2.269434e+000 -3.929605e+000 3.125581e-001 4.252661e-001 -1.812664e+000 2.632512e-001
15040000000 -1.359156e+000 1.082899e+000 2.083652e+000 -4.110330e+000 3.395366e-001 4.307347e-001 -1.870675e+000 3.646594e-001
15120000000 -1.347669e+000 1.169889e+000 1.772507e+000 -4.302867e+000 3.583833e-001 4.186451e-001 -1.894414e+000 4.741030e-001
15200000000 -1.277214e+000 1.305664e+000 1.518443e+000 -4.460267e+000 3.886383e-001 4.138710e-001 -1.927083e+000 6.159744e-001
15280000000 -1.238960e+000 1.410988e+000 1.108892e+000 -4.621093e+000 4.212095e-001 3.958936e-001 -1.928908e+000 7.716267e-001
15360000000 -1.112377e+000 1.549579e+000 7.666188e-001 -4.665929e+000 4.553722e-001 3.918000e-001 -1.914960e+000 9.425840e-001
15440000000 -1.033375e+000 1.615667e+000 2.190890e-001 -4.732254e+000 4.757476e-001 3.433136e-001 -1.833135e+000 1.111062e+000
15520000000 -8.821709e-001 1.706399e+000 -1.792991e-001 -4.626020e+000 5.114439e-001 3.070595e-001 -1.744978e+000 1.289642e+000
15600000000 -7.494128e-001 1.728491e+000 -6.621403e-001 -4.524365e+000 5.219396e-001 2.616382e-001 -1.622477e+000 1.411895e+000
15680000000 -6.174223e-001 1.768952e+000 -9.922975e-001 -4.271016e+000 5.295382e-001 2.151679e-001 -1.470023e+000 1.532328e+000
15760000000 -4.996967e-001 1.747839e+000 -1.338957e+000 -3.987851e+000 5.275931e-001 1.723520e-001 -1.322259e+000 1.612157e+000
15840000000 -3.975761e-001 1.742931e+000 -1.510485e+000 -3.660504e+000 5.085637e-001 1.367399e-001 -1.157385e+000 1.653966e+000
15920000000 -3.160325e-001 1.692933e+000 -1.667406e+000 -3.378228e+000 4.973560e-001 9.469087e-002 -1.023674e+000 1.690425e+000
16000000000 -2.449982e-001 1.667558e+000 -1.786877e+000 -3.103441e+000 4.880617e-001 7.049573e-002 -8.999066e-001 1.705192e+000
16080000000 -1.661304e-001 1.631628e+000 -1.832909e+000 -2.836574e+000 4.673385e-001 5.108542e-002 -7.838363e-001 1.696343e+000
16160000000 -1.144479e-001 1.601963e+000 -1.854417e+000 -2.577811e+000 4.424790e-001 2.542065e-002 -6.713289e-001 1.683557e+000
16240000000 -6.407023e-002 1.565011e+000 -1.868485e+000 -2.366334e+000 4.283491e-001 8.247076e-003 -5.836760e-001 1.672933e+000
