!Agilent Technologies,E8364A,US41440284,A.06.04.32
!Agilent E8364A: A.06.04.32
!Date: Wednesday, May 24, 2023 11:13:24
!Correction: S11(Full 2 Port(1,2)) S21(Full 2 Port(1,2)) S12(Full 2 Port(1,2)) S22(Full 2 Port(1,2)) 
!S2P File: Measurements: S11, S21, S12, S22:
# Hz S  RI   R 50
4000000000 3.722207e-001 -7.294068e-001 -1.828517e+000 3.781929e+000 3.715674e-002 5.410350e-002 4.281433e-001 -2.809730e-001
4080000000 3.516357e-001 -7.279274e-001 -1.752387e+000 3.801732e+000 3.811279e-002 5.560577e-002 4.221014e-001 -2.865607e-001
4160000000 3.291798e-001 -7.167567e-001 -1.639564e+000 3.827887e+000 3.851889e-002 5.567152e-002 4.156443e-001 -2.830057e-001
4240000000 3.077203e-001 -7.162299e-001 -1.553001e+000 3.845118e+000 3.944298e-002 5.662932e-002 4.057812e-001 -2.864539e-001
4320000000 2.843497e-001 -7.145581e-001 -1.454934e+000 3.864482e+000 4.084841e-002 5.753467e-002 3.965487e-001 -2.911882e-001
4400000000 2.601661e-001 -7.077999e-001 -1.354424e+000 3.893111e+000 4.157273e-002 5.768099e-002 3.897451e-001 -2.898894e-001
4480000000 2.397735e-001 -7.127473e-001 -1.285693e+000 3.895095e+000 4.340623e-002 5.838218e-002 3.764510e-001 -3.008930e-001
4560000000 2.095534e-001 -7.089432e-001 -1.166868e+000 3.910235e+000 4.384705e-002 5.932686e-002 3.692524e-001 -3.030404e-001
4640000000 1.873778e-001 -7.019532e-001 -1.062233e+000 3.891731e+000 4.446148e-002 5.870784e-002 3.576273e-001 -3.030334e-001
4720000000 1.611230e-001 -7.066846e-001 -9.792303e-001 3.921396e+000 4.629522e-002 5.964549e-002 3.470842e-001 -3.144944e-001
4800000000 1.382312e-001 -7.008532e-001 -8.826147e-001 3.893622e+000 4.724522e-002 5.900433e-002 3.345435e-001 -3.166565e-001
4880000000 1.120563e-001 -7.058519e-001 -8.096490e-001 3.914198e+000 4.916786e-002 5.977152e-002 3.222872e-001 -3.270860e-001
4960000000 8.449411e-002 -7.018490e-001 -7.226326e-001 3.901405e+000 4.973232e-002 6.031990e-002 3.092491e-001 -3.323026e-001
5040000000 5.912175e-002 -6.909617e-001 -6.130380e-001 3.860878e+000 4.981202e-002 5.965877e-002 2.968695e-001 -3.330387e-001
5120000000 3.776248e-002 -6.942219e-001 -5.225266e-001 3.884711e+000 5.234561e-002 5.831482e-002 2.836542e-001 -3.407584e-001
5200000000 6.492087e-003 -6.946524e-001 -4.635658e-001 3.879827e+000 5.402365e-002 5.990032e-002 2.659195e-001 -3.510452e-001
5280000000 -1.955574e-002 -6.848081e-001 -3.442332e-001 3.851296e+000 5.438468e-002 5.958043e-002 2.543558e-001 -3.536844e-001
5360000000 -4.625846e-002 -6.813830e-001 -2.600338e-001 3.836122e+000 5.570120e-002 5.967689e-002 2.395032e-001 -3.597932e-001
5440000000 -6.988319e-002 -6.735703e-001 -1.645267e-001 3.814635e+000 5.695897e-002 5.808406e-002 2.230325e-001 -3.643343e-001
5520000000 -9.394823e-002 -6.687645e-001 -5.684510e-002 3.792869e+000 5.909615e-002 5.752816e-002 2.082308e-001 -3.682002e-001
5600000000 -1.221270e-001 -6.684570e-001 1.000614e-002 3.833870e+000 6.162868e-002 5.861313e-002 1.901823e-001 -3.775981e-001
5680000000 -1.408317e-001 -6.533403e-001 8.900755e-002 3.736194e+000 6.001516e-002 5.787965e-002 1.787083e-001 -3.748580e-001
5760000000 -1.599046e-001 -6.483983e-001 1.709662e-001 3.720107e+000 6.209384e-002 5.609655e-002 1.626016e-001 -3.775321e-001
5840000000 -1.788046e-001 -6.445826e-001 2.434064e-001 3.703034e+000 6.381104e-002 5.605160e-002 1.474657e-001 -3.821731e-001
5920000000 -1.946837e-001 -6.371391e-001 2.912769e-001 3.638840e+000 6.376630e-002 5.553401e-002 1.333446e-001 -3.821843e-001
6000000000 -2.097107e-001 -6.328982e-001 3.779540e-001 3.633329e+000 6.597128e-002 5.456679e-002 1.214635e-001 -3.841738e-001
6080000000 -2.247691e-001 -6.255202e-001 4.284071e-001 3.563596e+000 6.577004e-002 5.438428e-002 1.105451e-001 -3.832975e-001
6160000000 -2.318474e-001 -6.224594e-001 4.928223e-001 3.531524e+000 6.642096e-002 5.157564e-002 1.000042e-001 -3.812901e-001
6240000000 -2.422494e-001 -6.181850e-001 5.711862e-001 3.498673e+000 6.725748e-002 5.099712e-002 9.271377e-002 -3.825741e-001
6320000000 -2.489991e-001 -6.153012e-001 6.227130e-001 3.480910e+000 6.788277e-002 4.962813e-002 8.255660e-002 -3.825341e-001
6400000000 -2.546628e-001 -6.125948e-001 6.871629e-001 3.467049e+000 6.889619e-002 4.916586e-002 7.540006e-002 -3.846032e-001
6480000000 -2.615530e-001 -6.109577e-001 7.333883e-001 3.425379e+000 6.954481e-002 4.878240e-002 6.880175e-002 -3.841973e-001
6560000000 -2.655742e-001 -6.077887e-001 8.033439e-001 3.418889e+000 6.938756e-002 4.731596e-002 6.248659e-002 -3.828098e-001
6640000000 -2.648476e-001 -6.059346e-001 8.503443e-001 3.382062e+000 7.061405e-002 4.624182e-002 5.908414e-002 -3.804265e-001
6720000000 -2.700882e-001 -6.031055e-001 8.899071e-001 3.388323e+000 7.149623e-002 4.651004e-002 5.287313e-002 -3.817654e-001
6800000000 -2.684899e-001 -5.981536e-001 9.210790e-001 3.330671e+000 7.059306e-002 4.666138e-002 5.239566e-002 -3.785476e-001
6880000000 -2.668545e-001 -5.946827e-001 9.522854e-001 3.316357e+000 7.065458e-002 4.635404e-002 4.950054e-002 -3.758529e-001
6960000000 -2.593823e-001 -5.925581e-001 9.925432e-001 3.280478e+000 7.016022e-002 4.458237e-002 5.113385e-002 -3.686551e-001
7040000000 -2.569826e-001 -5.894431e-001 1.020221e+000 3.272772e+000 7.159771e-002 4.414305e-002 4.933493e-002 -3.661814e-001
7120000000 -2.534229e-001 -5.863710e-001 1.054781e+000 3.247569e+000 7.113107e-002 4.367561e-002 5.157065e-002 -3.605861e-001
7200000000 -2.462165e-001 -5.808223e-001 1.066188e+000 3.215168e+000 7.004947e-002 4.280106e-002 5.567474e-002 -3.543710e-001
7280000000 -2.376832e-001 -5.785213e-001 1.086894e+000 3.209822e+000 6.961197e-002 4.216999e-002 6.098284e-002 -3.498297e-001
7360000000 -2.300251e-001 -5.764143e-001 1.105706e+000 3.192526e+000 6.958096e-002 4.198388e-002 6.527979e-002 -3.470551e-001
7440000000 -2.276558e-001 -5.750777e-001 1.132934e+000 3.197799e+000 6.949753e-002 4.308902e-002 6.775130e-002 -3.470693e-001
7520000000 -2.243536e-001 -5.695020e-001 1.158490e+000 3.187240e+000 6.841054e-002 4.360376e-002 7.267154e-002 -3.447210e-001
7600000000 -2.237640e-001 -5.651065e-001 1.187818e+000 3.178704e+000 6.844936e-002 4.418516e-002 7.341988e-002 -3.428062e-001
7680000000 -2.227412e-001 -5.577466e-001 1.211991e+000 3.158880e+000 6.915800e-002 4.429274e-002 7.434669e-002 -3.411506e-001
7760000000 -2.248994e-001 -5.462639e-001 1.237983e+000 3.149898e+000 6.950573e-002 4.465137e-002 7.565449e-002 -3.366693e-001
7840000000 -2.242806e-001 -5.350412e-001 1.257265e+000 3.128539e+000 7.013788e-002 4.397912e-002 7.898340e-002 -3.323814e-001
7920000000 -2.248209e-001 -5.204068e-001 1.279423e+000 3.127272e+000 7.020196e-002 4.353834e-002 8.313147e-002 -3.286866e-001
8000000000 -2.188230e-001 -5.083306e-001 1.281153e+000 3.125156e+000 6.995566e-002 4.192020e-002 8.811692e-002 -3.246604e-001
8080000000 -2.179920e-001 -4.989290e-001 1.312401e+000 3.131023e+000 6.889536e-002 4.198906e-002 9.541285e-002 -3.277818e-001
8160000000 -2.195370e-001 -4.906358e-001 1.357653e+000 3.147324e+000 6.776235e-002 4.202706e-002 9.845437e-002 -3.327433e-001
8240000000 -2.213302e-001 -4.833142e-001 1.408514e+000 3.154656e+000 6.673366e-002 4.204562e-002 1.006800e-001 -3.386556e-001
8320000000 -2.308331e-001 -4.767503e-001 1.488824e+000 3.150591e+000 6.612944e-002 4.254521e-002 9.849966e-002 -3.478943e-001
8400000000 -2.391806e-001 -4.695529e-001 1.568438e+000 3.155307e+000 6.571744e-002 4.350211e-002 9.346865e-002 -3.582446e-001
8480000000 -2.523886e-001 -4.589266e-001 1.649855e+000 3.107256e+000 6.587332e-002 4.449231e-002 8.689978e-002 -3.676559e-001
8560000000 -2.655950e-001 -4.478521e-001 1.745282e+000 3.056323e+000 6.642150e-002 4.519273e-002 7.281071e-002 -3.776538e-001
8640000000 -2.797117e-001 -4.336340e-001 1.812170e+000 2.997522e+000 6.731605e-002 4.601052e-002 5.727414e-002 -3.852879e-001
8720000000 -2.928182e-001 -4.214574e-001 1.856004e+000 2.922831e+000 6.807919e-002 4.573465e-002 3.761110e-002 -3.891496e-001
8800000000 -3.071234e-001 -4.072399e-001 1.918804e+000 2.858682e+000 6.957856e-002 4.599182e-002 1.709048e-002 -3.934818e-001
8880000000 -3.205660e-001 -3.941865e-001 1.946485e+000 2.791590e+000 7.057859e-002 4.506141e-002 -2.973277e-003 -3.901343e-001
8960000000 -3.354678e-001 -3.841877e-001 1.982197e+000 2.731904e+000 7.174507e-002 4.417377e-002 -2.440575e-002 -3.899003e-001
9040000000 -3.537115e-001 -3.744608e-001 2.017179e+000 2.694117e+000 7.343215e-002 4.274883e-002 -4.433822e-002 -3.855595e-001
9120000000 -3.761414e-001 -3.621962e-001 2.036436e+000 2.672594e+000 7.429548e-002 4.162968e-002 -6.483503e-002 -3.798898e-001
9200000000 -4.000887e-001 -3.483970e-001 2.074107e+000 2.631634e+000 7.439648e-002 3.938285e-002 -8.347852e-002 -3.708979e-001
9280000000 -4.245011e-001 -3.279141e-001 2.137667e+000 2.607292e+000 7.468697e-002 3.745108e-002 -1.007339e-001 -3.591408e-001
9360000000 -4.449866e-001 -3.057687e-001 2.186259e+000 2.553879e+000 7.447729e-002 3.575338e-002 -1.154757e-001 -3.482371e-001
9440000000 -4.621089e-001 -2.791742e-001 2.266071e+000 2.491746e+000 7.411639e-002 3.329865e-002 -1.279692e-001 -3.343734e-001
9520000000 -4.726245e-001 -2.521895e-001 2.310795e+000 2.412980e+000 7.318786e-002 3.163475e-002 -1.363147e-001 -3.221640e-001
9600000000 -4.771285e-001 -2.289323e-001 2.334670e+000 2.324803e+000 7.208648e-002 2.949888e-002 -1.408790e-001 -3.108778e-001
9680000000 -4.798641e-001 -2.077514e-001 2.372232e+000 2.239883e+000 7.087462e-002 2.751262e-002 -1.448833e-001 -3.010330e-001
9760000000 -4.768865e-001 -1.903442e-001 2.366033e+000 2.160770e+000 6.872610e-002 2.596373e-002 -1.429496e-001 -2.945577e-001
9840000000 -4.733046e-001 -1.772300e-001 2.360569e+000 2.107457e+000 6.643492e-002 2.440877e-002 -1.402766e-001 -2.890438e-001
9920000000 -4.663979e-001 -1.690146e-001 2.353886e+000 2.053870e+000 6.465080e-002 2.391265e-002 -1.364371e-001 -2.917359e-001
10000000000 -4.624755e-001 -1.639714e-001 2.344285e+000 2.014788e+000 6.249344e-002 2.360940e-002 -1.325658e-001 -2.936310e-001
10080000000 -4.571768e-001 -1.630212e-001 2.349844e+000 1.992806e+000 6.051187e-002 2.359921e-002 -1.307480e-001 -2.995065e-001
10160000000 -4.535888e-001 -1.648784e-001 2.349818e+000 1.970501e+000 5.803563e-002 2.393025e-002 -1.266504e-001 -3.077876e-001
10240000000 -4.517454e-001 -1.683757e-001 2.367198e+000 1.967628e+000 5.615558e-002 2.370967e-002 -1.248217e-001 -3.168197e-001
10320000000 -4.512220e-001 -1.737595e-001 2.397291e+000 1.956289e+000 5.441025e-002 2.496429e-002 -1.249995e-001 -3.296851e-001
10400000000 -4.532662e-001 -1.788861e-001 2.424009e+000 1.952390e+000 5.313056e-002 2.562812e-002 -1.242763e-001 -3.401555e-001
10480000000 -4.559012e-001 -1.859526e-001 2.480267e+000 1.942381e+000 5.099847e-002 2.652556e-002 -1.250878e-001 -3.545539e-001
10560000000 -4.607433e-001 -1.919143e-001 2.517845e+000 1.922264e+000 4.988624e-002 2.811340e-002 -1.290826e-001 -3.670804e-001
10640000000 -4.670822e-001 -1.978688e-001 2.591193e+000 1.902758e+000 4.918040e-002 2.960560e-002 -1.336102e-001 -3.811292e-001
10720000000 -4.722017e-001 -2.012802e-001 2.633036e+000 1.856823e+000 4.814775e-002 3.143085e-002 -1.383741e-001 -3.934064e-001
10800000000 -4.790828e-001 -2.027485e-001 2.711022e+000 1.836293e+000 4.801034e-002 3.297566e-002 -1.473227e-001 -4.048664e-001
10880000000 -4.849302e-001 -2.057932e-001 2.773405e+000 1.769429e+000 4.774726e-002 3.500696e-002 -1.533403e-001 -4.150532e-001
10960000000 -4.917655e-001 -2.051293e-001 2.832248e+000 1.749411e+000 4.797031e-002 3.625565e-002 -1.617709e-001 -4.210814e-001
11040000000 -4.971139e-001 -2.034554e-001 2.896864e+000 1.678310e+000 4.854030e-002 3.778700e-002 -1.679773e-001 -4.277838e-001
11120000000 -5.007889e-001 -2.009569e-001 2.935325e+000 1.637668e+000 4.842388e-002 3.895997e-002 -1.751068e-001 -4.313237e-001
11200000000 -5.048106e-001 -1.965925e-001 3.010017e+000 1.565521e+000 4.898662e-002 4.022199e-002 -1.819098e-001 -4.362909e-001
11280000000 -5.094942e-001 -1.913967e-001 3.066404e+000 1.518668e+000 4.892334e-002 4.146297e-002 -1.874160e-001 -4.372742e-001
11360000000 -5.116642e-001 -1.840715e-001 3.123786e+000 1.458281e+000 4.954277e-002 4.203767e-002 -1.937877e-001 -4.376638e-001
11440000000 -5.141473e-001 -1.770270e-001 3.153972e+000 1.407715e+000 4.995899e-002 4.341244e-002 -1.975434e-001 -4.365683e-001
11520000000 -5.162691e-001 -1.665140e-001 3.204531e+000 1.339492e+000 5.060916e-002 4.410589e-002 -2.030827e-001 -4.350598e-001
11600000000 -5.186621e-001 -1.565402e-001 3.247070e+000 1.253201e+000 5.085156e-002 4.510105e-002 -2.087225e-001 -4.353782e-001
11680000000 -5.200034e-001 -1.445076e-001 3.284203e+000 1.202399e+000 5.140023e-002 4.564105e-002 -2.140861e-001 -4.307015e-001
11760000000 -5.206794e-001 -1.322673e-001 3.310247e+000 1.131051e+000 5.191588e-002 4.658629e-002 -2.192358e-001 -4.281082e-001
11840000000 -5.219163e-001 -1.193479e-001 3.341111e+000 1.077703e+000 5.235153e-002 4.682377e-002 -2.246156e-001 -4.224073e-001
11920000000 -5.233113e-001 -1.054304e-001 3.365782e+000 9.943084e-001 5.298134e-002 4.754087e-002 -2.307277e-001 -4.181086e-001
12000000000 -5.251023e-001 -8.991451e-002 3.387284e+000 9.312905e-001 5.356490e-002 4.774159e-002 -2.371873e-001 -4.117261e-001
12080000000 -5.289557e-001 -7.412742e-002 3.426251e+000 8.600271e-001 5.385420e-002 4.804739e-002 -2.444075e-001 -4.062675e-001
12160000000 -5.311818e-001 -5.673413e-002 3.438070e+000 7.978966e-001 5.426440e-002 4.811296e-002 -2.526506e-001 -3.981218e-001
12240000000 -5.334874e-001 -3.853144e-002 3.469532e+000 7.161567e-001 5.457711e-002 4.752217e-002 -2.610230e-001 -3.927071e-001
12320000000 -5.368919e-001 -2.017629e-002 3.492114e+000 6.389648e-001 5.523840e-002 4.756887e-002 -2.714222e-001 -3.845217e-001
12400000000 -5.396674e-001 5.005446e-004 3.512614e+000 5.883906e-001 5.537349e-002 4.737919e-002 -2.822362e-001 -3.753090e-001
12480000000 -5.434879e-001 1.959222e-002 3.536446e+000 4.958011e-001 5.519665e-002 4.666269e-002 -2.950812e-001 -3.678853e-001
12560000000 -5.491373e-001 4.078002e-002 3.556582e+000 4.157904e-001 5.580312e-002 4.632717e-002 -3.084417e-001 -3.581721e-001
12640000000 -5.521418e-001 6.213750e-002 3.575591e+000 3.362730e-001 5.535372e-002 4.577016e-002 -3.232822e-001 -3.487099e-001
12720000000 -5.562901e-001 8.412841e-002 3.584436e+000 2.465173e-001 5.535363e-002 4.575709e-002 -3.373407e-001 -3.377678e-001
12800000000 -5.599076e-001 1.065109e-001 3.614069e+000 1.598164e-001 5.551609e-002 4.491988e-002 -3.541364e-001 -3.242703e-001
12880000000 -5.606960e-001 1.268900e-001 3.600826e+000 6.925919e-002 5.541524e-002 4.460384e-002 -3.680981e-001 -3.120925e-001
12960000000 -5.651721e-001 1.483132e-001 3.608366e+000 -3.646549e-002 5.528386e-002 4.339153e-002 -3.828301e-001 -3.004621e-001
13040000000 -5.680355e-001 1.710064e-001 3.618278e+000 -1.154459e-001 5.481788e-002 4.368583e-002 -3.987932e-001 -2.873515e-001
13120000000 -5.693949e-001 1.931313e-001 3.609803e+000 -2.246047e-001 5.442081e-002 4.248888e-002 -4.134674e-001 -2.737369e-001
13200000000 -5.711081e-001 2.133860e-001 3.603062e+000 -3.177851e-001 5.416714e-002 4.141058e-002 -4.297576e-001 -2.600642e-001
13280000000 -5.714238e-001 2.336538e-001 3.565548e+000 -4.093497e-001 5.339545e-002 4.123696e-002 -4.438248e-001 -2.457136e-001
13360000000 -5.692629e-001 2.526850e-001 3.558113e+000 -5.045453e-001 5.261303e-002 4.062020e-002 -4.589025e-001 -2.319775e-001
13440000000 -5.690854e-001 2.693852e-001 3.524653e+000 -5.914385e-001 5.199172e-002 4.031958e-002 -4.712714e-001 -2.208875e-001
13520000000 -5.665014e-001 2.857177e-001 3.493123e+000 -6.708537e-001 5.121145e-002 3.937655e-002 -4.858460e-001 -2.075074e-001
13600000000 -5.641385e-001 2.993256e-001 3.463115e+000 -7.647983e-001 5.009945e-002 3.872841e-002 -4.982860e-001 -1.963868e-001
13680000000 -5.620835e-001 3.132035e-001 3.432347e+000 -8.472741e-001 4.938126e-002 3.818682e-002 -5.113865e-001 -1.855908e-001
13760000000 -5.607890e-001 3.247613e-001 3.397474e+000 -9.230783e-001 4.826662e-002 3.796988e-002 -5.252520e-001 -1.763443e-001
13840000000 -5.601238e-001 3.350494e-001 3.364197e+000 -1.018192e+000 4.794396e-002 3.784133e-002 -5.396364e-001 -1.650845e-001
13920000000 -5.582442e-001 3.475307e-001 3.342250e+000 -1.088050e+000 4.706684e-002 3.792020e-002 -5.529146e-001 -1.555663e-001
14000000000 -5.537237e-001 3.578293e-001 3.294832e+000 -1.176671e+000 4.627023e-002 3.726795e-002 -5.681064e-001 -1.459638e-001
14080000000 -5.504969e-001 3.677185e-001 3.260262e+000 -1.264368e+000 4.604130e-002 3.675786e-002 -5.811553e-001 -1.363157e-001
14160000000 -5.468451e-001 3.794551e-001 3.240315e+000 -1.339883e+000 4.559340e-002 3.695562e-002 -5.953359e-001 -1.260236e-001
14240000000 -5.416878e-001 3.872120e-001 3.191280e+000 -1.422316e+000 4.478415e-002 3.640965e-002 -6.089456e-001 -1.150214e-001
14320000000 -5.366142e-001 3.947807e-001 3.148366e+000 -1.512411e+000 4.481254e-002 3.586503e-002 -6.230803e-001 -1.048552e-001
14400000000 -5.307927e-001 4.060311e-001 3.120438e+000 -1.599112e+000 4.482708e-002 3.532515e-002 -6.354387e-001 -9.197835e-002
14480000000 -5.251282e-001 4.149522e-001 3.082791e+000 -1.681939e+000 4.452773e-002 3.464786e-002 -6.476403e-001 -8.122195e-002
14560000000 -5.170097e-001 4.243859e-001 3.025150e+000 -1.773135e+000 4.476727e-002 3.316066e-002 -6.572608e-001 -6.827328e-002
14640000000 -5.066742e-001 4.349054e-001 2.998484e+000 -1.850504e+000 4.462497e-002 3.227683e-002 -6.659598e-001 -5.761977e-002
14720000000 -4.971522e-001 4.446587e-001 2.932702e+000 -1.964710e+000 4.365777e-002 3.006924e-002 -6.734186e-001 -4.683911e-002
14800000000 -4.865239e-001 4.551442e-001 2.908355e+000 -2.032514e+000 4.350161e-002 2.849860e-002 -6.804607e-001 -3.630064e-002
14880000000 -4.718346e-001 4.662122e-001 2.880782e+000 -2.148808e+000 4.257396e-002 2.736706e-002 -6.874756e-001 -2.576198e-002
14960000000 -4.580477e-001 4.759408e-001 2.810336e+000 -2.240805e+000 4.130138e-002 2.611788e-002 -6.956066e-001 -1.759628e-002
15040000000 -4.437326e-001 4.878271e-001 2.790897e+000 -2.353893e+000 4.063018e-002 2.436706e-002 -7.034019e-001 -6.414645e-003
15120000000 -4.250636e-001 5.004426e-001 2.718805e+000 -2.471021e+000 3.994060e-002 2.351746e-002 -7.109054e-001 3.053037e-003
15200000000 -4.041567e-001 5.122687e-001 2.687765e+000 -2.608772e+000 3.928378e-002 2.142924e-002 -7.199747e-001 1.598900e-002
15280000000 -3.832528e-001 5.215895e-001 2.587551e+000 -2.737421e+000 3.797860e-002 1.968764e-002 -7.285009e-001 2.878023e-002
15360000000 -3.607548e-001 5.332106e-001 2.518607e+000 -2.851276e+000 3.726714e-002 1.822473e-002 -7.368650e-001 4.703489e-002
15440000000 -3.373701e-001 5.401866e-001 2.369632e+000 -2.985613e+000 3.513120e-002 1.626670e-002 -7.411970e-001 6.725531e-002
15520000000 -3.142791e-001 5.487624e-001 2.269384e+000 -3.069450e+000 3.359487e-002 1.483868e-002 -7.458605e-001 8.685178e-002
15600000000 -2.893649e-001 5.534365e-001 2.129225e+000 -3.196153e+000 3.168904e-002 1.314432e-002 -7.483756e-001 1.074950e-001
15680000000 -2.679717e-001 5.564709e-001 1.977075e+000 -3.239587e+000 2.983978e-002 1.173512e-002 -7.494116e-001 1.289373e-001
15760000000 -2.460809e-001 5.577584e-001 1.814964e+000 -3.323080e+000 2.745512e-002 9.863129e-003 -7.497624e-001 1.520141e-001
15840000000 -2.301128e-001 5.591165e-001 1.651339e+000 -3.321408e+000 2.549527e-002 8.585376e-003 -7.477540e-001 1.756512e-001
15920000000 -2.165843e-001 5.636106e-001 1.531528e+000 -3.368752e+000 2.308006e-002 7.465789e-003 -7.446733e-001 1.993760e-001
16000000000 -2.020623e-001 5.705686e-001 1.397842e+000 -3.404621e+000 2.068598e-002 6.081196e-003 -7.386123e-001 2.224566e-001
16080000000 -1.866685e-001 5.768089e-001 1.303598e+000 -3.399380e+000 1.807721e-002 4.752323e-003 -7.339538e-001 2.452340e-001
16160000000 -1.708890e-001 5.822459e-001 1.140014e+000 -3.404872e+000 1.562520e-002 3.339431e-003 -7.305982e-001 2.683947e-001
