!Agilent Technologies,E5071C,MY46105125,A.08.12
!Date: Tue Sep 16 09:38:06 2014
!Data & Calibration Information:
!Freq	S11:SOLT1(ON)
# Hz S RI R 50
2000000000	3.350090e-001	6.664325e-001
2001250000	3.374958e-001	6.638152e-001
2002500000	3.401187e-001	6.605907e-001
2003750000	3.426258e-001	6.571425e-001
2005000000	3.450700e-001	6.535965e-001
2006250000	3.475904e-001	6.497385e-001
2007500000	3.498781e-001	6.463635e-001
2008750000	3.521350e-001	6.426828e-001
2010000000	3.542688e-001	6.392324e-001
2011250000	3.556186e-001	6.354834e-001
2012500000	3.584021e-001	6.324006e-001
2013750000	3.607628e-001	6.287729e-001
2015000000	3.629192e-001	6.248229e-001
2016250000	3.646174e-001	6.209200e-001
2017500000	3.669042e-001	6.171826e-001
2018750000	3.687042e-001	6.137122e-001
2020000000	3.700593e-001	6.101493e-001
2021250000	3.724670e-001	6.061785e-001
2022500000	3.745362e-001	6.025156e-001
2023750000	3.766418e-001	5.986193e-001
2025000000	3.788234e-001	5.943473e-001
2026250000	3.805229e-001	5.908413e-001
2027500000	3.828487e-001	5.871532e-001
2028750000	3.848288e-001	5.829817e-001
2030000000	3.863645e-001	5.791597e-001
2031250000	3.875275e-001	5.746637e-001
2032500000	3.887668e-001	5.715204e-001
2033750000	3.906611e-001	5.678371e-001
2035000000	3.925941e-001	5.644956e-001
2036250000	3.948822e-001	5.606063e-001
2037500000	3.973217e-001	5.570452e-001
2038750000	3.997972e-001	5.531031e-001
2040000000	4.018932e-001	5.488485e-001
2041250000	4.041661e-001	5.448046e-001
2042500000	4.059174e-001	5.397266e-001
2043750000	4.077059e-001	5.343503e-001
2045000000	4.088518e-001	5.308984e-001
2046250000	4.107934e-001	5.262082e-001
2047500000	4.119323e-001	5.227207e-001
2048750000	4.137808e-001	5.188229e-001
2050000000	4.156376e-001	5.146030e-001
2051250000	4.172574e-001	5.107809e-001
2052500000	4.197038e-001	5.060183e-001
2053750000	4.215662e-001	5.014258e-001
2055000000	4.226266e-001	4.965653e-001
2056250000	4.238327e-001	4.917634e-001
2057500000	4.251862e-001	4.876313e-001
2058750000	4.259089e-001	4.831588e-001
2060000000	4.268918e-001	4.798102e-001
2061250000	4.285937e-001	4.760192e-001
2062500000	4.305735e-001	4.722699e-001
2063750000	4.331605e-001	4.685029e-001
2065000000	4.353026e-001	4.636973e-001
2066250000	4.368250e-001	4.584613e-001
2067500000	4.379477e-001	4.533173e-001
2068750000	4.388440e-001	4.486227e-001
2070000000	4.400078e-001	4.438809e-001
2071250000	4.413321e-001	4.399650e-001
2072500000	4.423859e-001	4.357613e-001
2073750000	4.438185e-001	4.313938e-001
2075000000	4.452339e-001	4.268819e-001
2076250000	4.471035e-001	4.223150e-001
2077500000	4.484928e-001	4.171322e-001
2078750000	4.496600e-001	4.126288e-001
2080000000	4.506883e-001	4.075124e-001
2081250000	4.522657e-001	4.030970e-001
2082500000	4.529501e-001	3.990123e-001
2083750000	4.549553e-001	3.940851e-001
2085000000	4.562272e-001	3.887522e-001
2086250000	4.577017e-001	3.837134e-001
2087500000	4.590116e-001	3.776258e-001
2088750000	4.601069e-001	3.720250e-001
2090000000	4.602449e-001	3.656684e-001
2091250000	4.601302e-001	3.598873e-001
2092500000	4.596481e-001	3.547172e-001
2093750000	4.590451e-001	3.495111e-001
2095000000	4.585126e-001	3.453226e-001
2096250000	4.579313e-001	3.404842e-001
2097500000	4.578685e-001	3.362270e-001
2098750000	4.582495e-001	3.320693e-001
2100000000	4.585486e-001	3.275297e-001
2101250000	4.587564e-001	3.232736e-001
2102500000	4.591602e-001	3.186411e-001
2103750000	4.597217e-001	3.142254e-001
2105000000	4.602724e-001	3.094893e-001
2106250000	4.607497e-001	3.043795e-001
2107500000	4.609017e-001	2.990837e-001
2108750000	4.619341e-001	2.945611e-001
2110000000	4.621948e-001	2.892333e-001
2111250000	4.631027e-001	2.838117e-001
2112500000	4.636314e-001	2.784758e-001
2113750000	4.635897e-001	2.726974e-001
2115000000	4.631972e-001	2.663429e-001
2116250000	4.630393e-001	2.606231e-001
2117500000	4.629358e-001	2.548297e-001
2118750000	4.620835e-001	2.489797e-001
2120000000	4.609685e-001	2.435897e-001
2121250000	4.598774e-001	2.379984e-001
2122500000	4.591981e-001	2.327991e-001
2123750000	4.584245e-001	2.270394e-001
2125000000	4.578461e-001	2.216615e-001
2126250000	4.570631e-001	2.164316e-001
2127500000	4.557055e-001	2.108400e-001
2128750000	4.540225e-001	2.053477e-001
2130000000	4.524136e-001	2.006048e-001
2131250000	4.509935e-001	1.962449e-001
2132500000	4.497634e-001	1.924041e-001
2133750000	4.497432e-001	1.882750e-001
2135000000	4.497855e-001	1.838539e-001
2136250000	4.505436e-001	1.786255e-001
2137500000	4.505082e-001	1.725824e-001
2138750000	4.503252e-001	1.662368e-001
2140000000	4.503503e-001	1.600820e-001
2141250000	4.492639e-001	1.536046e-001
2142500000	4.476772e-001	1.477470e-001
2143750000	4.463365e-001	1.420278e-001
2145000000	4.455352e-001	1.363953e-001
2146250000	4.443179e-001	1.304678e-001
2147500000	4.439172e-001	1.240378e-001
2148750000	4.430179e-001	1.178792e-001
2150000000	4.413973e-001	1.110212e-001
2151250000	4.399370e-001	1.046882e-001
2152500000	4.379905e-001	9.747521e-002
2153750000	4.350760e-001	9.096644e-002
2155000000	4.330703e-001	8.507811e-002
2156250000	4.298305e-001	7.873803e-002
2157500000	4.273034e-001	7.317846e-002
2158750000	4.247168e-001	6.727196e-002
2160000000	4.220677e-001	6.120854e-002
2161250000	4.191452e-001	5.547590e-002
2162500000	4.158147e-001	4.987372e-002
2163750000	4.126623e-001	4.398753e-002
2165000000	4.088988e-001	3.913757e-002
2166250000	4.057154e-001	3.503874e-002
2167500000	4.022772e-001	3.113537e-002
2168750000	4.001952e-001	2.660610e-002
2170000000	3.986796e-001	2.276113e-002
2171250000	3.967073e-001	1.810161e-002
2172500000	3.953212e-001	1.272686e-002
2173750000	3.926338e-001	7.317747e-003
2175000000	3.902844e-001	1.788403e-003
2176250000	3.873334e-001	-2.976009e-003
2177500000	3.845890e-001	-8.148399e-003
2178750000	3.818665e-001	-1.281727e-002
2180000000	3.798043e-001	-1.754629e-002
2181250000	3.772566e-001	-2.192285e-002
2182500000	3.754189e-001	-2.681995e-002
2183750000	3.734077e-001	-3.276716e-002
2185000000	3.712233e-001	-3.850823e-002
2186250000	3.683991e-001	-4.483101e-002
2187500000	3.654348e-001	-5.083247e-002
2188750000	3.616315e-001	-5.689316e-002
2190000000	3.575721e-001	-6.188690e-002
2191250000	3.538012e-001	-6.726392e-002
2192500000	3.499262e-001	-7.190364e-002
2193750000	3.464895e-001	-7.616128e-002
2195000000	3.436762e-001	-8.173316e-002
2196250000	3.403885e-001	-8.727377e-002
2197500000	3.363554e-001	-9.320284e-002
2198750000	3.318990e-001	-9.896603e-002
2200000000	3.268175e-001	-1.042588e-001
2201250000	3.217518e-001	-1.086460e-001
2202500000	3.165273e-001	-1.127307e-001
2203750000	3.125361e-001	-1.162623e-001
2205000000	3.077786e-001	-1.196993e-001
2206250000	3.042176e-001	-1.227152e-001
2207500000	3.008616e-001	-1.269666e-001
2208750000	2.976129e-001	-1.304911e-001
2210000000	2.948291e-001	-1.354174e-001
2211250000	2.913150e-001	-1.399012e-001
2212500000	2.883457e-001	-1.452560e-001
2213750000	2.844822e-001	-1.510346e-001
2215000000	2.805282e-001	-1.567481e-001
2216250000	2.755309e-001	-1.625900e-001
2217500000	2.706720e-001	-1.682709e-001
2218750000	2.649647e-001	-1.736263e-001
2220000000	2.592460e-001	-1.788310e-001
2221250000	2.534207e-001	-1.834538e-001
2222500000	2.471561e-001	-1.882152e-001
2223750000	2.406148e-001	-1.919838e-001
2225000000	2.339752e-001	-1.960760e-001
2226250000	2.275789e-001	-1.997523e-001
2227500000	2.223325e-001	-2.025485e-001
2228750000	2.161497e-001	-2.055821e-001
2230000000	2.107273e-001	-2.075205e-001
2231250000	2.054954e-001	-2.109570e-001
2232500000	2.002151e-001	-2.141793e-001
2233750000	1.948190e-001	-2.176129e-001
2235000000	1.885453e-001	-2.205644e-001
2236250000	1.828258e-001	-2.232376e-001
2237500000	1.771798e-001	-2.256483e-001
2238750000	1.720884e-001	-2.277146e-001
2240000000	1.670515e-001	-2.297614e-001
2241250000	1.626103e-001	-2.318259e-001
2242500000	1.587504e-001	-2.343033e-001
2243750000	1.543967e-001	-2.373238e-001
2245000000	1.504275e-001	-2.407199e-001
2246250000	1.466305e-001	-2.439795e-001
2247500000	1.420145e-001	-2.482999e-001
2248750000	1.375015e-001	-2.525086e-001
2250000000	1.320164e-001	-2.574880e-001
2251250000	1.260791e-001	-2.615739e-001
2252500000	1.200203e-001	-2.651280e-001
2253750000	1.134974e-001	-2.686126e-001
2255000000	1.074243e-001	-2.711122e-001
2256250000	1.022321e-001	-2.742083e-001
2257500000	9.636767e-002	-2.768769e-001
2258750000	9.110951e-002	-2.804048e-001
2260000000	8.560535e-002	-2.842501e-001
2261250000	7.932192e-002	-2.885648e-001
2262500000	7.255473e-002	-2.918105e-001
2263750000	6.535887e-002	-2.952792e-001
2265000000	5.839675e-002	-2.973362e-001
2266250000	5.099958e-002	-3.000789e-001
2267500000	4.419754e-002	-3.025236e-001
2268750000	3.772709e-002	-3.041896e-001
2270000000	3.170764e-002	-3.061510e-001
2271250000	2.544855e-002	-3.080164e-001
2272500000	1.940973e-002	-3.104200e-001
2273750000	1.301125e-002	-3.133297e-001
2275000000	6.127373e-003	-3.159295e-001
2276250000	-1.518138e-003	-3.180323e-001
2277500000	-8.478327e-003	-3.203298e-001
2278750000	-1.618123e-002	-3.220214e-001
2280000000	-2.420024e-002	-3.232136e-001
2281250000	-3.188731e-002	-3.239320e-001
2282500000	-3.908679e-002	-3.243862e-001
2283750000	-4.601410e-002	-3.245127e-001
2285000000	-5.323793e-002	-3.244796e-001
2286250000	-5.981789e-002	-3.246982e-001
2287500000	-6.617111e-002	-3.248057e-001
2288750000	-7.179811e-002	-3.251256e-001
2290000000	-7.791408e-002	-3.256641e-001
2291250000	-8.410824e-002	-3.258047e-001
2292500000	-9.008598e-002	-3.263612e-001
2293750000	-9.674295e-002	-3.268292e-001
2295000000	-1.033759e-001	-3.269857e-001
2296250000	-1.090779e-001	-3.268763e-001
2297500000	-1.156106e-001	-3.267399e-001
2298750000	-1.216028e-001	-3.269584e-001
2300000000	-1.279836e-001	-3.274869e-001
2301250000	-1.339896e-001	-3.274119e-001
2302500000	-1.399676e-001	-3.271840e-001
2303750000	-1.462164e-001	-3.271800e-001
2305000000	-1.515746e-001	-3.267422e-001
2306250000	-1.572737e-001	-3.276659e-001
2307500000	-1.629799e-001	-3.279158e-001
2308750000	-1.696267e-001	-3.283039e-001
2310000000	-1.762804e-001	-3.281155e-001
2311250000	-1.826811e-001	-3.284933e-001
2312500000	-1.891932e-001	-3.282777e-001
2313750000	-1.957832e-001	-3.288207e-001
2315000000	-2.021921e-001	-3.288070e-001
2316250000	-2.095567e-001	-3.291314e-001
2317500000	-2.165205e-001	-3.290596e-001
2318750000	-2.246083e-001	-3.281537e-001
2320000000	-2.316324e-001	-3.271130e-001
2321250000	-2.389205e-001	-3.261003e-001
2322500000	-2.463605e-001	-3.245000e-001
2323750000	-2.528891e-001	-3.230672e-001
2325000000	-2.603870e-001	-3.211279e-001
2326250000	-2.670553e-001	-3.195447e-001
2327500000	-2.730067e-001	-3.175870e-001
2328750000	-2.796663e-001	-3.161640e-001
2330000000	-2.864958e-001	-3.138455e-001
2331250000	-2.926587e-001	-3.120728e-001
2332500000	-2.990089e-001	-3.099081e-001
2333750000	-3.059060e-001	-3.079740e-001
2335000000	-3.121490e-001	-3.060184e-001
2336250000	-3.185144e-001	-3.033272e-001
2337500000	-3.249391e-001	-3.011802e-001
2338750000	-3.308314e-001	-2.982423e-001
2340000000	-3.369968e-001	-2.960154e-001
2341250000	-3.426072e-001	-2.934273e-001
2342500000	-3.490358e-001	-2.914967e-001
2343750000	-3.548791e-001	-2.887617e-001
2345000000	-3.603678e-001	-2.860566e-001
2346250000	-3.660504e-001	-2.832755e-001
2347500000	-3.713548e-001	-2.805457e-001
2348750000	-3.763758e-001	-2.779711e-001
2350000000	-3.823669e-001	-2.755024e-001
2351250000	-3.879912e-001	-2.725583e-001
2352500000	-3.936037e-001	-2.703520e-001
2353750000	-3.986674e-001	-2.673226e-001
2355000000	-4.039189e-001	-2.645428e-001
2356250000	-4.088818e-001	-2.618595e-001
2357500000	-4.140868e-001	-2.593620e-001
2358750000	-4.197430e-001	-2.569895e-001
2360000000	-4.252363e-001	-2.543704e-001
2361250000	-4.303260e-001	-2.514127e-001
2362500000	-4.358040e-001	-2.482826e-001
2363750000	-4.412726e-001	-2.455009e-001
2365000000	-4.464991e-001	-2.427758e-001
2366250000	-4.513509e-001	-2.402493e-001
2367500000	-4.568788e-001	-2.376273e-001
2368750000	-4.629233e-001	-2.343523e-001
2370000000	-4.690152e-001	-2.308045e-001
2371250000	-4.743952e-001	-2.272643e-001
2372500000	-4.796667e-001	-2.229037e-001
2373750000	-4.847402e-001	-2.188835e-001
2375000000	-4.889880e-001	-2.149010e-001
2376250000	-4.932967e-001	-2.106325e-001
2377500000	-4.974405e-001	-2.057952e-001
2378750000	-5.011037e-001	-2.018639e-001
2380000000	-5.048943e-001	-1.980776e-001
2381250000	-5.083991e-001	-1.950001e-001
2382500000	-5.121674e-001	-1.920344e-001
2383750000	-5.157984e-001	-1.893364e-001
2385000000	-5.198241e-001	-1.856956e-001
2386250000	-5.248435e-001	-1.826411e-001
2387500000	-5.289790e-001	-1.788728e-001
2388750000	-5.337202e-001	-1.753762e-001
2390000000	-5.377654e-001	-1.716570e-001
2391250000	-5.416720e-001	-1.673211e-001
2392500000	-5.462597e-001	-1.640971e-001
2393750000	-5.498151e-001	-1.599603e-001
2395000000	-5.534081e-001	-1.560411e-001
2396250000	-5.579904e-001	-1.522744e-001
2397500000	-5.615987e-001	-1.481774e-001
2398750000	-5.663748e-001	-1.442190e-001
2400000000	-5.706172e-001	-1.404224e-001
2401250000	-5.744465e-001	-1.358155e-001
2402500000	-5.768578e-001	-1.305393e-001
2403750000	-5.802365e-001	-1.266222e-001
2405000000	-5.836136e-001	-1.224966e-001
2406250000	-5.862427e-001	-1.179688e-001
2407500000	-5.905819e-001	-1.147158e-001
2408750000	-5.939767e-001	-1.101615e-001
2410000000	-5.978348e-001	-1.055732e-001
2411250000	-6.010213e-001	-1.012632e-001
2412500000	-6.037267e-001	-9.642445e-002
2413750000	-6.061774e-001	-9.244827e-002
2415000000	-6.097142e-001	-8.813338e-002
2416250000	-6.127797e-001	-8.368109e-002
2417500000	-6.159962e-001	-7.908986e-002
2418750000	-6.183396e-001	-7.418764e-002
2420000000	-6.210305e-001	-6.938033e-002
2421250000	-6.236084e-001	-6.492589e-002
2422500000	-6.263865e-001	-6.005446e-002
2423750000	-6.294000e-001	-5.605762e-002
2425000000	-6.317506e-001	-5.178454e-002
2426250000	-6.341894e-001	-4.677405e-002
2427500000	-6.365280e-001	-4.193350e-002
2428750000	-6.378107e-001	-3.774953e-002
2430000000	-6.402777e-001	-3.312569e-002
2431250000	-6.421699e-001	-2.903769e-002
2432500000	-6.443516e-001	-2.542983e-002
2433750000	-6.470152e-001	-2.030388e-002
2435000000	-6.491325e-001	-1.646057e-002
2436250000	-6.521737e-001	-1.172515e-002
2437500000	-6.536573e-001	-6.734624e-003
2438750000	-6.554833e-001	-2.136739e-003
2440000000	-6.566950e-001	1.817905e-003
2441250000	-6.582435e-001	5.968810e-003
2442500000	-6.606467e-001	9.384107e-003
2443750000	-6.628510e-001	1.319561e-002
2445000000	-6.650371e-001	1.787379e-002
2446250000	-6.669889e-001	2.211951e-002
2447500000	-6.689436e-001	2.617177e-002
2448750000	-6.701610e-001	3.076282e-002
2450000000	-6.726788e-001	3.571960e-002
2451250000	-6.738867e-001	3.946932e-002
2452500000	-6.756477e-001	4.350811e-002
2453750000	-6.774967e-001	4.669308e-002
2455000000	-6.796446e-001	5.101753e-002
2456250000	-6.818411e-001	5.501501e-002
2457500000	-6.845158e-001	5.899445e-002
2458750000	-6.866899e-001	6.322118e-002
2460000000	-6.898099e-001	6.825393e-002
2461250000	-6.913835e-001	7.320104e-002
2462500000	-6.939528e-001	7.819515e-002
2463750000	-6.952524e-001	8.418154e-002
2465000000	-6.966097e-001	8.846292e-002
2466250000	-6.980551e-001	9.331798e-002
2467500000	-6.993620e-001	9.856769e-002
2468750000	-6.993032e-001	1.032743e-001
2470000000	-7.001047e-001	1.089421e-001
2471250000	-7.007205e-001	1.138198e-001
2472500000	-7.008141e-001	1.182985e-001
2473750000	-7.011094e-001	1.225647e-001
2475000000	-7.013344e-001	1.259152e-001
2476250000	-7.020766e-001	1.296653e-001
2477500000	-7.025525e-001	1.341624e-001
2478750000	-7.026905e-001	1.377332e-001
2480000000	-7.032819e-001	1.417498e-001
2481250000	-7.039818e-001	1.457013e-001
2482500000	-7.045012e-001	1.495975e-001
2483750000	-7.051612e-001	1.537079e-001
2485000000	-7.055222e-001	1.562691e-001
2486250000	-7.057714e-001	1.603558e-001
2487500000	-7.074571e-001	1.636965e-001
2488750000	-7.077988e-001	1.673300e-001
2490000000	-7.090902e-001	1.718315e-001
2491250000	-7.103944e-001	1.749811e-001
2492500000	-7.103990e-001	1.798383e-001
2493750000	-7.117551e-001	1.831767e-001
2495000000	-7.121057e-001	1.876631e-001
2496250000	-7.124102e-001	1.917787e-001
2497500000	-7.132347e-001	1.965102e-001
2498750000	-7.133682e-001	2.002139e-001
2500000000	-7.139707e-001	2.040470e-001
2501250000	-7.146828e-001	2.077333e-001
2502500000	-7.154079e-001	2.118293e-001
2503750000	-7.163633e-001	2.167255e-001
2505000000	-7.169717e-001	2.215892e-001
2506250000	-7.170164e-001	2.260464e-001
2507500000	-7.170426e-001	2.302855e-001
2508750000	-7.162281e-001	2.349898e-001
2510000000	-7.159287e-001	2.406223e-001
2511250000	-7.150369e-001	2.434520e-001
2512500000	-7.145209e-001	2.477881e-001
2513750000	-7.139358e-001	2.518927e-001
2515000000	-7.138934e-001	2.549900e-001
2516250000	-7.125878e-001	2.590059e-001
2517500000	-7.138146e-001	2.629043e-001
2518750000	-7.126628e-001	2.670734e-001
2520000000	-7.126266e-001	2.704029e-001
2521250000	-7.110843e-001	2.745153e-001
2522500000	-7.106339e-001	2.771081e-001
2523750000	-7.100679e-001	2.822935e-001
2525000000	-7.101233e-001	2.852979e-001
2526250000	-7.100256e-001	2.885207e-001
2527500000	-7.102841e-001	2.923967e-001
2528750000	-7.090450e-001	2.958104e-001
2530000000	-7.093523e-001	2.997872e-001
2531250000	-7.086094e-001	3.037328e-001
2532500000	-7.077241e-001	3.078204e-001
2533750000	-7.076354e-001	3.118887e-001
2535000000	-7.061497e-001	3.150806e-001
2536250000	-7.055270e-001	3.188477e-001
2537500000	-7.054482e-001	3.217919e-001
2538750000	-7.049006e-001	3.252621e-001
2540000000	-7.052293e-001	3.291584e-001
2541250000	-7.039712e-001	3.335136e-001
2542500000	-7.035133e-001	3.375298e-001
2543750000	-7.028506e-001	3.410908e-001
2545000000	-7.018647e-001	3.451987e-001
2546250000	-7.008802e-001	3.487637e-001
2547500000	-6.995589e-001	3.518669e-001
2548750000	-6.984501e-001	3.551737e-001
2550000000	-6.968254e-001	3.582181e-001
2551250000	-6.960081e-001	3.617427e-001
2552500000	-6.948724e-001	3.647100e-001
2553750000	-6.939129e-001	3.682910e-001
2555000000	-6.924293e-001	3.711690e-001
2556250000	-6.913615e-001	3.738587e-001
2557500000	-6.903139e-001	3.767844e-001
2558750000	-6.897542e-001	3.797795e-001
2560000000	-6.886974e-001	3.824613e-001
2561250000	-6.886116e-001	3.850359e-001
2562500000	-6.874521e-001	3.879335e-001
2563750000	-6.876006e-001	3.905970e-001
2565000000	-6.871737e-001	3.933471e-001
2566250000	-6.871015e-001	3.974119e-001
2567500000	-6.867117e-001	4.006648e-001
2568750000	-6.858540e-001	4.043141e-001
2570000000	-6.847229e-001	4.075491e-001
2571250000	-6.839617e-001	4.106820e-001
2572500000	-6.832826e-001	4.144784e-001
2573750000	-6.822301e-001	4.170367e-001
2575000000	-6.809285e-001	4.203405e-001
2576250000	-6.797355e-001	4.241375e-001
2577500000	-6.790594e-001	4.267058e-001
2578750000	-6.779866e-001	4.299705e-001
2580000000	-6.764889e-001	4.335440e-001
2581250000	-6.748659e-001	4.366231e-001
2582500000	-6.728153e-001	4.390184e-001
2583750000	-6.710339e-001	4.418460e-001
2585000000	-6.697580e-001	4.445446e-001
2586250000	-6.688415e-001	4.470128e-001
2587500000	-6.672970e-001	4.491952e-001
2588750000	-6.658374e-001	4.517737e-001
2590000000	-6.651218e-001	4.541376e-001
2591250000	-6.633756e-001	4.570252e-001
2592500000	-6.621209e-001	4.586205e-001
2593750000	-6.608306e-001	4.617213e-001
2595000000	-6.595544e-001	4.633103e-001
2596250000	-6.592961e-001	4.661022e-001
2597500000	-6.579189e-001	4.679430e-001
2598750000	-6.569012e-001	4.711774e-001
2600000000	-6.565996e-001	4.739262e-001
2601250000	-6.550684e-001	4.766796e-001
2602500000	-6.547397e-001	4.796365e-001
2603750000	-6.528638e-001	4.829520e-001
2605000000	-6.517138e-001	4.853446e-001
2606250000	-6.494078e-001	4.878359e-001
2607500000	-6.479983e-001	4.906386e-001
2608750000	-6.465983e-001	4.930766e-001
2610000000	-6.450194e-001	4.960912e-001
2611250000	-6.433829e-001	4.983422e-001
2612500000	-6.422906e-001	5.007639e-001
2613750000	-6.405002e-001	5.037019e-001
2615000000	-6.390512e-001	5.060797e-001
2616250000	-6.363521e-001	5.086142e-001
2617500000	-6.349892e-001	5.102961e-001
2618750000	-6.331305e-001	5.123505e-001
