!Agilent Technologies,E5071C,MY46105125,A.08.12
!Date: Tue Sep 16 09:39:24 2014
!Data & Calibration Information:
!Freq	S11:SOLT1(ON)
# Hz S RI R 50
2000000000	1.479242e-002	8.616133e-001
2001250000	1.745225e-002	8.602026e-001
2002500000	1.987111e-002	8.579550e-001
2003750000	2.287008e-002	8.564171e-001
2005000000	2.591896e-002	8.545212e-001
2006250000	2.883873e-002	8.533036e-001
2007500000	3.196508e-002	8.516525e-001
2008750000	3.514091e-002	8.496046e-001
2010000000	3.822358e-002	8.480569e-001
2011250000	4.175985e-002	8.460560e-001
2012500000	4.562429e-002	8.446594e-001
2013750000	4.926037e-002	8.424437e-001
2015000000	5.232590e-002	8.403605e-001
2016250000	5.599251e-002	8.374624e-001
2017500000	5.941898e-002	8.352240e-001
2018750000	6.247665e-002	8.329422e-001
2020000000	6.526936e-002	8.299548e-001
2021250000	6.810778e-002	8.272876e-001
2022500000	7.187672e-002	8.252364e-001
2023750000	7.523358e-002	8.223662e-001
2025000000	7.870688e-002	8.201812e-001
2026250000	8.224839e-002	8.171677e-001
2027500000	8.522727e-002	8.144770e-001
2028750000	8.771569e-002	8.119512e-001
2030000000	9.118416e-002	8.092970e-001
2031250000	9.455290e-002	8.067336e-001
2032500000	9.717512e-002	8.046811e-001
2033750000	1.011508e-001	8.018363e-001
2035000000	1.042642e-001	7.985836e-001
2036250000	1.076239e-001	7.959465e-001
2037500000	1.112803e-001	7.927598e-001
2038750000	1.147754e-001	7.892122e-001
2040000000	1.170486e-001	7.865937e-001
2041250000	1.204748e-001	7.838594e-001
2042500000	1.239781e-001	7.808870e-001
2043750000	1.271797e-001	7.769585e-001
2045000000	1.303270e-001	7.746963e-001
2046250000	1.340791e-001	7.711598e-001
2047500000	1.377107e-001	7.682325e-001
2048750000	1.407083e-001	7.652970e-001
2050000000	1.444470e-001	7.616153e-001
2051250000	1.475262e-001	7.579154e-001
2052500000	1.510951e-001	7.545612e-001
2053750000	1.544998e-001	7.510317e-001
2055000000	1.575162e-001	7.467961e-001
2056250000	1.606612e-001	7.435753e-001
2057500000	1.642254e-001	7.398200e-001
2058750000	1.674862e-001	7.357834e-001
2060000000	1.704314e-001	7.319902e-001
2061250000	1.732346e-001	7.274110e-001
2062500000	1.761325e-001	7.237198e-001
2063750000	1.787710e-001	7.200185e-001
2065000000	1.813644e-001	7.162794e-001
2066250000	1.837953e-001	7.122936e-001
2067500000	1.867975e-001	7.086053e-001
2068750000	1.899306e-001	7.050254e-001
2070000000	1.935565e-001	7.014277e-001
2071250000	1.965032e-001	6.969774e-001
2072500000	2.001782e-001	6.926931e-001
2073750000	2.028465e-001	6.882888e-001
2075000000	2.051690e-001	6.837309e-001
2076250000	2.077552e-001	6.795049e-001
2077500000	2.099723e-001	6.748592e-001
2078750000	2.121171e-001	6.711071e-001
2080000000	2.140599e-001	6.667122e-001
2081250000	2.168008e-001	6.628177e-001
2082500000	2.191732e-001	6.588985e-001
2083750000	2.215624e-001	6.548839e-001
2085000000	2.245407e-001	6.506281e-001
2086250000	2.271402e-001	6.469911e-001
2087500000	2.298783e-001	6.425493e-001
2088750000	2.324692e-001	6.386000e-001
2090000000	2.349639e-001	6.340540e-001
2091250000	2.379517e-001	6.294987e-001
2092500000	2.407125e-001	6.249492e-001
2093750000	2.436165e-001	6.202109e-001
2095000000	2.461814e-001	6.148592e-001
2096250000	2.482383e-001	6.098427e-001
2097500000	2.506753e-001	6.044511e-001
2098750000	2.526316e-001	5.992660e-001
2100000000	2.543112e-001	5.938540e-001
2101250000	2.560652e-001	5.891293e-001
2102500000	2.577818e-001	5.838003e-001
2103750000	2.590644e-001	5.791500e-001
2105000000	2.610283e-001	5.742819e-001
2106250000	2.629241e-001	5.693874e-001
2107500000	2.647611e-001	5.639368e-001
2108750000	2.670268e-001	5.585101e-001
2110000000	2.689258e-001	5.533480e-001
2111250000	2.703480e-001	5.475817e-001
2112500000	2.720102e-001	5.423809e-001
2113750000	2.737403e-001	5.371266e-001
2115000000	2.749010e-001	5.312601e-001
2116250000	2.769422e-001	5.255473e-001
2117500000	2.783741e-001	5.200034e-001
2118750000	2.796754e-001	5.141217e-001
2120000000	2.811219e-001	5.083393e-001
2121250000	2.824456e-001	5.020242e-001
2122500000	2.836522e-001	4.960422e-001
2123750000	2.848400e-001	4.896387e-001
2125000000	2.855077e-001	4.832556e-001
2126250000	2.864529e-001	4.770812e-001
2127500000	2.873550e-001	4.708975e-001
2128750000	2.880963e-001	4.645789e-001
2130000000	2.889667e-001	4.587750e-001
2131250000	2.895422e-001	4.522195e-001
2132500000	2.905199e-001	4.455735e-001
2133750000	2.905104e-001	4.386085e-001
2135000000	2.906680e-001	4.319718e-001
2136250000	2.910824e-001	4.246015e-001
2137500000	2.906402e-001	4.179407e-001
2138750000	2.905229e-001	4.108992e-001
2140000000	2.901727e-001	4.042868e-001
2141250000	2.893061e-001	3.977733e-001
2142500000	2.884698e-001	3.912767e-001
2143750000	2.878828e-001	3.843955e-001
2145000000	2.872960e-001	3.778538e-001
2146250000	2.860244e-001	3.712942e-001
2147500000	2.849268e-001	3.650709e-001
2148750000	2.837246e-001	3.589867e-001
2150000000	2.819183e-001	3.531509e-001
2151250000	2.809276e-001	3.478006e-001
2152500000	2.810104e-001	3.417645e-001
2153750000	2.799019e-001	3.356996e-001
2155000000	2.799511e-001	3.295705e-001
2156250000	2.785997e-001	3.232132e-001
2157500000	2.782045e-001	3.170888e-001
2158750000	2.772556e-001	3.102193e-001
2160000000	2.760670e-001	3.035170e-001
2161250000	2.751262e-001	2.972699e-001
2162500000	2.737624e-001	2.909466e-001
2163750000	2.729612e-001	2.845990e-001
2165000000	2.718434e-001	2.777697e-001
2166250000	2.703660e-001	2.713249e-001
2167500000	2.691645e-001	2.649388e-001
2168750000	2.682642e-001	2.578864e-001
2170000000	2.669293e-001	2.513351e-001
2171250000	2.650370e-001	2.441942e-001
2172500000	2.636975e-001	2.375675e-001
2173750000	2.616836e-001	2.306094e-001
2175000000	2.601186e-001	2.239198e-001
2176250000	2.582067e-001	2.171900e-001
2177500000	2.564788e-001	2.099488e-001
2178750000	2.544375e-001	2.023059e-001
2180000000	2.528375e-001	1.944624e-001
2181250000	2.498283e-001	1.874695e-001
2182500000	2.469905e-001	1.796832e-001
2183750000	2.442010e-001	1.716817e-001
2185000000	2.410475e-001	1.640548e-001
2186250000	2.372972e-001	1.563224e-001
2187500000	2.333900e-001	1.486923e-001
2188750000	2.293777e-001	1.407924e-001
2190000000	2.251976e-001	1.337057e-001
2191250000	2.206129e-001	1.260832e-001
2192500000	2.155440e-001	1.185336e-001
2193750000	2.099936e-001	1.113801e-001
2195000000	2.044661e-001	1.044335e-001
2196250000	1.984014e-001	9.782266e-002
2197500000	1.917687e-001	9.219113e-002
2198750000	1.856963e-001	8.619037e-002
2200000000	1.793877e-001	8.099389e-002
2201250000	1.732824e-001	7.636119e-002
2202500000	1.674960e-001	7.128436e-002
2203750000	1.615498e-001	6.648776e-002
2205000000	1.554867e-001	6.177090e-002
2206250000	1.495500e-001	5.800813e-002
2207500000	1.432186e-001	5.368354e-002
2208750000	1.372509e-001	4.991306e-002
2210000000	1.317831e-001	4.650689e-002
2211250000	1.263043e-001	4.292653e-002
2212500000	1.214315e-001	3.974623e-002
2213750000	1.164698e-001	3.574334e-002
2215000000	1.123444e-001	3.252173e-002
2216250000	1.075745e-001	2.833690e-002
2217500000	1.031526e-001	2.358732e-002
2218750000	9.816760e-002	1.889113e-002
2220000000	9.303862e-002	1.413465e-002
2221250000	8.749223e-002	9.526118e-003
2222500000	8.196370e-002	4.930314e-003
2223750000	7.631340e-002	8.725791e-004
2225000000	7.053815e-002	-3.779761e-003
2226250000	6.558346e-002	-8.315668e-003
2227500000	5.981809e-002	-1.305798e-002
2228750000	5.328927e-002	-1.793543e-002
2230000000	4.724614e-002	-2.139413e-002
2231250000	4.071033e-002	-2.646393e-002
2232500000	3.404862e-002	-3.042180e-002
2233750000	2.796453e-002	-3.424969e-002
2235000000	2.156886e-002	-3.827845e-002
2236250000	1.508020e-002	-4.253062e-002
2237500000	7.978566e-003	-4.714490e-002
2238750000	1.704390e-003	-5.141488e-002
2240000000	-5.934725e-003	-5.572240e-002
2241250000	-1.318829e-002	-5.981254e-002
2242500000	-2.068888e-002	-6.413020e-002
2243750000	-2.864661e-002	-6.842444e-002
2245000000	-3.721084e-002	-7.189666e-002
2246250000	-4.605998e-002	-7.564454e-002
2247500000	-5.464645e-002	-7.924187e-002
2248750000	-6.391027e-002	-8.144409e-002
2250000000	-7.363286e-002	-8.426851e-002
2251250000	-8.285484e-002	-8.616510e-002
2252500000	-9.184076e-002	-8.715990e-002
2253750000	-1.007395e-001	-8.827109e-002
2255000000	-1.092157e-001	-8.892369e-002
2256250000	-1.176897e-001	-8.939905e-002
2257500000	-1.263916e-001	-9.005975e-002
2258750000	-1.349466e-001	-9.040317e-002
2260000000	-1.430477e-001	-9.029035e-002
2261250000	-1.514691e-001	-9.054575e-002
2262500000	-1.597108e-001	-8.995798e-002
2263750000	-1.677140e-001	-8.889884e-002
2265000000	-1.756583e-001	-8.760353e-002
2266250000	-1.827580e-001	-8.665892e-002
2267500000	-1.892244e-001	-8.539175e-002
2268750000	-1.965429e-001	-8.467052e-002
2270000000	-2.031674e-001	-8.287473e-002
2271250000	-2.097729e-001	-8.160231e-002
2272500000	-2.156355e-001	-8.022631e-002
2273750000	-2.215053e-001	-7.896894e-002
2275000000	-2.268808e-001	-7.753696e-002
2276250000	-2.328326e-001	-7.702296e-002
2277500000	-2.382329e-001	-7.720614e-002
2278750000	-2.435103e-001	-7.672784e-002
2280000000	-2.500956e-001	-7.650720e-002
2281250000	-2.565084e-001	-7.608910e-002
2282500000	-2.626279e-001	-7.569122e-002
2283750000	-2.686240e-001	-7.510181e-002
2285000000	-2.749892e-001	-7.440339e-002
2286250000	-2.814165e-001	-7.416298e-002
2287500000	-2.878338e-001	-7.386050e-002
2288750000	-2.940460e-001	-7.312873e-002
2290000000	-3.004672e-001	-7.263705e-002
2291250000	-3.072762e-001	-7.134536e-002
2292500000	-3.137541e-001	-7.018913e-002
2293750000	-3.205856e-001	-6.906873e-002
2295000000	-3.267761e-001	-6.805879e-002
2296250000	-3.335288e-001	-6.638999e-002
2297500000	-3.405118e-001	-6.460112e-002
2298750000	-3.466370e-001	-6.306256e-002
2300000000	-3.533910e-001	-6.176868e-002
2301250000	-3.600869e-001	-6.054096e-002
2302500000	-3.665633e-001	-5.838429e-002
2303750000	-3.741254e-001	-5.695908e-002
2305000000	-3.806478e-001	-5.474713e-002
2306250000	-3.880655e-001	-5.269796e-002
2307500000	-3.948536e-001	-5.000608e-002
2308750000	-4.023306e-001	-4.719884e-002
2310000000	-4.098524e-001	-4.450137e-002
2311250000	-4.168888e-001	-4.088413e-002
2312500000	-4.238988e-001	-3.680009e-002
2313750000	-4.306503e-001	-3.314669e-002
2315000000	-4.371897e-001	-2.819837e-002
2316250000	-4.438579e-001	-2.423104e-002
2317500000	-4.504907e-001	-1.919412e-002
2318750000	-4.563868e-001	-1.375192e-002
2320000000	-4.615119e-001	-8.732573e-003
2321250000	-4.672120e-001	-3.305103e-003
2322500000	-4.717926e-001	1.550772e-003
2323750000	-4.767172e-001	7.835488e-003
2325000000	-4.805505e-001	1.295211e-002
2326250000	-4.845910e-001	1.827555e-002
2327500000	-4.871741e-001	2.316161e-002
2328750000	-4.904678e-001	2.762069e-002
2330000000	-4.935756e-001	3.208809e-002
2331250000	-4.961575e-001	3.549916e-002
2332500000	-4.994502e-001	3.954596e-002
2333750000	-5.025436e-001	4.242109e-002
2335000000	-5.057583e-001	4.625822e-002
2336250000	-5.098813e-001	4.951471e-002
2337500000	-5.142206e-001	5.298866e-002
2338750000	-5.173745e-001	5.666176e-002
2340000000	-5.208892e-001	6.059571e-002
2341250000	-5.242292e-001	6.402151e-002
2342500000	-5.279769e-001	6.731396e-002
2343750000	-5.321517e-001	7.001784e-002
2345000000	-5.353959e-001	7.382265e-002
2346250000	-5.396602e-001	7.810293e-002
2347500000	-5.427015e-001	8.115287e-002
2348750000	-5.462621e-001	8.520444e-002
2350000000	-5.500183e-001	8.876517e-002
2351250000	-5.534840e-001	9.207865e-002
2352500000	-5.573429e-001	9.543434e-002
2353750000	-5.609248e-001	9.921458e-002
2355000000	-5.645104e-001	1.026665e-001
2356250000	-5.686175e-001	1.064918e-001
2357500000	-5.726599e-001	1.103660e-001
2358750000	-5.770289e-001	1.142902e-001
2360000000	-5.808520e-001	1.187973e-001
2361250000	-5.846800e-001	1.237090e-001
2362500000	-5.881831e-001	1.289911e-001
2363750000	-5.917415e-001	1.333759e-001
2365000000	-5.950345e-001	1.390013e-001
2366250000	-5.979253e-001	1.436856e-001
2367500000	-6.005278e-001	1.487302e-001
2368750000	-6.031805e-001	1.537756e-001
2370000000	-6.060328e-001	1.589936e-001
2371250000	-6.085697e-001	1.635066e-001
2372500000	-6.112228e-001	1.687080e-001
2373750000	-6.134610e-001	1.731342e-001
2375000000	-6.149296e-001	1.787100e-001
2376250000	-6.173393e-001	1.840161e-001
2377500000	-6.185431e-001	1.893986e-001
2378750000	-6.204263e-001	1.947565e-001
2380000000	-6.215818e-001	1.997693e-001
2381250000	-6.225785e-001	2.048250e-001
2382500000	-6.235909e-001	2.092845e-001
2383750000	-6.246456e-001	2.134888e-001
2385000000	-6.249207e-001	2.178382e-001
2386250000	-6.260375e-001	2.225565e-001
2387500000	-6.271924e-001	2.267258e-001
2388750000	-6.278314e-001	2.310297e-001
2390000000	-6.283235e-001	2.349785e-001
2391250000	-6.281640e-001	2.392108e-001
2392500000	-6.301779e-001	2.426738e-001
2393750000	-6.307611e-001	2.465889e-001
2395000000	-6.314802e-001	2.502989e-001
2396250000	-6.326361e-001	2.550290e-001
2397500000	-6.334774e-001	2.582154e-001
2398750000	-6.344050e-001	2.625597e-001
2400000000	-6.350850e-001	2.661432e-001
2401250000	-6.362181e-001	2.697378e-001
2402500000	-6.364886e-001	2.731287e-001
2403750000	-6.379820e-001	2.763299e-001
2405000000	-6.397862e-001	2.812551e-001
2406250000	-6.395113e-001	2.853079e-001
2407500000	-6.410321e-001	2.895904e-001
2408750000	-6.415034e-001	2.932481e-001
2410000000	-6.420355e-001	2.975095e-001
2411250000	-6.430962e-001	3.013654e-001
2412500000	-6.431676e-001	3.050109e-001
2413750000	-6.437049e-001	3.094667e-001
2415000000	-6.440722e-001	3.133032e-001
2416250000	-6.444873e-001	3.175169e-001
2417500000	-6.446375e-001	3.215746e-001
2418750000	-6.455661e-001	3.244836e-001
2420000000	-6.459202e-001	3.287078e-001
2421250000	-6.457862e-001	3.326268e-001
2422500000	-6.468587e-001	3.368651e-001
2423750000	-6.474340e-001	3.417582e-001
2425000000	-6.473293e-001	3.446637e-001
2426250000	-6.470715e-001	3.483973e-001
2427500000	-6.468679e-001	3.520739e-001
2428750000	-6.473502e-001	3.555627e-001
2430000000	-6.480320e-001	3.596099e-001
2431250000	-6.479576e-001	3.638964e-001
2432500000	-6.491661e-001	3.679737e-001
2433750000	-6.486576e-001	3.727064e-001
2435000000	-6.488999e-001	3.754576e-001
2436250000	-6.492051e-001	3.799659e-001
2437500000	-6.487933e-001	3.840006e-001
2438750000	-6.482307e-001	3.882347e-001
2440000000	-6.479176e-001	3.922270e-001
2441250000	-6.475100e-001	3.960026e-001
2442500000	-6.466060e-001	3.994714e-001
2443750000	-6.465769e-001	4.032600e-001
2445000000	-6.453129e-001	4.071168e-001
2446250000	-6.450421e-001	4.107364e-001
2447500000	-6.445708e-001	4.134290e-001
2448750000	-6.438287e-001	4.169533e-001
2450000000	-6.441393e-001	4.206315e-001
2451250000	-6.434700e-001	4.237374e-001
2452500000	-6.433345e-001	4.275588e-001
2453750000	-6.428954e-001	4.301066e-001
2455000000	-6.419839e-001	4.345063e-001
2456250000	-6.413994e-001	4.384322e-001
2457500000	-6.408754e-001	4.416667e-001
2458750000	-6.404013e-001	4.444942e-001
2460000000	-6.397602e-001	4.482639e-001
2461250000	-6.385064e-001	4.517498e-001
2462500000	-6.383688e-001	4.545558e-001
2463750000	-6.371422e-001	4.578189e-001
2465000000	-6.364187e-001	4.605401e-001
2466250000	-6.362745e-001	4.634042e-001
2467500000	-6.348155e-001	4.665908e-001
2468750000	-6.335398e-001	4.689477e-001
2470000000	-6.325978e-001	4.717705e-001
2471250000	-6.317698e-001	4.752982e-001
2472500000	-6.306200e-001	4.776522e-001
2473750000	-6.299944e-001	4.802505e-001
2475000000	-6.289310e-001	4.824977e-001
2476250000	-6.285403e-001	4.852468e-001
2477500000	-6.278083e-001	4.882098e-001
2478750000	-6.271186e-001	4.908074e-001
2480000000	-6.265050e-001	4.929291e-001
2481250000	-6.253186e-001	4.961444e-001
2482500000	-6.243624e-001	4.992331e-001
2483750000	-6.234996e-001	5.018923e-001
2485000000	-6.228834e-001	5.040266e-001
2486250000	-6.211102e-001	5.067489e-001
2487500000	-6.211072e-001	5.093149e-001
2488750000	-6.202853e-001	5.115081e-001
2490000000	-6.188933e-001	5.138909e-001
2491250000	-6.188024e-001	5.170366e-001
2492500000	-6.167193e-001	5.196152e-001
2493750000	-6.162598e-001	5.221104e-001
2495000000	-6.147424e-001	5.246336e-001
2496250000	-6.133408e-001	5.264239e-001
2497500000	-6.133110e-001	5.297098e-001
2498750000	-6.122696e-001	5.317488e-001
2500000000	-6.116324e-001	5.342428e-001
2501250000	-6.110820e-001	5.373557e-001
2502500000	-6.092000e-001	5.396521e-001
2503750000	-6.091785e-001	5.425476e-001
2505000000	-6.073864e-001	5.453624e-001
2506250000	-6.060539e-001	5.475619e-001
2507500000	-6.052068e-001	5.507064e-001
2508750000	-6.030676e-001	5.531752e-001
2510000000	-6.011989e-001	5.561778e-001
2511250000	-6.000088e-001	5.576273e-001
2512500000	-5.983138e-001	5.600849e-001
2513750000	-5.974422e-001	5.631408e-001
2515000000	-5.962215e-001	5.653416e-001
2516250000	-5.935123e-001	5.671938e-001
2517500000	-5.929497e-001	5.691982e-001
2518750000	-5.913001e-001	5.714037e-001
2520000000	-5.899250e-001	5.722811e-001
2521250000	-5.882333e-001	5.751922e-001
2522500000	-5.872056e-001	5.766321e-001
2523750000	-5.858006e-001	5.789720e-001
2525000000	-5.852915e-001	5.813984e-001
2526250000	-5.836074e-001	5.833278e-001
2527500000	-5.825191e-001	5.856367e-001
2528750000	-5.811263e-001	5.872736e-001
2530000000	-5.797827e-001	5.895535e-001
2531250000	-5.777108e-001	5.921973e-001
2532500000	-5.767956e-001	5.943300e-001
2533750000	-5.751973e-001	5.964854e-001
2535000000	-5.733885e-001	5.976780e-001
2536250000	-5.720932e-001	5.994537e-001
2537500000	-5.711652e-001	6.012510e-001
2538750000	-5.695148e-001	6.029495e-001
2540000000	-5.687158e-001	6.049337e-001
2541250000	-5.670067e-001	6.069757e-001
2542500000	-5.661847e-001	6.088390e-001
2543750000	-5.657522e-001	6.107043e-001
2545000000	-5.646156e-001	6.129405e-001
2546250000	-5.630938e-001	6.145885e-001
2547500000	-5.623174e-001	6.160871e-001
2548750000	-5.611798e-001	6.186732e-001
2550000000	-5.594318e-001	6.202186e-001
2551250000	-5.585366e-001	6.223426e-001
2552500000	-5.575348e-001	6.239812e-001
2553750000	-5.557031e-001	6.266809e-001
2555000000	-5.546852e-001	6.281333e-001
2556250000	-5.527680e-001	6.301580e-001
2557500000	-5.516463e-001	6.322328e-001
2558750000	-5.501879e-001	6.342472e-001
2560000000	-5.486097e-001	6.360665e-001
2561250000	-5.474338e-001	6.375476e-001
2562500000	-5.458456e-001	6.393708e-001
2563750000	-5.447152e-001	6.415628e-001
2565000000	-5.431138e-001	6.427359e-001
2566250000	-5.424046e-001	6.452923e-001
2567500000	-5.408168e-001	6.459240e-001
2568750000	-5.394191e-001	6.483150e-001
2570000000	-5.380752e-001	6.496770e-001
2571250000	-5.369545e-001	6.516852e-001
2572500000	-5.350794e-001	6.535510e-001
2573750000	-5.338467e-001	6.548594e-001
2575000000	-5.324541e-001	6.561869e-001
2576250000	-5.303473e-001	6.582594e-001
2577500000	-5.287007e-001	6.599435e-001
2578750000	-5.273751e-001	6.606550e-001
2580000000	-5.259265e-001	6.617596e-001
2581250000	-5.240563e-001	6.631960e-001
2582500000	-5.229017e-001	6.635933e-001
2583750000	-5.218764e-001	6.647163e-001
2585000000	-5.211695e-001	6.667896e-001
2586250000	-5.195878e-001	6.678431e-001
2587500000	-5.185424e-001	6.696156e-001
2588750000	-5.167888e-001	6.711152e-001
2590000000	-5.160580e-001	6.725539e-001
2591250000	-5.141119e-001	6.738217e-001
2592500000	-5.128677e-001	6.749988e-001
2593750000	-5.110316e-001	6.768887e-001
2595000000	-5.104911e-001	6.770298e-001
2596250000	-5.094877e-001	6.789977e-001
2597500000	-5.077668e-001	6.803081e-001
2598750000	-5.061834e-001	6.817407e-001
2600000000	-5.053760e-001	6.836601e-001
2601250000	-5.039197e-001	6.853295e-001
2602500000	-5.022242e-001	6.867745e-001
2603750000	-5.002174e-001	6.882415e-001
2605000000	-4.984029e-001	6.889092e-001
2606250000	-4.967191e-001	6.901342e-001
2607500000	-4.955957e-001	6.915903e-001
2608750000	-4.938289e-001	6.927546e-001
2610000000	-4.923983e-001	6.941524e-001
2611250000	-4.910331e-001	6.953584e-001
2612500000	-4.893049e-001	6.961335e-001
2613750000	-4.879113e-001	6.977754e-001
2615000000	-4.865224e-001	6.989617e-001
2616250000	-4.844569e-001	6.997884e-001
2617500000	-4.830593e-001	7.011096e-001
2618750000	-4.811963e-001	7.023163e-001
2620000000	-4.803325e-001	7.029138e-001
2621250000	-4.785909e-001	7.037342e-001
2622500000	-4.767962e-001	7.056228e-001
