!Agilent Technologies,E5071C,MY46105125,A.08.12
!Date: Tue Sep 16 09:42:05 2014
!Data & Calibration Information:
!Freq	S11:SOLT1(ON)
# Hz S RI R 50
2000000000	-5.745196e-001	8.494895e-001
2001250000	-5.734066e-001	8.490875e-001
2002500000	-5.722506e-001	8.494481e-001
2003750000	-5.718620e-001	8.500162e-001
2005000000	-5.708024e-001	8.496805e-001
2006250000	-5.703766e-001	8.504710e-001
2007500000	-5.696916e-001	8.504112e-001
2008750000	-5.686712e-001	8.508019e-001
2010000000	-5.678676e-001	8.508732e-001
2011250000	-5.674138e-001	8.516482e-001
2012500000	-5.661487e-001	8.522715e-001
2013750000	-5.655088e-001	8.518752e-001
2015000000	-5.652168e-001	8.522928e-001
2016250000	-5.640917e-001	8.527138e-001
2017500000	-5.630302e-001	8.530597e-001
2018750000	-5.627375e-001	8.538375e-001
2020000000	-5.617587e-001	8.535283e-001
2021250000	-5.606051e-001	8.538668e-001
2022500000	-5.597469e-001	8.547528e-001
2023750000	-5.584680e-001	8.552827e-001
2025000000	-5.576229e-001	8.547165e-001
2026250000	-5.566606e-001	8.557268e-001
2027500000	-5.555631e-001	8.562750e-001
2028750000	-5.553216e-001	8.563167e-001
2030000000	-5.538965e-001	8.564808e-001
2031250000	-5.532032e-001	8.564468e-001
2032500000	-5.530271e-001	8.573158e-001
2033750000	-5.513692e-001	8.577946e-001
2035000000	-5.512653e-001	8.576420e-001
2036250000	-5.499610e-001	8.577385e-001
2037500000	-5.489056e-001	8.588895e-001
2038750000	-5.474193e-001	8.594855e-001
2040000000	-5.464541e-001	8.590932e-001
2041250000	-5.456135e-001	8.595347e-001
2042500000	-5.446701e-001	8.598786e-001
2043750000	-5.433997e-001	8.599867e-001
2045000000	-5.428503e-001	8.600761e-001
2046250000	-5.409532e-001	8.607205e-001
2047500000	-5.401543e-001	8.610876e-001
2048750000	-5.395901e-001	8.616295e-001
2050000000	-5.364468e-001	8.630084e-001
2051250000	-5.363107e-001	8.627178e-001
2052500000	-5.353360e-001	8.640263e-001
2053750000	-5.336438e-001	8.634571e-001
2055000000	-5.320890e-001	8.634091e-001
2056250000	-5.314532e-001	8.629041e-001
2057500000	-5.302277e-001	8.632311e-001
2058750000	-5.300114e-001	8.637465e-001
2060000000	-5.286300e-001	8.645166e-001
2061250000	-5.266897e-001	8.646571e-001
2062500000	-5.251689e-001	8.646687e-001
2063750000	-5.239689e-001	8.642506e-001
2065000000	-5.230578e-001	8.657589e-001
2066250000	-5.219392e-001	8.650709e-001
2067500000	-5.206155e-001	8.657959e-001
2068750000	-5.201580e-001	8.659570e-001
2070000000	-5.183364e-001	8.670550e-001
2071250000	-5.177970e-001	8.671089e-001
2072500000	-5.164563e-001	8.672473e-001
2073750000	-5.146298e-001	8.682913e-001
2075000000	-5.139121e-001	8.682924e-001
2076250000	-5.128464e-001	8.681850e-001
2077500000	-5.118814e-001	8.684843e-001
2078750000	-5.112543e-001	8.694399e-001
2080000000	-5.101166e-001	8.694377e-001
2081250000	-5.092567e-001	8.701384e-001
2082500000	-5.079387e-001	8.707730e-001
2083750000	-5.067346e-001	8.712618e-001
2085000000	-5.053436e-001	8.722569e-001
2086250000	-5.043848e-001	8.730993e-001
2087500000	-5.026345e-001	8.735209e-001
2088750000	-5.019584e-001	8.739705e-001
2090000000	-5.006506e-001	8.744802e-001
2091250000	-4.992119e-001	8.741688e-001
2092500000	-4.984083e-001	8.750830e-001
2093750000	-4.972283e-001	8.760483e-001
2095000000	-4.954015e-001	8.758432e-001
2096250000	-4.945924e-001	8.763703e-001
2097500000	-4.939068e-001	8.767657e-001
2098750000	-4.920576e-001	8.769317e-001
2100000000	-4.912674e-001	8.763741e-001
2101250000	-4.903613e-001	8.768558e-001
2102500000	-4.894210e-001	8.773702e-001
2103750000	-4.889318e-001	8.778148e-001
2105000000	-4.875205e-001	8.783969e-001
2106250000	-4.867216e-001	8.783883e-001
2107500000	-4.855129e-001	8.790908e-001
2108750000	-4.842546e-001	8.794733e-001
2110000000	-4.832413e-001	8.796210e-001
2111250000	-4.822400e-001	8.793372e-001
2112500000	-4.807801e-001	8.789580e-001
2113750000	-4.803764e-001	8.796871e-001
2115000000	-4.802969e-001	8.797727e-001
2116250000	-4.791762e-001	8.795541e-001
2117500000	-4.787738e-001	8.792735e-001
2118750000	-4.778104e-001	8.796123e-001
2120000000	-4.772449e-001	8.805567e-001
2121250000	-4.762984e-001	8.806999e-001
2122500000	-4.755292e-001	8.810536e-001
2123750000	-4.754941e-001	8.808486e-001
2125000000	-4.754255e-001	8.805542e-001
2126250000	-4.742700e-001	8.808876e-001
2127500000	-4.734067e-001	8.815468e-001
2128750000	-4.729357e-001	8.812670e-001
2130000000	-4.722976e-001	8.820136e-001
2131250000	-4.711627e-001	8.823317e-001
2132500000	-4.703023e-001	8.830686e-001
2133750000	-4.698178e-001	8.829804e-001
2135000000	-4.685098e-001	8.827834e-001
2136250000	-4.676793e-001	8.832479e-001
2137500000	-4.668451e-001	8.840726e-001
2138750000	-4.659053e-001	8.838016e-001
2140000000	-4.646214e-001	8.837810e-001
2141250000	-4.638437e-001	8.848184e-001
2142500000	-4.630823e-001	8.848442e-001
2143750000	-4.626373e-001	8.852776e-001
2145000000	-4.615194e-001	8.856125e-001
2146250000	-4.609055e-001	8.856331e-001
2147500000	-4.597118e-001	8.855282e-001
2148750000	-4.582635e-001	8.853676e-001
2150000000	-4.577496e-001	8.857976e-001
2151250000	-4.560324e-001	8.859950e-001
2152500000	-4.561559e-001	8.858561e-001
2153750000	-4.550868e-001	8.867799e-001
2155000000	-4.538573e-001	8.867081e-001
2156250000	-4.525769e-001	8.868316e-001
2157500000	-4.516541e-001	8.866210e-001
2158750000	-4.503369e-001	8.862985e-001
2160000000	-4.496126e-001	8.866053e-001
2161250000	-4.479447e-001	8.867388e-001
2162500000	-4.477927e-001	8.870961e-001
2163750000	-4.467407e-001	8.868382e-001
2165000000	-4.463837e-001	8.877240e-001
2166250000	-4.448590e-001	8.879180e-001
2167500000	-4.437050e-001	8.878785e-001
2168750000	-4.429181e-001	8.869083e-001
2170000000	-4.413939e-001	8.874428e-001
2171250000	-4.406647e-001	8.886714e-001
2172500000	-4.387545e-001	8.881601e-001
2173750000	-4.381210e-001	8.880343e-001
2175000000	-4.373679e-001	8.887711e-001
2176250000	-4.357999e-001	8.881218e-001
2177500000	-4.343580e-001	8.888131e-001
2178750000	-4.339188e-001	8.890528e-001
2180000000	-4.326550e-001	8.889375e-001
2181250000	-4.314421e-001	8.903526e-001
2182500000	-4.303441e-001	8.895244e-001
2183750000	-4.288961e-001	8.899490e-001
2185000000	-4.273378e-001	8.898070e-001
2186250000	-4.264918e-001	8.897823e-001
2187500000	-4.252631e-001	8.896832e-001
2188750000	-4.244718e-001	8.897083e-001
2190000000	-4.236471e-001	8.905636e-001
2191250000	-4.229390e-001	8.901234e-001
2192500000	-4.219003e-001	8.905726e-001
2193750000	-4.207904e-001	8.912768e-001
2195000000	-4.200799e-001	8.912721e-001
2196250000	-4.193376e-001	8.914546e-001
2197500000	-4.183918e-001	8.922611e-001
2198750000	-4.179827e-001	8.921873e-001
2200000000	-4.162409e-001	8.929708e-001
2201250000	-4.153360e-001	8.937866e-001
2202500000	-4.143205e-001	8.939930e-001
2203750000	-4.128782e-001	8.937754e-001
2205000000	-4.124920e-001	8.944209e-001
2206250000	-4.107177e-001	8.941450e-001
2207500000	-4.096479e-001	8.951810e-001
2208750000	-4.088244e-001	8.945230e-001
2210000000	-4.076983e-001	8.948063e-001
2211250000	-4.073367e-001	8.956256e-001
2212500000	-4.057612e-001	8.959255e-001
2213750000	-4.048289e-001	8.960905e-001
2215000000	-4.040099e-001	8.963480e-001
2216250000	-4.029237e-001	8.965666e-001
2217500000	-4.017581e-001	8.965625e-001
2218750000	-4.009373e-001	8.969103e-001
2220000000	-4.004276e-001	8.973323e-001
2221250000	-3.993089e-001	8.972046e-001
2222500000	-3.990776e-001	8.972958e-001
2223750000	-3.978832e-001	8.980981e-001
2225000000	-3.976154e-001	8.986164e-001
2226250000	-3.962489e-001	8.980264e-001
2227500000	-3.952691e-001	8.984653e-001
2228750000	-3.946126e-001	8.987426e-001
2230000000	-3.934331e-001	8.991772e-001
2231250000	-3.926075e-001	8.992442e-001
2232500000	-3.917713e-001	8.995848e-001
2233750000	-3.906342e-001	8.992921e-001
2235000000	-3.899600e-001	8.992987e-001
2236250000	-3.892743e-001	8.990278e-001
2237500000	-3.891476e-001	8.985943e-001
2238750000	-3.880224e-001	8.994745e-001
2240000000	-3.873697e-001	8.997509e-001
2241250000	-3.867445e-001	8.992142e-001
2242500000	-3.856097e-001	8.995772e-001
2243750000	-3.848908e-001	8.994573e-001
2245000000	-3.840797e-001	8.996901e-001
2246250000	-3.834920e-001	8.998222e-001
2247500000	-3.827669e-001	8.997266e-001
2248750000	-3.822378e-001	8.998842e-001
2250000000	-3.811722e-001	9.002228e-001
2251250000	-3.811636e-001	9.002848e-001
2252500000	-3.801136e-001	9.009066e-001
2253750000	-3.795266e-001	9.012804e-001
2255000000	-3.781940e-001	9.011222e-001
2256250000	-3.769882e-001	9.010205e-001
2257500000	-3.768540e-001	9.016448e-001
2258750000	-3.756468e-001	9.016688e-001
2260000000	-3.741410e-001	9.014135e-001
2261250000	-3.739737e-001	9.019819e-001
2262500000	-3.728152e-001	9.009401e-001
2263750000	-3.717940e-001	9.017328e-001
2265000000	-3.703166e-001	9.016003e-001
2266250000	-3.699810e-001	9.016224e-001
2267500000	-3.698253e-001	9.006911e-001
2268750000	-3.692263e-001	9.014627e-001
2270000000	-3.682252e-001	9.017680e-001
2271250000	-3.669288e-001	9.015902e-001
2272500000	-3.664648e-001	9.016773e-001
2273750000	-3.654528e-001	9.013409e-001
2275000000	-3.642099e-001	9.011497e-001
2276250000	-3.631974e-001	9.019172e-001
2277500000	-3.632513e-001	9.015413e-001
2278750000	-3.618628e-001	9.018345e-001
2280000000	-3.607428e-001	9.027942e-001
2281250000	-3.598683e-001	9.032656e-001
2282500000	-3.588732e-001	9.031980e-001
2283750000	-3.584533e-001	9.030494e-001
2285000000	-3.569588e-001	9.035695e-001
2286250000	-3.559390e-001	9.032486e-001
2287500000	-3.547970e-001	9.038832e-001
2288750000	-3.536409e-001	9.039047e-001
2290000000	-3.525924e-001	9.036917e-001
2291250000	-3.504815e-001	9.038508e-001
2292500000	-3.493354e-001	9.034910e-001
2293750000	-3.483719e-001	9.033751e-001
2295000000	-3.482435e-001	9.034149e-001
2296250000	-3.471551e-001	9.032182e-001
2297500000	-3.469156e-001	9.034854e-001
2298750000	-3.458639e-001	9.036945e-001
2300000000	-3.442191e-001	9.045151e-001
2301250000	-3.436134e-001	9.040808e-001
2302500000	-3.421591e-001	9.040158e-001
2303750000	-3.414448e-001	9.046139e-001
2305000000	-3.405141e-001	9.044206e-001
2306250000	-3.399955e-001	9.049382e-001
2307500000	-3.385149e-001	9.049003e-001
2308750000	-3.375948e-001	9.053440e-001
2310000000	-3.367186e-001	9.059080e-001
2311250000	-3.354752e-001	9.049670e-001
2312500000	-3.344135e-001	9.056085e-001
2313750000	-3.330861e-001	9.054047e-001
2315000000	-3.323617e-001	9.056982e-001
2316250000	-3.319204e-001	9.053971e-001
2317500000	-3.301823e-001	9.054107e-001
2318750000	-3.301263e-001	9.062004e-001
2320000000	-3.288010e-001	9.060094e-001
2321250000	-3.281792e-001	9.067840e-001
2322500000	-3.273848e-001	9.066410e-001
2323750000	-3.264101e-001	9.067487e-001
2325000000	-3.257858e-001	9.071167e-001
2326250000	-3.245573e-001	9.075102e-001
2327500000	-3.238566e-001	9.074965e-001
2328750000	-3.230534e-001	9.073374e-001
2330000000	-3.220544e-001	9.080948e-001
2331250000	-3.217417e-001	9.079811e-001
2332500000	-3.204446e-001	9.084068e-001
2333750000	-3.198535e-001	9.086864e-001
2335000000	-3.184122e-001	9.090413e-001
2336250000	-3.178248e-001	9.094789e-001
2337500000	-3.169529e-001	9.099212e-001
2338750000	-3.162673e-001	9.099190e-001
2340000000	-3.149616e-001	9.098546e-001
2341250000	-3.142554e-001	9.098399e-001
2342500000	-3.135182e-001	9.102844e-001
2343750000	-3.129986e-001	9.108653e-001
2345000000	-3.124297e-001	9.106436e-001
2346250000	-3.111417e-001	9.112491e-001
2347500000	-3.107225e-001	9.109643e-001
2348750000	-3.097716e-001	9.111360e-001
2350000000	-3.081395e-001	9.117824e-001
2351250000	-3.066554e-001	9.112685e-001
2352500000	-3.063310e-001	9.106501e-001
2353750000	-3.058279e-001	9.108553e-001
2355000000	-3.049817e-001	9.106372e-001
2356250000	-3.037864e-001	9.110310e-001
2357500000	-3.026831e-001	9.106643e-001
2358750000	-3.023921e-001	9.114480e-001
2360000000	-3.018288e-001	9.107162e-001
2361250000	-3.007896e-001	9.112046e-001
2362500000	-2.993713e-001	9.105533e-001
2363750000	-2.987459e-001	9.108062e-001
2365000000	-2.981068e-001	9.109323e-001
2366250000	-2.974078e-001	9.112030e-001
2367500000	-2.963107e-001	9.115634e-001
2368750000	-2.953627e-001	9.104666e-001
2370000000	-2.944023e-001	9.111609e-001
2371250000	-2.941282e-001	9.115417e-001
2372500000	-2.924880e-001	9.115566e-001
2373750000	-2.915575e-001	9.108859e-001
2375000000	-2.912783e-001	9.109894e-001
2376250000	-2.902169e-001	9.109155e-001
2377500000	-2.889487e-001	9.106452e-001
2378750000	-2.886996e-001	9.113149e-001
2380000000	-2.876380e-001	9.106869e-001
2381250000	-2.869847e-001	9.111826e-001
2382500000	-2.863213e-001	9.114612e-001
2383750000	-2.855875e-001	9.113298e-001
2385000000	-2.841271e-001	9.111582e-001
2386250000	-2.828531e-001	9.113939e-001
2387500000	-2.824365e-001	9.112849e-001
2388750000	-2.814674e-001	9.115693e-001
2390000000	-2.805100e-001	9.115124e-001
2391250000	-2.789975e-001	9.107443e-001
2392500000	-2.787114e-001	9.114085e-001
2393750000	-2.772529e-001	9.117706e-001
2395000000	-2.768293e-001	9.114786e-001
2396250000	-2.751938e-001	9.113637e-001
2397500000	-2.748293e-001	9.109446e-001
2398750000	-2.734947e-001	9.114758e-001
2400000000	-2.730774e-001	9.116191e-001
2401250000	-2.719747e-001	9.117708e-001
2402500000	-2.704527e-001	9.116528e-001
2403750000	-2.701449e-001	9.108904e-001
2405000000	-2.691030e-001	9.121432e-001
2406250000	-2.677712e-001	9.116515e-001
2407500000	-2.670376e-001	9.117943e-001
2408750000	-2.663213e-001	9.121108e-001
2410000000	-2.651884e-001	9.122118e-001
2411250000	-2.643311e-001	9.125208e-001
2412500000	-2.632230e-001	9.124577e-001
2413750000	-2.619625e-001	9.120235e-001
2415000000	-2.609961e-001	9.131452e-001
2416250000	-2.601174e-001	9.127905e-001
2417500000	-2.586263e-001	9.134424e-001
2418750000	-2.584259e-001	9.136937e-001
2420000000	-2.569875e-001	9.133157e-001
2421250000	-2.554892e-001	9.135682e-001
2422500000	-2.540353e-001	9.136993e-001
2423750000	-2.531079e-001	9.139024e-001
2425000000	-2.523102e-001	9.134678e-001
2426250000	-2.509986e-001	9.138392e-001
2427500000	-2.502000e-001	9.135032e-001
2428750000	-2.493300e-001	9.135429e-001
2430000000	-2.478987e-001	9.138854e-001
2431250000	-2.471404e-001	9.134231e-001
2432500000	-2.461895e-001	9.133617e-001
2433750000	-2.446828e-001	9.132601e-001
2435000000	-2.443003e-001	9.132186e-001
2436250000	-2.429968e-001	9.131377e-001
2437500000	-2.425252e-001	9.130003e-001
2438750000	-2.416734e-001	9.130002e-001
2440000000	-2.408638e-001	9.126940e-001
2441250000	-2.398755e-001	9.128830e-001
2442500000	-2.393140e-001	9.130797e-001
2443750000	-2.383284e-001	9.132032e-001
2445000000	-2.374696e-001	9.133423e-001
2446250000	-2.367207e-001	9.135276e-001
2447500000	-2.359037e-001	9.135497e-001
2448750000	-2.348310e-001	9.132294e-001
2450000000	-2.344059e-001	9.136363e-001
2451250000	-2.336860e-001	9.136753e-001
2452500000	-2.325785e-001	9.133842e-001
2453750000	-2.319264e-001	9.137138e-001
2455000000	-2.308023e-001	9.135264e-001
2456250000	-2.298525e-001	9.142750e-001
2457500000	-2.292731e-001	9.143646e-001
2458750000	-2.285562e-001	9.139534e-001
2460000000	-2.275091e-001	9.140855e-001
2461250000	-2.260385e-001	9.141834e-001
2462500000	-2.257599e-001	9.144945e-001
2463750000	-2.249053e-001	9.142536e-001
2465000000	-2.247933e-001	9.137821e-001
2466250000	-2.236186e-001	9.144710e-001
2467500000	-2.220579e-001	9.145422e-001
2468750000	-2.212872e-001	9.140727e-001
2470000000	-2.207076e-001	9.136740e-001
2471250000	-2.196634e-001	9.140939e-001
2472500000	-2.185036e-001	9.140021e-001
2473750000	-2.177598e-001	9.140557e-001
2475000000	-2.168352e-001	9.137724e-001
2476250000	-2.163105e-001	9.141801e-001
2477500000	-2.147597e-001	9.141185e-001
2478750000	-2.137925e-001	9.133216e-001
2480000000	-2.133303e-001	9.129489e-001
2481250000	-2.119063e-001	9.130151e-001
2482500000	-2.105492e-001	9.125559e-001
2483750000	-2.102937e-001	9.131873e-001
2485000000	-2.095652e-001	9.130220e-001
2486250000	-2.083291e-001	9.120976e-001
2487500000	-2.075942e-001	9.127672e-001
2488750000	-2.069673e-001	9.121251e-001
2490000000	-2.063411e-001	9.118953e-001
2491250000	-2.051156e-001	9.119776e-001
2492500000	-2.039290e-001	9.117151e-001
2493750000	-2.035023e-001	9.115467e-001
2495000000	-2.026358e-001	9.115480e-001
2496250000	-2.015365e-001	9.112918e-001
2497500000	-2.007802e-001	9.116476e-001
2498750000	-1.996996e-001	9.109608e-001
2500000000	-1.987663e-001	9.107174e-001
2501250000	-1.979177e-001	9.107927e-001
2502500000	-1.967390e-001	9.106287e-001
2503750000	-1.967004e-001	9.105720e-001
2505000000	-1.945502e-001	9.102945e-001
2506250000	-1.943770e-001	9.101447e-001
2507500000	-1.933999e-001	9.102932e-001
2508750000	-1.928789e-001	9.098796e-001
2510000000	-1.908988e-001	9.098540e-001
2511250000	-1.908800e-001	9.097053e-001
2512500000	-1.900000e-001	9.097330e-001
2513750000	-1.884391e-001	9.100557e-001
2515000000	-1.875795e-001	9.101328e-001
2516250000	-1.865946e-001	9.096453e-001
2517500000	-1.854630e-001	9.096524e-001
2518750000	-1.843646e-001	9.092111e-001
2520000000	-1.839327e-001	9.095439e-001
2521250000	-1.826438e-001	9.091993e-001
2522500000	-1.823607e-001	9.090833e-001
2523750000	-1.805850e-001	9.092797e-001
2525000000	-1.797128e-001	9.091865e-001
2526250000	-1.785012e-001	9.092236e-001
2527500000	-1.776364e-001	9.087458e-001
2528750000	-1.774106e-001	9.087963e-001
2530000000	-1.763181e-001	9.087287e-001
2531250000	-1.752890e-001	9.088968e-001
2532500000	-1.746383e-001	9.089899e-001
2533750000	-1.733251e-001	9.088614e-001
2535000000	-1.723263e-001	9.085923e-001
2536250000	-1.715649e-001	9.086459e-001
2537500000	-1.703066e-001	9.087483e-001
2538750000	-1.695312e-001	9.084289e-001
2540000000	-1.683719e-001	9.085575e-001
2541250000	-1.672229e-001	9.086396e-001
2542500000	-1.662029e-001	9.085592e-001
2543750000	-1.652596e-001	9.086618e-001
2545000000	-1.644040e-001	9.082793e-001
2546250000	-1.632426e-001	9.081702e-001
2547500000	-1.624559e-001	9.079885e-001
2548750000	-1.618008e-001	9.077462e-001
2550000000	-1.608730e-001	9.076346e-001
2551250000	-1.600456e-001	9.076666e-001
2552500000	-1.591004e-001	9.072450e-001
2553750000	-1.581394e-001	9.071611e-001
2555000000	-1.571084e-001	9.069511e-001
2556250000	-1.562075e-001	9.072055e-001
2557500000	-1.554416e-001	9.072385e-001
2558750000	-1.547300e-001	9.067051e-001
2560000000	-1.537202e-001	9.066340e-001
2561250000	-1.532783e-001	9.067554e-001
2562500000	-1.521096e-001	9.064791e-001
2563750000	-1.512670e-001	9.065368e-001
2565000000	-1.508761e-001	9.058813e-001
2566250000	-1.497653e-001	9.061513e-001
2567500000	-1.492820e-001	9.057874e-001
2568750000	-1.483788e-001	9.061819e-001
2570000000	-1.476066e-001	9.056401e-001
2571250000	-1.470623e-001	9.057216e-001
2572500000	-1.463064e-001	9.055770e-001
2573750000	-1.453901e-001	9.054020e-001
2575000000	-1.445420e-001	9.056233e-001
2576250000	-1.432648e-001	9.055828e-001
2577500000	-1.429182e-001	9.053578e-001
2578750000	-1.423432e-001	9.053253e-001
2580000000	-1.409521e-001	9.050953e-001
2581250000	-1.397805e-001	9.048942e-001
2582500000	-1.392883e-001	9.044600e-001
2583750000	-1.383695e-001	9.040406e-001
2585000000	-1.372277e-001	9.041241e-001
2586250000	-1.362966e-001	9.039499e-001
2587500000	-1.357188e-001	9.040402e-001
2588750000	-1.346206e-001	9.033021e-001
2590000000	-1.339281e-001	9.036214e-001
2591250000	-1.325143e-001	9.030306e-001
2592500000	-1.320793e-001	9.027027e-001
2593750000	-1.306338e-001	9.025457e-001
2595000000	-1.304641e-001	9.019368e-001
2596250000	-1.293352e-001	9.015300e-001
2597500000	-1.286530e-001	9.015455e-001
2598750000	-1.275512e-001	9.013717e-001
2600000000	-1.273790e-001	9.015199e-001
2601250000	-1.259854e-001	9.016879e-001
2602500000	-1.247523e-001	9.008847e-001
2603750000	-1.237595e-001	9.005734e-001
2605000000	-1.230388e-001	8.999281e-001
2606250000	-1.220981e-001	8.995011e-001
2607500000	-1.216719e-001	8.989737e-001
2608750000	-1.208129e-001	8.987846e-001
2610000000	-1.195404e-001	8.985160e-001
2611250000	-1.190014e-001	8.983638e-001
2612500000	-1.183826e-001	8.984142e-001
2613750000	-1.168769e-001	8.983922e-001
2615000000	-1.164300e-001	8.983764e-001
2616250000	-1.151454e-001	8.975681e-001
2617500000	-1.142055e-001	8.973868e-001
2618750000	-1.134797e-001	8.975166e-001
