!Agilent Technologies,E8364A,US41440284,A.06.04.32
!Agilent E8364A: A.06.04.32
!Date: Wednesday, May 24, 2023 11:06:48
!Correction: S11(Full 2 Port(1,2)) S21(Full 2 Port(1,2)) S12(Full 2 Port(1,2)) S22(Full 2 Port(1,2)) 
!S2P File: Measurements: S11, S21, S12, S22:
# Hz S  RI   R 50
4000000000 3.545772e-001 -8.035690e-001 -2.163506e+000 3.945937e+000 4.941468e-002 5.470407e-002 3.980905e-001 -3.329479e-001
4080000000 3.297153e-001 -8.066288e-001 -2.077135e+000 3.979139e+000 5.169709e-002 5.597178e-002 3.888201e-001 -3.414315e-001
4160000000 3.041722e-001 -7.987313e-001 -1.954920e+000 4.014560e+000 5.218911e-002 5.607751e-002 3.813111e-001 -3.373609e-001
4240000000 2.787186e-001 -8.021235e-001 -1.856067e+000 4.045530e+000 5.395888e-002 5.653168e-002 3.685042e-001 -3.424446e-001
4320000000 2.522621e-001 -8.031378e-001 -1.751457e+000 4.074273e+000 5.567938e-002 5.717552e-002 3.565838e-001 -3.474047e-001
4400000000 2.239083e-001 -8.006520e-001 -1.638408e+000 4.109519e+000 5.726535e-002 5.718358e-002 3.470419e-001 -3.458724e-001
4480000000 2.017922e-001 -8.111120e-001 -1.571983e+000 4.132161e+000 6.010771e-002 5.699272e-002 3.284699e-001 -3.562729e-001
4560000000 1.653684e-001 -8.085278e-001 -1.418441e+000 4.143215e+000 6.171447e-002 5.813485e-002 3.188111e-001 -3.600763e-001
4640000000 1.412219e-001 -8.029622e-001 -1.307512e+000 4.131765e+000 6.263737e-002 5.682781e-002 3.036947e-001 -3.577873e-001
4720000000 1.097156e-001 -8.115402e-001 -1.205492e+000 4.174770e+000 6.535903e-002 5.694144e-002 2.882059e-001 -3.681199e-001
4800000000 8.230254e-002 -8.072292e-001 -1.088881e+000 4.147268e+000 6.611597e-002 5.630638e-002 2.729683e-001 -3.680581e-001
4880000000 5.205629e-002 -8.140008e-001 -9.890707e-001 4.168316e+000 6.920337e-002 5.561406e-002 2.547287e-001 -3.769525e-001
4960000000 2.048826e-002 -8.094765e-001 -8.865671e-001 4.151933e+000 7.039626e-002 5.587174e-002 2.382044e-001 -3.812577e-001
5040000000 -6.945255e-003 -7.960702e-001 -7.593724e-001 4.097911e+000 7.032010e-002 5.525710e-002 2.231974e-001 -3.805106e-001
5120000000 -3.234929e-002 -7.993736e-001 -6.422918e-001 4.115587e+000 7.268349e-002 5.235474e-002 2.067626e-001 -3.860480e-001
5200000000 -6.630588e-002 -7.995675e-001 -5.640578e-001 4.112918e+000 7.592718e-002 5.367644e-002 1.857016e-001 -3.960074e-001
5280000000 -9.259254e-002 -7.871786e-001 -4.355513e-001 4.063421e+000 7.551916e-002 5.289225e-002 1.717850e-001 -3.978374e-001
5360000000 -1.223784e-001 -7.827718e-001 -3.322281e-001 4.042018e+000 7.786197e-002 5.339294e-002 1.522405e-001 -4.052445e-001
5440000000 -1.500999e-001 -7.730917e-001 -2.156999e-001 4.008479e+000 8.002365e-002 5.282399e-002 1.298535e-001 -4.100023e-001
5520000000 -1.786022e-001 -7.617538e-001 -9.109505e-002 3.959126e+000 8.443106e-002 5.000843e-002 1.055938e-001 -4.102224e-001
5600000000 -2.071492e-001 -7.519329e-001 -1.414049e-002 3.964823e+000 8.980794e-002 4.850763e-002 8.055044e-002 -4.109371e-001
5680000000 -2.220592e-001 -7.289967e-001 5.932496e-002 3.845880e+000 8.885065e-002 4.672020e-002 6.857814e-002 -4.003836e-001
5760000000 -2.357530e-001 -7.180085e-001 1.308927e-001 3.808203e+000 9.008501e-002 4.156143e-002 5.587369e-002 -3.952054e-001
5840000000 -2.487063e-001 -7.113290e-001 1.889075e-001 3.783039e+000 9.068400e-002 3.935162e-002 4.552633e-002 -3.928456e-001
5920000000 -2.582671e-001 -7.015698e-001 2.096703e-001 3.718834e+000 8.997200e-002 3.796885e-002 3.878318e-002 -3.901002e-001
6000000000 -2.675392e-001 -7.008842e-001 2.772138e-001 3.720761e+000 9.003690e-002 3.553905e-002 3.455045e-002 -3.941480e-001
6080000000 -2.781176e-001 -6.966975e-001 3.093075e-001 3.676546e+000 8.878971e-002 3.590209e-002 2.890614e-002 -3.972853e-001
6160000000 -2.848324e-001 -6.980800e-001 3.674682e-001 3.657641e+000 8.775397e-002 3.329551e-002 2.234750e-002 -4.017189e-001
6240000000 -2.975091e-001 -6.967565e-001 4.476478e-001 3.641419e+000 8.874515e-002 3.376902e-002 1.428534e-002 -4.094633e-001
6320000000 -3.096874e-001 -6.940978e-001 5.116619e-001 3.629071e+000 8.946476e-002 3.262552e-002 1.956850e-003 -4.112049e-001
6400000000 -3.199567e-001 -6.903797e-001 5.830198e-001 3.622465e+000 9.181780e-002 3.139643e-002 -5.732805e-003 -4.142576e-001
6480000000 -3.314442e-001 -6.878189e-001 6.295456e-001 3.596886e+000 9.300150e-002 3.134700e-002 -1.230488e-002 -4.141862e-001
6560000000 -3.368528e-001 -6.810997e-001 6.937737e-001 3.584367e+000 9.377165e-002 2.952328e-002 -1.630482e-002 -4.137131e-001
6640000000 -3.421575e-001 -6.769378e-001 7.515019e-001 3.557743e+000 9.552775e-002 2.782641e-002 -1.799605e-002 -4.129896e-001
6720000000 -3.508922e-001 -6.706870e-001 7.992071e-001 3.577646e+000 9.796819e-002 2.725055e-002 -2.373525e-002 -4.147879e-001
6800000000 -3.532938e-001 -6.637707e-001 8.295943e-001 3.535653e+000 9.786599e-002 2.795449e-002 -2.191626e-002 -4.131489e-001
6880000000 -3.567715e-001 -6.570860e-001 8.689232e-001 3.536000e+000 9.937389e-002 2.724466e-002 -2.311120e-002 -4.118818e-001
6960000000 -3.557110e-001 -6.518214e-001 9.191855e-001 3.501922e+000 9.925403e-002 2.558594e-002 -1.969415e-002 -4.077166e-001
7040000000 -3.575518e-001 -6.454117e-001 9.579923e-001 3.509788e+000 1.016270e-001 2.402112e-002 -2.073090e-002 -4.045913e-001
7120000000 -3.588972e-001 -6.388800e-001 9.980107e-001 3.487228e+000 1.020629e-001 2.322388e-002 -1.827439e-002 -3.998180e-001
7200000000 -3.576094e-001 -6.296519e-001 1.020507e+000 3.460197e+000 1.020096e-001 2.215382e-002 -1.309572e-002 -3.928185e-001
7280000000 -3.545899e-001 -6.239474e-001 1.053490e+000 3.451924e+000 1.024007e-001 2.068148e-002 -9.242598e-003 -3.872504e-001
7360000000 -3.510100e-001 -6.177402e-001 1.076018e+000 3.429951e+000 1.029935e-001 1.885329e-002 -4.721337e-003 -3.818991e-001
7440000000 -3.527211e-001 -6.124095e-001 1.118629e+000 3.438762e+000 1.042135e-001 1.827113e-002 -2.705599e-003 -3.785771e-001
7520000000 -3.515003e-001 -6.067646e-001 1.138045e+000 3.433429e+000 1.039582e-001 1.847083e-002 3.539870e-003 -3.743213e-001
7600000000 -3.535620e-001 -6.012837e-001 1.174661e+000 3.432065e+000 1.042035e-001 1.787726e-002 5.925534e-003 -3.704023e-001
7680000000 -3.560133e-001 -5.956558e-001 1.207842e+000 3.420016e+000 1.056277e-001 1.792488e-002 6.839593e-003 -3.675201e-001
7760000000 -3.662609e-001 -5.817791e-001 1.256061e+000 3.412162e+000 1.066415e-001 1.821599e-002 4.803273e-003 -3.600519e-001
7840000000 -3.709005e-001 -5.698357e-001 1.282322e+000 3.388859e+000 1.082759e-001 1.680116e-002 7.498708e-003 -3.527612e-001
7920000000 -3.742704e-001 -5.533261e-001 1.314826e+000 3.385833e+000 1.090728e-001 1.572881e-002 8.394155e-003 -3.456155e-001
8000000000 -3.739176e-001 -5.422609e-001 1.328398e+000 3.386921e+000 1.089704e-001 1.392478e-002 1.225702e-002 -3.387675e-001
8080000000 -3.775246e-001 -5.314998e-001 1.371827e+000 3.387568e+000 1.090600e-001 1.321293e-002 1.332603e-002 -3.379677e-001
8160000000 -3.838249e-001 -5.211718e-001 1.428006e+000 3.394183e+000 1.091938e-001 1.251191e-002 1.279049e-002 -3.370719e-001
8240000000 -3.905139e-001 -5.114446e-001 1.483956e+000 3.403905e+000 1.087087e-001 1.227275e-002 1.224769e-002 -3.352881e-001
8320000000 -4.022461e-001 -5.020177e-001 1.564860e+000 3.395578e+000 1.099744e-001 1.145405e-002 6.186768e-003 -3.385573e-001
8400000000 -4.131820e-001 -4.886532e-001 1.655937e+000 3.390985e+000 1.105459e-001 1.157918e-002 -1.322245e-003 -3.406805e-001
8480000000 -4.276224e-001 -4.740887e-001 1.740880e+000 3.345806e+000 1.116668e-001 1.130572e-002 -9.045295e-003 -3.430611e-001
8560000000 -4.392968e-001 -4.593655e-001 1.837909e+000 3.289539e+000 1.128816e-001 1.052877e-002 -2.294325e-002 -3.444026e-001
8640000000 -4.527291e-001 -4.418546e-001 1.922704e+000 3.234621e+000 1.140457e-001 9.943818e-003 -3.663667e-002 -3.453328e-001
8720000000 -4.653614e-001 -4.261374e-001 1.985660e+000 3.165085e+000 1.148404e-001 8.384131e-003 -5.284304e-002 -3.425455e-001
8800000000 -4.750588e-001 -4.060890e-001 2.065671e+000 3.074408e+000 1.167990e-001 7.623416e-003 -7.002205e-002 -3.429943e-001
8880000000 -4.835542e-001 -3.890428e-001 2.109971e+000 2.987314e+000 1.178841e-001 6.194635e-003 -8.665524e-002 -3.393805e-001
8960000000 -4.930576e-001 -3.735736e-001 2.169506e+000 2.889202e+000 1.199285e-001 4.371448e-003 -1.051271e-001 -3.383960e-001
9040000000 -5.022015e-001 -3.602068e-001 2.208514e+000 2.810783e+000 1.219394e-001 2.669587e-003 -1.243258e-001 -3.367480e-001
9120000000 -5.130818e-001 -3.481911e-001 2.218150e+000 2.743555e+000 1.241328e-001 2.629157e-005 -1.457699e-001 -3.332105e-001
9200000000 -5.295004e-001 -3.380377e-001 2.222440e+000 2.655373e+000 1.264743e-001 -3.660632e-003 -1.687891e-001 -3.292974e-001
9280000000 -5.487975e-001 -3.243748e-001 2.242708e+000 2.630809e+000 1.273031e-001 -7.487050e-003 -1.918592e-001 -3.187506e-001
9360000000 -5.721477e-001 -3.034783e-001 2.280772e+000 2.582188e+000 1.272337e-001 -1.169396e-002 -2.116431e-001 -3.056256e-001
9440000000 -5.908503e-001 -2.762401e-001 2.345062e+000 2.522602e+000 1.275368e-001 -1.632535e-002 -2.292934e-001 -2.894248e-001
9520000000 -6.021125e-001 -2.453621e-001 2.389722e+000 2.445229e+000 1.267864e-001 -2.070583e-002 -2.421687e-001 -2.729368e-001
9600000000 -6.069064e-001 -2.147143e-001 2.421474e+000 2.354975e+000 1.242254e-001 -2.416444e-002 -2.483046e-001 -2.563840e-001
9680000000 -6.043445e-001 -1.855290e-001 2.463673e+000 2.245480e+000 1.221853e-001 -2.895837e-002 -2.531528e-001 -2.422992e-001
9760000000 -5.933143e-001 -1.611582e-001 2.443848e+000 2.143552e+000 1.182787e-001 -3.245878e-002 -2.493240e-001 -2.305897e-001
9840000000 -5.830135e-001 -1.431426e-001 2.433629e+000 2.068519e+000 1.157305e-001 -3.468531e-002 -2.452867e-001 -2.240609e-001
9920000000 -5.680409e-001 -1.302252e-001 2.408286e+000 1.992846e+000 1.124506e-001 -3.627652e-002 -2.388284e-001 -2.215535e-001
10000000000 -5.561137e-001 -1.235794e-001 2.375402e+000 1.948256e+000 1.089721e-001 -3.745235e-002 -2.308470e-001 -2.221396e-001
10080000000 -5.462293e-001 -1.209690e-001 2.363786e+000 1.913739e+000 1.057704e-001 -3.795590e-002 -2.250068e-001 -2.284702e-001
10160000000 -5.381387e-001 -1.216389e-001 2.343202e+000 1.892795e+000 1.038529e-001 -3.815489e-002 -2.196559e-001 -2.355545e-001
10240000000 -5.334203e-001 -1.229163e-001 2.343174e+000 1.882147e+000 1.015437e-001 -3.827228e-002 -2.137679e-001 -2.431226e-001
10320000000 -5.307119e-001 -1.258077e-001 2.351477e+000 1.881769e+000 9.943550e-002 -3.774347e-002 -2.094543e-001 -2.545375e-001
10400000000 -5.321144e-001 -1.298508e-001 2.368887e+000 1.886838e+000 9.852590e-002 -3.771475e-002 -2.065145e-001 -2.664608e-001
10480000000 -5.338652e-001 -1.317106e-001 2.410249e+000 1.876307e+000 9.704857e-002 -3.753099e-002 -2.038405e-001 -2.788829e-001
10560000000 -5.391359e-001 -1.341756e-001 2.446563e+000 1.870800e+000 9.593785e-002 -3.664693e-002 -2.024920e-001 -2.898049e-001
10640000000 -5.451993e-001 -1.339269e-001 2.507273e+000 1.853783e+000 9.570666e-002 -3.591780e-002 -2.024989e-001 -3.030318e-001
10720000000 -5.520110e-001 -1.311975e-001 2.546270e+000 1.823373e+000 9.629326e-002 -3.567158e-002 -2.022238e-001 -3.116595e-001
10800000000 -5.585828e-001 -1.262314e-001 2.621811e+000 1.805378e+000 9.633081e-002 -3.505224e-002 -2.025826e-001 -3.204497e-001
10880000000 -5.661447e-001 -1.227897e-001 2.679776e+000 1.750269e+000 9.673291e-002 -3.493088e-002 -2.037506e-001 -3.281715e-001
10960000000 -5.735422e-001 -1.124923e-001 2.745425e+000 1.718087e+000 9.709328e-002 -3.502622e-002 -2.057627e-001 -3.322329e-001
11040000000 -5.782898e-001 -1.036242e-001 2.795991e+000 1.652466e+000 9.831771e-002 -3.547386e-002 -2.045610e-001 -3.345987e-001
11120000000 -5.828520e-001 -9.190428e-002 2.846250e+000 1.606928e+000 9.936169e-002 -3.561079e-002 -2.038185e-001 -3.344839e-001
11200000000 -5.864150e-001 -7.948360e-002 2.905030e+000 1.535388e+000 1.001161e-001 -3.593885e-002 -2.017577e-001 -3.348672e-001
11280000000 -5.890493e-001 -6.567526e-002 2.957548e+000 1.478440e+000 1.009803e-001 -3.669932e-002 -1.994693e-001 -3.335245e-001
11360000000 -5.903683e-001 -5.006353e-002 3.011399e+000 1.405929e+000 1.018148e-001 -3.811654e-002 -1.979933e-001 -3.303980e-001
11440000000 -5.919839e-001 -3.424746e-002 3.048980e+000 1.351744e+000 1.036448e-001 -3.840546e-002 -1.928053e-001 -3.251717e-001
11520000000 -5.917247e-001 -1.855785e-002 3.086564e+000 1.282811e+000 1.035709e-001 -3.973655e-002 -1.908906e-001 -3.201677e-001
11600000000 -5.907449e-001 -2.530290e-003 3.117782e+000 1.197216e+000 1.042258e-001 -4.085542e-002 -1.880423e-001 -3.144509e-001
11680000000 -5.901353e-001 1.540073e-002 3.149269e+000 1.135254e+000 1.055760e-001 -4.268302e-002 -1.846597e-001 -3.066449e-001
11760000000 -5.869786e-001 3.218527e-002 3.163359e+000 1.056898e+000 1.061566e-001 -4.340689e-002 -1.815445e-001 -2.978911e-001
11840000000 -5.845479e-001 4.999471e-002 3.182993e+000 9.909696e-001 1.067793e-001 -4.515291e-002 -1.810692e-001 -2.884771e-001
11920000000 -5.834420e-001 6.747189e-002 3.192980e+000 9.103553e-001 1.068858e-001 -4.686877e-002 -1.798211e-001 -2.782373e-001
12000000000 -5.795122e-001 8.372502e-002 3.194467e+000 8.488678e-001 1.072587e-001 -4.932966e-002 -1.794810e-001 -2.674661e-001
12080000000 -5.775298e-001 1.034724e-001 3.221051e+000 7.724333e-001 1.067459e-001 -5.102592e-002 -1.799763e-001 -2.568323e-001
12160000000 -5.735216e-001 1.209379e-001 3.217198e+000 7.106357e-001 1.073818e-001 -5.301540e-002 -1.819528e-001 -2.443922e-001
12240000000 -5.689505e-001 1.411489e-001 3.230496e+000 6.293734e-001 1.067171e-001 -5.501323e-002 -1.835705e-001 -2.324047e-001
12320000000 -5.657234e-001 1.557442e-001 3.225375e+000 5.665335e-001 1.064894e-001 -5.742065e-002 -1.881868e-001 -2.199717e-001
12400000000 -5.599569e-001 1.756999e-001 3.223641e+000 5.155125e-001 1.059289e-001 -5.893841e-002 -1.920461e-001 -2.067210e-001
12480000000 -5.544379e-001 1.925897e-001 3.223324e+000 4.415918e-001 1.042394e-001 -6.036309e-002 -1.976673e-001 -1.942363e-001
12560000000 -5.506035e-001 2.079006e-001 3.213252e+000 3.785531e-001 1.039088e-001 -6.327224e-002 -2.040654e-001 -1.799041e-001
12640000000 -5.450926e-001 2.227150e-001 3.208120e+000 3.236559e-001 1.027772e-001 -6.478655e-002 -2.120262e-001 -1.674832e-001
12720000000 -5.397730e-001 2.365551e-001 3.200090e+000 2.644871e-001 1.014580e-001 -6.632104e-002 -2.187369e-001 -1.528547e-001
12800000000 -5.355225e-001 2.501162e-001 3.210411e+000 2.051393e-001 1.006726e-001 -6.862850e-002 -2.269868e-001 -1.379132e-001
12880000000 -5.315962e-001 2.637685e-001 3.201582e+000 1.429038e-001 9.929896e-002 -7.012025e-002 -2.344794e-001 -1.243084e-001
12960000000 -5.292578e-001 2.780191e-001 3.197564e+000 7.263410e-002 9.727111e-002 -7.296702e-002 -2.419256e-001 -1.092899e-001
13040000000 -5.268052e-001 2.944878e-001 3.200094e+000 2.139966e-002 9.617324e-002 -7.485956e-002 -2.485887e-001 -9.601486e-002
13120000000 -5.184422e-001 3.097605e-001 3.184098e+000 -5.474634e-002 9.378233e-002 -7.648548e-002 -2.546889e-001 -8.330220e-002
13200000000 -5.133315e-001 3.227004e-001 3.168906e+000 -1.142230e-001 9.192380e-002 -7.816914e-002 -2.605415e-001 -7.260823e-002
13280000000 -5.039662e-001 3.358060e-001 3.133019e+000 -1.753657e-001 8.972184e-002 -7.955090e-002 -2.660456e-001 -6.185852e-002
13360000000 -4.954453e-001 3.468265e-001 3.123051e+000 -2.304328e-001 8.774562e-002 -8.025491e-002 -2.726695e-001 -5.183397e-002
13440000000 -4.890293e-001 3.562868e-001 3.097739e+000 -2.874938e-001 8.595888e-002 -8.211122e-002 -2.773442e-001 -4.427722e-002
13520000000 -4.777648e-001 3.662802e-001 3.070921e+000 -3.407458e-001 8.387649e-002 -8.310767e-002 -2.831439e-001 -3.701107e-002
13600000000 -4.688275e-001 3.738547e-001 3.044554e+000 -3.970587e-001 8.202715e-002 -8.352083e-002 -2.881536e-001 -3.079270e-002
13680000000 -4.603684e-001 3.810758e-001 3.020739e+000 -4.525552e-001 8.005606e-002 -8.452895e-002 -2.929497e-001 -2.534401e-002
13760000000 -4.501660e-001 3.881271e-001 2.994950e+000 -4.976021e-001 7.850318e-002 -8.517034e-002 -2.972859e-001 -2.180573e-002
13840000000 -4.406908e-001 3.928949e-001 2.963706e+000 -5.492231e-001 7.647157e-002 -8.597507e-002 -3.020812e-001 -1.932071e-002
13920000000 -4.313463e-001 4.005410e-001 2.946106e+000 -5.989562e-001 7.441048e-002 -8.716588e-002 -3.056993e-001 -1.595933e-002
14000000000 -4.198867e-001 4.057659e-001 2.921033e+000 -6.454445e-001 7.316127e-002 -8.782798e-002 -3.093256e-001 -1.521501e-002
14080000000 -4.104835e-001 4.098112e-001 2.899320e+000 -6.982672e-001 7.090197e-002 -8.803876e-002 -3.135143e-001 -1.584189e-002
14160000000 -4.005906e-001 4.174336e-001 2.891546e+000 -7.495028e-001 6.852989e-002 -8.961391e-002 -3.168054e-001 -1.509859e-002
14240000000 -3.884256e-001 4.233400e-001 2.870122e+000 -7.951180e-001 6.821407e-002 -8.949152e-002 -3.197115e-001 -1.626227e-002
14320000000 -3.793481e-001 4.277311e-001 2.847989e+000 -8.574444e-001 6.540155e-002 -9.035229e-002 -3.241226e-001 -1.699297e-002
14400000000 -3.681061e-001 4.353901e-001 2.837647e+000 -9.098617e-001 6.372564e-002 -9.182360e-002 -3.254588e-001 -1.646011e-002
14480000000 -3.564642e-001 4.422743e-001 2.823199e+000 -9.673474e-001 6.271864e-002 -9.270390e-002 -3.279642e-001 -1.709363e-002
14560000000 -3.457971e-001 4.498059e-001 2.791707e+000 -1.019629e+000 6.000660e-002 -9.337582e-002 -3.289444e-001 -1.593953e-002
14640000000 -3.308098e-001 4.600939e-001 2.782804e+000 -1.079347e+000 5.938253e-002 -9.480353e-002 -3.274213e-001 -1.427358e-002
14720000000 -3.177483e-001 4.688549e-001 2.744969e+000 -1.149211e+000 5.704959e-002 -9.507114e-002 -3.264050e-001 -1.385761e-002
14800000000 -3.035357e-001 4.793746e-001 2.742373e+000 -1.197320e+000 5.502865e-002 -9.683276e-002 -3.204945e-001 -1.325751e-002
14880000000 -2.833342e-001 4.895000e-001 2.725594e+000 -1.280561e+000 5.389391e-002 -9.944957e-002 -3.156363e-001 -1.245159e-002
14960000000 -2.658782e-001 5.001974e-001 2.693345e+000 -1.336897e+000 5.212439e-002 -9.935753e-002 -3.096576e-001 -1.314512e-002
15040000000 -2.486260e-001 5.114388e-001 2.693211e+000 -1.415039e+000 4.893594e-002 -1.013563e-001 -3.034705e-001 -1.275552e-002
15120000000 -2.267623e-001 5.225101e-001 2.649794e+000 -1.485431e+000 4.749556e-002 -1.030938e-001 -2.959277e-001 -1.329488e-002
15200000000 -2.039365e-001 5.326084e-001 2.639170e+000 -1.573499e+000 4.484012e-002 -1.048881e-001 -2.887596e-001 -1.196717e-002
15280000000 -1.813635e-001 5.432333e-001 2.594064e+000 -1.652851e+000 4.209872e-002 -1.066654e-001 -2.806511e-001 -1.266853e-002
15360000000 -1.549847e-001 5.534198e-001 2.567185e+000 -1.736501e+000 4.027809e-002 -1.091345e-001 -2.727510e-001 -1.036179e-002
15440000000 -1.294411e-001 5.587558e-001 2.493151e+000 -1.826029e+000 3.772108e-002 -1.092293e-001 -2.650706e-001 -8.853826e-003
15520000000 -1.037214e-001 5.634578e-001 2.434503e+000 -1.889678e+000 3.513614e-002 -1.108051e-001 -2.560769e-001 -6.320933e-003
15600000000 -7.878298e-002 5.644749e-001 2.360870e+000 -1.974118e+000 3.318058e-002 -1.120065e-001 -2.490533e-001 -2.926481e-003
15680000000 -5.788013e-002 5.647189e-001 2.276284e+000 -2.026499e+000 3.111448e-002 -1.138879e-001 -2.414909e-001 1.992020e-004
15760000000 -3.890520e-002 5.627185e-001 2.194794e+000 -2.081435e+000 2.856471e-002 -1.155463e-001 -2.362578e-001 5.425182e-003
15840000000 -2.157878e-002 5.613633e-001 2.108250e+000 -2.114138e+000 2.649323e-002 -1.160414e-001 -2.282427e-001 1.074318e-002
15920000000 -9.699294e-003 5.594408e-001 2.034935e+000 -2.150630e+000 2.177355e-002 -1.176929e-001 -2.236097e-001 1.911508e-002
16000000000 2.939055e-003 5.607486e-001 1.969319e+000 -2.191303e+000 1.940483e-002 -1.198915e-001 -2.185875e-001 2.738115e-002
16080000000 1.497383e-002 5.582291e-001 1.903403e+000 -2.202570e+000 1.696085e-002 -1.207010e-001 -2.119115e-001 3.608124e-002
16160000000 2.389954e-002 5.587895e-001 1.825603e+000 -2.233882e+000 1.303703e-002 -1.211384e-001 -2.084841e-001 4.403925e-002
