#  HZ   S   MA   R     50.00 
! Rohde & Schwarz ZVA67 4Ports - Version 4.11 - 1305.7002k04 SN: 101051
! Date: 2023-05-31 11:51:04
! Measurements: S11 S21 S12 S22 
! 
 5.000000000000000E7     1.012058867695432  -6.637324349470108   3.109561977309181E-4  -6.711385366663826E1   1.123388211946234E-4  -1.232719526164333E2   9.980460058465297E-1  -6.996909410784389  
 1.000000000000000E8     1.003399646606877  -1.335280266015116E1   1.093701731155877E-5  -8.371069381840543E1   5.442430610131663E-5   1.083481981429720E2   1.004132302708426  -1.378955769474275E1  
 1.500000000000000E8     1.006072910441411  -2.038045417018818E1   6.362212996845999E-5  -1.081844315163674E1   1.668067983516358E-5   6.690655022483720E1   1.006869300222579  -2.046532819382623E1  
 2.000000000000000E8     1.004032722995300  -2.675178086193497E1   5.908742951348868E-5   1.374047429528129E2   8.267530192769644E-5   1.047864633127591E2   1.008235244324031  -2.726029720354144E1  
 2.500000000000000E8     1.004128071555063  -3.351791153854149E1   6.567735197651784E-5   1.068117356272893E2   2.518157640515114E-5   1.023118863022701E1   1.009205993643055  -3.421059931672556E1  
 3.000000000000000E8     1.008228242262054  -4.023509864629148E1   1.238721242024676E-5   1.300376069673025E2   5.484189867493015E-5   5.135028367414919   1.012061114897514  -4.107358719560013E1  
 3.500000000000000E8     1.008940637240048  -4.682585334396224E1   5.105306412001125E-5  -3.318779437328505   2.287951384292274E-5   4.120564546085696E1   1.011712229433265  -4.791450685987333E1  
 4.000000000000000E8     1.012312424434726  -5.329484353447803E1   5.519450784026168E-5   2.488741049247670E1   1.931503140180096E-5   9.090610236671526E1   1.015538830995652  -5.486300392692290E1  
 4.500000000000000E8     1.012621579229724  -5.991701551709674E1   8.860278797698127E-6  -3.739720145409097E1   4.040899169436538E-5   4.535196325653118E1   1.015374851783210  -6.171132180563262E1  
 5.000000000000000E8     1.015762324672697  -6.663531916662650E1   5.279297325879184E-5   6.283487224374273   4.007906798270332E-5   5.126910102327251E1   1.015867301949119  -6.871620422047747E1  
 5.500000000000000E8     1.015469835099479  -7.327255578185812E1   6.683570449244780E-5   2.489922911550826E1   5.264205603521551E-5  -2.033234932394001   1.013130576103821  -7.575499129631514E1  
 6.000000000000000E8     1.015516981874201  -8.009849029072738E1   3.140991948766575E-5  -1.486104675551895E1   5.528037772428186E-5   4.431785098268975   1.011813671424814  -8.278412098458838E1  
 6.500000000000000E8     1.016663393000565  -8.685365714678447E1   9.622067198501929E-5   1.486653355110398E1   1.111892245026598E-4   1.022527401245854E1   1.010660279648084  -8.969274060597556E1  
 7.000000000000000E8     1.013101600199176  -9.381431050099639E1   6.076807384981457E-5  -2.968141255586346E1   5.756432358438806E-5   1.718377546301360   1.008111404766182  -9.679199286078512E1  
 7.500000000000000E8     1.010732744915896  -1.007850143309790E2   3.646079015469287E-5  -3.868311715382902E1   3.138617196337825E-5  -3.151471086373444E1   1.003502833519089  -1.037519950116421E2  
 8.000000000000000E8     1.005915486508986  -1.077368428909329E2   7.070279733906015E-5  -3.124385528869776E1   6.948509666288016E-5  -2.600981478588531E1   9.984428802082987E-1  -1.108088479977945E2  
 8.500000000000000E8     1.003618409985955  -1.147117854688609E2   8.257675656890746E-5  -1.510264634451665E-3   8.825433729504621E-5  -5.106903821688657E1   9.957340313034677E-1  -1.177794366808869E2  
 9.000000000000000E8     9.992322949120545E-1  -1.216742692185036E2   7.144075376730168E-5  -5.543248664967877E1   9.947969648783616E-5  -3.352623327932472E1   9.936513178065709E-1  -1.247366172124953E2  
 9.500000000000000E8     9.953400038491195E-1  -1.287178536958659E2   1.126966582941136E-4  -3.864161559064943E1   9.945872387403470E-5  -4.941767444040713E1   9.924714977703992E-1  -1.315983400494748E2  
 1.000000000000000E9     9.912327070702268E-1  -1.357492098980232E2   1.220348577576345E-4  -3.829358147524174E1   9.292176645018671E-5  -6.142724423490088E1   9.918433649542985E-1  -1.384475465482528E2  
 1.050000000000000E9     9.894904015979777E-1  -1.426731309875979E2   1.087578744247014E-4  -6.414140277632579E1   1.135375381705476E-4  -5.193503819743454E1   9.911062506679167E-1  -1.452589582911549E2  
 1.100000000000000E9     9.856379918705752E-1  -1.496484536153739E2   1.454357678398329E-4  -6.393373236743252E1   1.297370164422334E-4  -5.201911941601361E1   9.898061886216237E-1  -1.520593041049353E2  
 1.150000000000000E9     9.829689781959349E-1  -1.565128155777960E2   1.192699040427944E-4  -8.084821683306203E1   1.355976710785136E-4  -7.246565466896401E1   9.890537710919903E-1  -1.588776284875866E2  
 1.200000000000000E9     9.799783359307744E-1  -1.634629998375300E2   1.578742917590195E-4  -9.280555760149272E1   1.680765723240587E-4  -8.072930338645254E1   9.887051081986367E-1  -1.656840552080158E2  
 1.250000000000000E9     9.794303923654470E-1  -1.701459195923022E2   1.650948916340160E-4  -8.457670569487900E1   1.543270939029554E-4  -9.420135900655903E1   9.891610230137793E-1  -1.724135133467545E2  
 1.300000000000000E9     9.786437886808783E-1  -1.768791025386639E2   1.434416524846389E-4  -9.007870863712761E1   1.588715788800163E-4  -9.515220636425323E1   9.901549407100133E-1  -1.791164147635045E2  
 1.350000000000000E9     9.778287799249475E-1   1.764259773154267E2   1.772466202056830E-4  -1.024057043733532E2   1.861837465053877E-4  -1.087730689518106E2   9.902183495180467E-1   1.741927078952158E2  
 1.400000000000000E9     9.779449532362335E-1   1.698232367431133E2   1.959668106379773E-4  -1.154801419824599E2   1.667121517071086E-4  -1.115231807851534E2   9.910642914710378E-1   1.675144436651145E2  
 1.450000000000000E9     9.780385011208692E-1   1.632713046082100E2   2.145638534922563E-4  -1.130029574867078E2   2.028835484658943E-4  -1.177021158878880E2   9.919201751444883E-1   1.608546020810534E2  
 1.500000000000000E9     9.797851754316690E-1   1.567715106742482E2   2.377741654604156E-4  -1.316688644521456E2   2.104744609913167E-4  -1.289309341722816E2   9.930001061164453E-1   1.542087709412877E2  
 1.550000000000000E9     9.801519576872102E-1   1.503018166257892E2   2.267067320428942E-4  -1.301021240016958E2   2.324666545224731E-4  -1.329430666486408E2   9.932603383643702E-1   1.475427082890838E2  
 1.600000000000000E9     9.812117516679884E-1   1.438407712512644E2   2.586027128143432E-4  -1.488290578861153E2   2.962877143131221E-4  -1.489086924520789E2   9.927626934595039E-1   1.408642695761474E2  
 1.650000000000000E9     9.820366112804798E-1   1.374362222820511E2   3.232440287231699E-4  -1.571496910654854E2   3.219093341367905E-4  -1.594893189480721E2   9.934119999174489E-1   1.342322948406679E2  
 1.700000000000000E9     9.834165037906856E-1   1.310588772128639E2   3.823348468978553E-4  -1.719363326549242E2   3.541078690789290E-4  -1.693143981762549E2   9.926120222114726E-1   1.276085556540736E2  
 1.750000000000000E9     9.840170749112903E-1   1.246850796813691E2   4.328520807735498E-4   1.739592607080807E2   4.542820555178140E-4   1.731394713050393E2   9.917872034020692E-1   1.209623906273393E2  
 1.800000000000000E9     9.830375419747237E-1   1.182826429856490E2   4.600855200550086E-4   1.476718729072580E2   4.299833076395877E-4   1.474617489157936E2   9.898791583261632E-1   1.142789632218865E2  
 1.850000000000000E9     9.814783711670772E-1   1.117413683859978E2   4.371260456496928E-4   1.312409763238719E2   4.406624105913621E-4   1.352351783861166E2   9.882497263963803E-1   1.075634334911245E2  
 1.900000000000000E9     9.811670461861034E-1   1.053263092536287E2   4.083526693178040E-4   1.112216763623186E2   4.125149425118448E-4   1.120540568564167E2   9.856807611585982E-1   1.009594001873197E2  
 1.950000000000000E9     9.804536658029707E-1   9.881358765402612E1   3.191084900530924E-4   1.015583033376282E2   3.434732621816478E-4   9.142472202130233E1   9.828985105246727E-1   9.422344370649110E1  
 2.000000000000000E9     9.790887861031210E-1   9.229903264624254E1   2.764380710983450E-4   8.857468834204852E1   2.665885438968896E-4   9.052574285357959E1   9.810646394473406E-1   8.755939817404725E1  
 2.050000000000000E9     9.773908469716742E-1   8.555542416708165E1   3.170876973916811E-4   8.688174526151234E1   3.028636265665327E-4   9.131890877143584E1   9.801265869308120E-1   8.086102951916371E1  
 2.100000000000000E9     9.756934632925848E-1   7.892914965514338E1   2.719096878032800E-4   7.366560371086862E1   2.493094608739268E-4   7.045004964842092E1   9.794486030224585E-1   7.428125189717213E1  
 2.150000000000000E9     9.739973664320581E-1   7.222183632976831E1   2.388845418147833E-4   6.496847565387053E1   2.391459568725101E-4   7.098407069599791E1   9.768761402827275E-1   6.756654611536115E1  
 2.200000000000000E9     9.719352020254580E-1   6.552340216091638E1   2.765274701057231E-4   6.365064516851015E1   2.550132401468110E-4   6.175648769347664E1   9.764219839936446E-1   6.097195314090592E1  
 2.250000000000000E9     9.708193482353270E-1   5.865606351572136E1   2.801122833630438E-4   5.893576177082115E1   2.785558105733843E-4   5.151150584985068E1   9.760284463186750E-1   5.433888333429977E1  
 2.300000000000000E9     9.699684415638681E-1   5.187381791803912E1   2.649122445502409E-4   2.945365499402024E1   2.788383066896854E-4   2.809979704310917E1   9.761377844251753E-1   4.777290852506017E1  
 2.350000000000000E9     9.707271696990676E-1   4.504671074647905E1   2.700978778533320E-4   1.315158860831447E1   2.520248819738289E-4   1.437418619462630E1   9.770459849501180E-1   4.124905095883396E1  
 2.400000000000000E9     9.710389867133128E-1   3.838199335915186E1   1.894833447154053E-4  -4.449426893343597   1.939685447439990E-4   3.634429510399814   9.779621510242934E-1   3.471319090263614E1  
 2.450000000000000E9     9.717183853172909E-1   3.149453605813763E1   1.611232931328079E-4  -1.123978592093615E1   2.076062968948786E-4  -8.306278230953424   9.784481264149482E-1   2.816760428986986E1  
 2.500000000000000E9     9.752177008903871E-1   2.475617434642389E1   1.593126893465267E-4  -2.509070531593203E1   1.457820140760499E-4  -2.592128383855940E1   9.780764938768917E-1   2.169738951305023E1  
 2.550000000000000E9     9.764605238969659E-1   1.798380637483896E1   1.132131498237555E-4  -4.536688268134834E1   1.210652375030022E-4  -5.963169423834373E1   9.777555420841199E-1   1.515016313382632E1  
 2.600000000000000E9     9.804591104759235E-1   1.133052599878887E1   7.317020490899372E-5  -8.380818602073381E1   4.457627389276959E-6  -1.245982384759465E1   9.774356663627165E-1   8.682556633695244  
 2.650000000000000E9     9.833501497361702E-1   4.623893565469941   4.234027695095534E-5  -2.700824347700244E1   1.778745570797439E-5  -5.158673431370524E1   9.753298711808616E-1   2.121032611396953  
 2.700000000000000E9     9.861662044912588E-1  -2.070459667676103   2.355829888886232E-5   5.650212194722763E1   3.112967871147933E-5   1.765474115989498E2   9.750544404203156E-1  -4.426346218958968  
 2.750000000000000E9     9.902988381206935E-1  -8.601842031985447   4.198732093182946E-5   1.125634822339844E2   8.833653591084592E-5   3.712638563611970E1   9.738787775807801E-1  -1.100352115457590E1  
 2.800000000000000E9     9.931106141667956E-1  -1.536961936001114E1   1.061814386560600E-4   5.461029227727815E1   1.134673231945340E-4   8.119129240108752E1   9.724746763453126E-1  -1.759337750149861E1  
 2.850000000000000E9     9.967691275376297E-1  -2.190635416099856E1   1.572078349997034E-4   2.828579279189647E1   1.840258610429825E-4   4.365366795795459E1   9.731090260811148E-1  -2.416053680419620E1  
 2.900000000000000E9     9.977216078364198E-1  -2.860459784197375E1   1.469175644679783E-4   2.165877729733102E1   1.725046904557438E-4   1.791275216887092E1   9.731363581269210E-1  -3.072346829362807E1  
 2.950000000000000E9     9.995657052968985E-1  -3.533356934359198E1   2.093806964594823E-4   1.110274641210215E1   1.791782159825473E-4   5.238044715595209   9.741245562716703E-1  -3.731883930552967E1  
 3.000000000000000E9     9.990104808231074E-1  -4.210318741453764E1   2.794423738686542E-4  -1.235629994392612E1   2.485085887903126E-4   1.790525334145889   9.731163151618449E-1  -4.397163027891656E1  
 3.050000000000000E9     1.001041233335291  -4.888991339800999E1   2.681794400360024E-4  -3.929808520264374E1   2.732995928633789E-4  -3.336969508722584E1   9.732595091034491E-1  -5.063280565474855E1  
 3.100000000000000E9     1.000205442090155  -5.568612209614887E1   1.837288886700099E-4  -4.689433756075958E1   2.438948134413264E-4  -4.254807911670275E1   9.731852798423386E-1  -5.733500623158677E1  
 3.150000000000000E9     1.000107770087882  -6.256976567786062E1   2.217099972062609E-4  -4.193988693670598E1   1.940212503490000E-4  -3.921637590673877E1   9.727493099781973E-1  -6.398578373015388E1  
 3.200000000000000E9     9.989724388583540E-1  -6.941686720897083E1   2.452568654420752E-4  -5.580164093169540E1   2.037228723450615E-4  -5.571082702040343E1   9.733019634776243E-1  -7.073793206166040E1  
 3.250000000000000E9     9.972307518123962E-1  -7.634364933549912E1   2.320359675991867E-4  -7.150747785178895E1   2.243961818669920E-4  -7.367741460216308E1   9.753668498104248E-1  -7.755470558280092E1  
 3.300000000000000E9     9.961179375622599E-1  -8.334232717064356E1   2.265813658682337E-4  -9.640913623514962E1   1.668018703249327E-4  -6.734275338750551E1   9.760541375075205E-1  -8.434233493438559E1  
 3.350000000000000E9     9.946106885796470E-1  -9.032373133807694E1   2.120607115231671E-4  -8.760127749981919E1   1.815959787721290E-4  -9.428155401652974E1   9.754449105533737E-1  -9.113713211434856E1  
 3.400000000000000E9     9.913906687802545E-1  -9.738218477840428E1   2.240078944496014E-4  -1.045068433102659E2   2.334625384240652E-4  -1.117509539806926E2   9.766157147475343E-1  -9.798627313426495E1  
 3.450000000000000E9     9.899975739016769E-1  -1.043778616597393E2   2.887306925775367E-4  -1.260871148402449E2   2.238180198923487E-4  -1.324506432331508E2   9.786116897617339E-1  -1.049731714569042E2  
 3.500000000000000E9     9.887246777133680E-1  -1.115317264555670E2   1.951009542949872E-4  -1.332471503394514E2   1.737976461420947E-4  -1.415629124586461E2   9.796957690304956E-1  -1.119397530977581E2  
 3.550000000000000E9     9.891785421294107E-1  -1.186719227866108E2   1.486618694718334E-4  -1.536742045307613E2   1.497677708757797E-4  -1.549496081449341E2   9.810696781333883E-1  -1.189226850393238E2  
 3.600000000000000E9     9.886525559041430E-1  -1.257194616706472E2   1.304424334732942E-4  -1.484972455630294E2   1.422400480226843E-4  -1.411575313318346E2   9.804412536572532E-1  -1.260546018109423E2  
 3.650000000000000E9     9.869248897810972E-1  -1.329599240339196E2   1.014054515523069E-4  -1.441064208129678E2   8.121521753970732E-5  -1.442707575368127E2   9.826729684605994E-1  -1.329886045167881E2  
 3.700000000000000E9     9.861277053127319E-1  -1.399978984983662E2   1.086310244993793E-4  -1.556680020285262E2   1.423505279025888E-4  -1.679867927722379E2   9.852788477813080E-1  -1.400032437595211E2  
 3.750000000000000E9     9.852630027102287E-1  -1.471204427975465E2   5.977072629809585E-5  -1.370638949901844E2   1.016007591992965E-4  -1.357648720690639E2   9.884535046489945E-1  -1.469235702124698E2  
 3.800000000000000E9     9.857324613960572E-1  -1.542098837637534E2   1.786414610400713E-4  -1.675766529823524E2   1.123697592672935E-4  -1.605586292940525E2   9.878292701010568E-1  -1.539493581542003E2  
 3.850000000000000E9     9.860014717650392E-1  -1.612524807994376E2   1.008938969782552E-4  -1.614826553048130E2   1.374568506648199E-4  -1.628795418871806E2   9.901849161356977E-1  -1.610680007525896E2  
 3.900000000000000E9     9.859357330449742E-1  -1.683353945643376E2   1.333378910321518E-4  -1.618731456021861E2   1.100798588872622E-4  -1.644489487997003E2   9.912728802393732E-1  -1.680902221600823E2  
 3.950000000000000E9     9.890064784002762E-1  -1.752777497793164E2   1.248886832138093E-4  -1.493453500926803E2   1.168255647596934E-4   1.774210542599741E2   9.925298911191414E-1  -1.751772794244870E2  
 4.000000000000000E9     9.898594998179781E-1   1.778303324583751E2   5.427400277620296E-5   1.487673980288303E2   1.226425849645197E-4   1.663565441082796E2   9.930856414593070E-1   1.776893171062121E2  
 4.050000000000000E9     9.932434286249219E-1   1.709759692876458E2   7.783523612555176E-5   1.621194921757892E2   1.281905711735938E-4   1.559604120584140E2   9.927504246603822E-1   1.707179079811094E2  
 4.100000000000000E9     9.948823515840879E-1   1.641480640184646E2   9.819416986393657E-5   1.495443623853442E2   8.313988571837179E-5   1.474756289325282E2   9.929911448693902E-1   1.636520332158999E2  
 4.150000000000000E9     9.969169751246249E-1   1.573698040640414E2   6.689880206749006E-5   1.553463647108348E2   9.039948119397006E-5   1.397796772186430E2   9.922720667923548E-1   1.565050050974057E2  
 4.200000000000000E9     9.993694733880388E-1   1.506313461050731E2   9.203398626614448E-5   1.407303310165133E2   8.505289442867414E-5   1.554030266206165E2   9.922094570577053E-1   1.494530940293229E2  
 4.250000000000000E9     1.000311663009802   1.438584132081575E2   1.029383638886074E-4   1.362275963168644E2   8.181223805908545E-5   1.271765843585337E2   9.921864266519371E-1   1.422953588700852E2  
 4.300000000000000E9     1.001908828841859   1.371524925635023E2   1.029503022458390E-4   1.314125627468038E2   9.941932371650889E-5   1.275126218987451E2   9.934632931011456E-1   1.351748788161481E2  
 4.350000000000000E9     1.002012720261222   1.303412843456109E2   6.561253823097863E-5   1.263752250423386E2   8.551541194396247E-5   1.061510637302777E2   9.944931116442715E-1   1.281157677713753E2  
 4.400000000000000E9     1.002766070076035   1.235951680732564E2   6.557391394689571E-5   8.955313220854899E1   4.704148370954251E-5   9.633558404404312E1   9.958069412181481E-1   1.210331647230818E2  
 4.450000000000000E9     1.003566442733045   1.169425211936494E2   3.356885891031908E-5   1.142649968199859E2   4.161267415591767E-5   9.794793187238878E1   9.969657526662799E-1   1.140624167179877E2  
 4.500000000000000E9     1.002100045836011   1.101647956195416E2   4.481641292067355E-5   1.305366161467682E2   4.289401106934431E-5   1.534167156141949E2   9.968258318945941E-1   1.070252534873501E2  
 4.550000000000000E9     1.002326760174005   1.034523542815645E2   6.404532018042072E-5   1.502218311345999E2   6.131746312899530E-5   1.023147247211415E2   9.981413843766923E-1   9.997644130532264E1  
 4.600000000000000E9     1.000489157035721   9.677506886513847E1   7.058160759582141E-5   1.286385404471037E2   5.712368324034326E-5   1.169842964434982E2   9.986829899601100E-1   9.302718410942499E1  
 4.650000000000000E9     1.001258327846901   9.012999837889257E1   7.866142620903951E-5   1.126566770481922E2   8.146043264047074E-5   1.019146764506397E2   1.000277735312830   8.595992846690066E1  
 4.700000000000000E9     1.000269991971167   8.348095990630556E1   8.147436689903619E-5   1.286115315611106E2   6.701460466991172E-5   1.096138684416182E2   1.001039237553588   7.919741386869845E1  
 4.750000000000000E9     1.000962883572790   7.679272218972601E1   7.234016944136308E-5   1.149572544383015E2   7.068481793932523E-5   9.786341168197744E1   1.001826252095560   7.231151351065350E1  
 4.800000000000000E9     1.002660450235018   7.015024662858379E1   3.782169629285911E-5   8.607345874865331E1   5.095998850262394E-5   8.325120131834699E1   9.993877828022126E-1   6.549198090694293E1  
 4.850000000000000E9     1.003866570432862   6.364091104243423E1   8.657612273686141E-5   7.281001743430153E1   9.065021994101243E-5   7.791744137750644E1   9.980309096759985E-1   5.856882185141201E1  
