#  HZ   S   MA   R     50.00 
! Rohde & Schwarz ZVA67 4Ports - Version 4.11 - 1305.7002k04 SN: 101051
! Date: 2023-05-31 11:13:19
! Measurements: S11 S21 S12 S22 
! 
 5.000000000000000E7     1.575300952328583E-2   1.757994237308932E2   1.633088815632331E-4   6.036244351593943E1   1.130666866002871E-4   1.634664934951495   1.855392023530534E-2   1.797294178822923E2  
 1.000000000000000E8     1.459368296787656E-2   1.672288159527704E2   3.755366089067813E-5   1.405031480194134E2   3.587001393906157E-5  -8.183604276229319E1   1.686494730487942E-2   1.757749216678630E2  
 1.500000000000000E8     1.304972345555729E-2   1.591698167807311E2   5.993519336852485E-5  -1.698876100517142E1   1.808269496296416E-4   6.654328191780596E1   1.470713144819371E-2   1.712135350618524E2  
 2.000000000000000E8     1.256648751715253E-2   1.481979143516940E2   5.304159204663813E-5   1.329051058252557E2   1.337132933933534E-4   5.365558841428199E1   1.437299715637432E-2   1.680403950494584E2  
 2.500000000000000E8     1.141921197435274E-2   1.395727785376342E2   1.245590796065195E-4   2.461977901422391E1   6.755450131858317E-5   1.891336963041731E1   1.273729286199987E-2   1.626894338514767E2  
 3.000000000000000E8     1.035185541997430E-2   1.276355851420733E2   7.346719850857382E-5   6.468701825100685E1   1.087679882620113E-4   3.985000368980059E1   1.154860900510623E-2   1.560057287865960E2  
 3.500000000000000E8     9.622399976003107E-3   1.114661491212131E2   9.362091959009449E-5   3.151817711265115E1   1.029238374509487E-4   2.683776774837626E1   1.099836619978038E-2   1.474085449822576E2  
 4.000000000000000E8     9.432628033709433E-3   9.025234449063919E1   1.095856690864950E-4   2.973971974890178E1   7.078474559823085E-5   4.553429267788244E1   9.712536703707631E-3   1.428408712874917E2  
 4.500000000000000E8     1.174485152552087E-2   7.573883388258022E1   1.132512221039653E-4   8.482547892741561   8.454239030674708E-5   5.337878717046778E1   9.501154540895221E-3   1.272122420925606E2  
 5.000000000000000E8     1.338993919637319E-2   6.699655122483334E1   9.346773662230117E-5   2.717973341090859E1   1.242850380351758E-4   3.461216513228033E1   9.792682040900643E-3   1.198050524991135E2  
 5.500000000000000E8     1.556630643205121E-2   5.987202189314589E1   1.297819986383732E-4   7.507506836773158   1.135775939541520E-4   1.231034040521779E1   1.054622786975685E-2   1.137289533269065E2  
 6.000000000000000E8     1.697673771349606E-2   5.546418925488101E1   1.303088128730504E-4   8.407741152486572   1.300335107343299E-4  -9.054632712424320E-1   1.073716885100953E-2   1.098750360024664E2  
 6.500000000000000E8     1.955956482760060E-2   4.958641114574115E1   1.377025223473315E-4  -1.304431419113488   1.255985159770688E-4   7.645293339669334   1.157399215014746E-2   1.040765049753520E2  
 7.000000000000000E8     2.131352902917389E-2   4.852596363401192E1   1.447102687035079E-4  -8.313720780222830   1.361923944584032E-4  -1.378372494217161E-1   1.214518616540870E-2   1.022570154026827E2  
 7.500000000000000E8     2.333248562409664E-2   4.617209193491081E1   1.396741682574233E-4  -9.556556552445811   1.787864857737302E-4  -1.049356566269010E1   1.329577690962742E-2   9.581136952193816E1  
 8.000000000000000E8     2.490426474625762E-2   4.567034493430276E1   1.686644886070928E-4  -2.748588084678513E1   1.768448736556930E-4  -1.911657030400655E1   1.537822346679545E-2   9.641231800944644E1  
 8.500000000000000E8     2.598231042930786E-2   4.282557492146896E1   1.801705100039730E-4  -2.217314201743144E1   1.709724410411731E-4  -1.809151011273908E1   1.624605546678186E-2   9.603505322602101E1  
 9.000000000000000E8     2.738903456412618E-2   4.116292359598519E1   2.181034146874826E-4  -2.755642773432025E1   2.101971258115662E-4  -3.302614020851415E1   1.651240002449882E-2   9.806514300398295E1  
 9.500000000000000E8     2.778060628476377E-2   4.008145592136553E1   2.063271920783492E-4  -3.806797687570793E1   2.117574049960948E-4  -3.953644787867529E1   1.586916050649707E-2   9.753190456166861E1  
 1.000000000000000E9     2.765382058594511E-2   3.954222677266649E1   2.301185262271452E-4  -4.849026961637287E1   2.197735116154820E-4  -4.428555180828827E1   1.636496095023543E-2   9.760957835216421E1  
 1.050000000000000E9     2.686863342334828E-2   3.729085676290587E1   2.622991489639850E-4  -5.067495685955851E1   2.363915678013215E-4  -4.950159955357645E1   1.579984505394367E-2   9.784045807618824E1  
 1.100000000000000E9     2.684960068503936E-2   3.521889235822020E1   2.637001845956779E-4  -5.952032192976071E1   2.546236700251657E-4  -6.099946991431255E1   1.615645750755172E-2   9.491678530004408E1  
 1.150000000000000E9     2.617825035710676E-2   3.390920722802874E1   2.675608353575489E-4  -6.397098319305660E1   2.653197571629415E-4  -6.622184041361767E1   1.652231220314710E-2   9.521501610018412E1  
 1.200000000000000E9     2.518867721141857E-2   3.346551545442676E1   2.810600977423414E-4  -6.957647146981995E1   2.638335765583976E-4  -7.053344101663923E1   1.668288656344084E-2   9.584899868445712E1  
 1.250000000000000E9     2.295977484047312E-2   3.174275284558875E1   2.924087804047857E-4  -8.193134642261435E1   2.901660689838927E-4  -7.851941800122495E1   1.672570878217622E-2   9.803482351732139E1  
 1.300000000000000E9     2.167286671299198E-2   2.784550323187859E1   3.121009722846005E-4  -8.546519054885083E1   3.206487258684525E-4  -8.437306343803158E1   1.653719353015104E-2   9.749053876983781E1  
 1.350000000000000E9     1.998672352265909E-2   2.687867243428676E1   3.160814909180111E-4  -9.404861846808171E1   3.307301699476332E-4  -9.412002617116703E1   1.632528225425407E-2   9.797351076033816E1  
 1.400000000000000E9     1.775466536873956E-2   2.335389303773738E1   3.629190459984727E-4  -1.003443380318131E2   3.462661008288258E-4  -1.035494751473872E2   1.632378283547113E-2   9.702315889860054E1  
 1.450000000000000E9     1.564211782201179E-2   2.066732759693985E1   3.770046919063160E-4  -1.104170107372005E2   3.545862372894261E-4  -1.074563184066211E2   1.649644507286594E-2   9.854160700387239E1  
 1.500000000000000E9     1.283080659174817E-2   1.600950384752785E1   4.167038943414437E-4  -1.148934616180307E2   4.097538193709542E-4  -1.136943782716998E2   1.590403886736404E-2   9.824939617373494E1  
 1.550000000000000E9     1.048169802619710E-2   7.789672179950036   4.246402029631556E-4  -1.246111518121121E2   4.310469597428194E-4  -1.233117956168580E2   1.571986294268735E-2   9.875105716314366E1  
 1.600000000000000E9     8.267633369906217E-3  -3.300620783098106   4.607929752851529E-4  -1.308686289081679E2   4.518229534111729E-4  -1.329137571984183E2   1.534672528895313E-2   9.732562337738440E1  
 1.650000000000000E9     6.286867707112345E-3  -1.930904127462512E1   4.873879529765930E-4  -1.386003469363689E2   4.958097185234955E-4  -1.395386629181978E2   1.533115584802407E-2   9.725201576738559E1  
 1.700000000000000E9     5.068040222203717E-3  -5.236592423559067E1   5.334830399749806E-4  -1.489543368192093E2   5.567861789261257E-4  -1.495256011179211E2   1.466879521950470E-2   9.645755567652101E1  
 1.750000000000000E9     6.609303052868208E-3  -8.972945428629242E1   5.506052478208095E-4  -1.603476370306466E2   5.529244338891797E-4  -1.615076605174528E2   1.438513381299891E-2   9.656437378315798E1  
 1.800000000000000E9     9.715217907275545E-3  -1.035818660403449E2   5.593686596111232E-4  -1.759159896594442E2   5.653158591324026E-4  -1.776125163811252E2   1.307953473586527E-2   9.477399430602451E1  
 1.850000000000000E9     1.221202576813523E-2  -1.113915303481441E2   5.248316942663491E-4   1.735674716464537E2   5.266195730695073E-4   1.696331950602419E2   1.301834895189681E-2   9.078434509123579E1  
 1.900000000000000E9     1.496431374086731E-2  -1.177460234535526E2   4.916010148142808E-4   1.629810117891796E2   5.065491566858691E-4   1.617963195679530E2   1.225233254948001E-2   9.021647672420839E1  
 1.950000000000000E9     1.761792295073500E-2  -1.232186516126924E2   4.638690500405124E-4   1.609653328808695E2   4.624429606455847E-4   1.581043495916558E2   1.178943944211417E-2   8.080550556616198E1  
 2.000000000000000E9     2.061515980325699E-2  -1.265624447861144E2   5.087719960056657E-4   1.533627583725739E2   4.917005710082680E-4   1.541441309804686E2   1.236484552583050E-2   7.555586176035648E1  
 2.050000000000000E9     2.303453486358980E-2  -1.272324211206481E2   5.085777832763111E-4   1.407050382129773E2   4.952956208535817E-4   1.430323910470990E2   1.292574006016823E-2   7.166759796443161E1  
 2.100000000000000E9     2.494224403667596E-2  -1.299460539320538E2   4.788612664889363E-4   1.307060850126536E2   4.816925199331545E-4   1.315146212201852E2   1.299677068456525E-2   6.905071519665751E1  
 2.150000000000000E9     2.698538029450089E-2  -1.321571229752044E2   4.881404893521932E-4   1.281961995903534E2   4.555797812790471E-4   1.290817535391105E2   1.331561840982832E-2   6.242869686783932E1  
 2.200000000000000E9     2.903140252845142E-2  -1.336024270267113E2   5.091931913389294E-4   1.195413073965216E2   5.200932177560699E-4   1.225944067104392E2   1.418880970808485E-2   5.899537579002371E1  
 2.250000000000000E9     3.003683874858819E-2  -1.336484584698431E2   5.390634693984807E-4   1.070473249454041E2   4.744634155807184E-4   1.108883646728457E2   1.495365742394363E-2   5.407931914000549E1  
 2.300000000000000E9     3.001964003071986E-2  -1.348770872137390E2   4.655187078878603E-4   9.562917287050742E1   4.801061619161634E-4   9.388276459463556E1   1.661762460729373E-2   5.207558568601301E1  
 2.350000000000000E9     3.010852225269572E-2  -1.368108435340338E2   4.491281568777221E-4   8.872079781293007E1   4.243271875119196E-4   8.960518614943040E1   1.801188481871766E-2   5.043491686143517E1  
 2.400000000000000E9     2.994256572070855E-2  -1.386992831653030E2   4.041186876153372E-4   8.827187835414037E1   3.874503781449172E-4   8.657383093412132E1   1.925946933433686E-2   4.913800509343152E1  
 2.450000000000000E9     2.965887734915662E-2  -1.408131919669598E2   3.916808491979320E-4   7.937130397659605E1   4.080855815258298E-4   8.117078630167751E1   2.041671751284302E-2   4.869208733702373E1  
 2.500000000000000E9     2.828253468904993E-2  -1.430684440066079E2   3.844004068473635E-4   7.520388721304732E1   3.686625961640288E-4   7.533229658994925E1   2.137319508493092E-2   4.982504315080534E1  
 2.550000000000000E9     2.691399826377073E-2  -1.463978538222669E2   3.778761724763644E-4   7.012236567464470E1   3.382505177197877E-4   7.385343961090916E1   2.216196739719380E-2   5.004562794997511E1  
 2.600000000000000E9     2.512586064946874E-2  -1.498461877913779E2   4.057433483178525E-4   6.833844877341656E1   3.615650151587632E-4   6.928654583805310E1   2.268298634110887E-2   5.012705064406540E1  
 2.650000000000000E9     2.336631891581678E-2  -1.556660609146571E2   4.108089951799607E-4   7.159063158496363E1   3.728662126577799E-4   6.891813247710284E1   2.244928888215259E-2   4.908393586261290E1  
 2.700000000000000E9     2.107091737125747E-2  -1.614233737257703E2   4.162331681343541E-4   6.683107100679897E1   3.947219607220238E-4   6.448375467836006E1   2.337617673757468E-2   4.653549056752392E1  
 2.750000000000000E9     1.906878630436770E-2  -1.692308421278084E2   4.591122472228606E-4   5.647649873650730E1   4.149789578922022E-4   5.909687674387346E1   2.396788596769370E-2   4.591558467343867E1  
 2.800000000000000E9     1.755647475559832E-2  -1.790017238528098E2   4.980535084739690E-4   5.583289328332587E1   4.350498468252807E-4   5.728451112652822E1   2.425848314179686E-2   4.401252569914187E1  
 2.850000000000000E9     1.635172604857926E-2   1.660185405413282E2   5.227604531975098E-4   4.257602811417343E1   5.296899397798688E-4   4.164050637131444E1   2.528216629367146E-2   4.268214901501043E1  
 2.900000000000000E9     1.691497731865506E-2   1.514970687400749E2   5.339640696563602E-4   3.707758347090257E1   4.725744054870682E-4   3.754415763562228E1   2.501898993277475E-2   4.069124095800854E1  
 2.950000000000000E9     1.794688637370965E-2   1.387417639272539E2   5.324126842674881E-4   2.526992681433150E1   5.062330134827818E-4   2.673970128371493E1   2.616439469095014E-2   3.927076630411703E1  
 3.000000000000000E9     1.955660941856449E-2   1.295502617917383E2   5.301026735318507E-4   1.870271937018272E1   5.110314653767896E-4   1.425089926630378E1   2.646836010376261E-2   3.850844138620878E1  
 3.050000000000000E9     2.109720888488397E-2   1.194439899590525E2   4.172762218574386E-4   3.632504268263722   4.744681156536440E-4   9.770141429452288   2.657816725273924E-2   3.553297592105041E1  
 3.100000000000000E9     2.381534627327316E-2   1.091126542830653E2   4.765205589195735E-4   1.769957367890473   4.542050341031843E-4  -2.605697224769022   2.714177284984066E-2   3.356106978931036E1  
 3.150000000000000E9     2.681986606917238E-2   1.029880985271668E2   4.994719331776141E-4  -5.343891661343950   4.430933452760080E-4   3.370719019380904   2.815061593416720E-2   3.202217956020232E1  
 3.200000000000000E9     2.975465525702719E-2   9.753316621755590E1   4.297700711609139E-4  -8.542075510185947   4.824341104480590E-4  -6.809040651675979   2.876092553779791E-2   3.029669824040963E1  
 3.250000000000000E9     3.301234433663955E-2   9.260913730219114E1   4.085360028512626E-4  -1.702623653936139E1   4.372429557670375E-4  -1.579300309264668E1   2.911431347717383E-2   2.985990381550651E1  
 3.300000000000000E9     3.564696730621397E-2   8.887334662756203E1   4.449713927462066E-4  -1.896978052884239E1   4.071078361569965E-4  -2.333353943833550E1   2.936401360930678E-2   2.818589977467071E1  
 3.350000000000000E9     3.850667719286913E-2   8.509012042694572E1   4.401285332478425E-4  -2.937582008068861E1   4.535284386227442E-4  -2.750864563579830E1   2.954223499567326E-2   2.717201572029794E1  
 3.400000000000000E9     4.087127158772524E-2   8.237101281701196E1   4.740429212040580E-4  -2.784327545217698E1   4.694155604138109E-4  -3.277580246329947E1   2.951412949628935E-2   2.521266658840193E1  
 3.450000000000000E9     4.317980147583068E-2   7.936877975301779E1   4.105359045810960E-4  -3.783952363728342E1   4.415266930956039E-4  -4.429294575407246E1   2.956142478195891E-2   2.407933093518519E1  
 3.500000000000000E9     4.556880042232027E-2   7.617837512867199E1   4.012354010512622E-4  -4.579542893343211E1   3.903520138508850E-4  -3.687563901708239E1   2.945556887606286E-2   2.187922562308737E1  
 3.550000000000000E9     4.734323570661941E-2   7.361189207940743E1   3.906124463560413E-4  -4.963364580524437E1   3.703260262350099E-4  -4.356886444797394E1   3.068588173640178E-2   2.059350727587714E1  
 3.600000000000000E9     4.862532585013987E-2   7.053118178004820E1   3.983164007393639E-4  -5.596709970034109E1   4.173004121005665E-4  -5.449335055133348E1   2.993189080629171E-2   2.192524895581515E1  
 3.650000000000000E9     5.060292150739820E-2   6.768644613854028E1   5.061080486225640E-4  -5.841521982738529E1   4.598129214534147E-4  -5.508776942490045E1   2.860675340315801E-2   1.984984939718987E1  
 3.700000000000000E9     5.222754303191250E-2   6.536369483216542E1   4.532401719099283E-4  -6.427984081889851E1   4.674259152379160E-4  -6.218333972004200E1   2.766510006472598E-2   1.808528117002214E1  
 3.750000000000000E9     5.307439816430062E-2   6.222604689610321E1   4.951349424604485E-4  -6.582644890641619E1   4.418349084816752E-4  -7.272114948118856E1   2.697042581640772E-2   1.244552823809291E1  
 3.800000000000000E9     5.441693604080401E-2   5.991884502627524E1   4.849751730365138E-4  -7.595040783843932E1   4.709577754194312E-4  -7.554823677804626E1   2.829287652769522E-2   1.051344134862682E1  
 3.850000000000000E9     5.474706223555979E-2   5.819120615764871E1   5.647538542600409E-4  -7.546670909307673E1   4.907698305761721E-4  -8.454991511414457E1   2.726985342869095E-2   9.272294400872831  
 3.900000000000000E9     5.536457572408592E-2   5.542969691384633E1   5.296305665468096E-4  -8.783503164285280E1   5.171037862524089E-4  -9.100859580619475E1   2.749228872505683E-2   6.362586506727478  
 3.950000000000000E9     5.497382628014406E-2   5.371985348953115E1   5.033110226815785E-4  -9.951947688579539E1   5.758465178964540E-4  -9.090821318768342E1   2.763758556601987E-2   3.538139318683182  
 4.000000000000000E9     5.413844765408397E-2   5.085544179736460E1   5.243057492869814E-4  -1.038251000418444E2   5.207611616187032E-4  -1.004283434280705E2   2.723186251004119E-2   2.603504884600187  
 4.050000000000000E9     5.313671137767512E-2   4.846824059954068E1   4.855392956933396E-4  -1.112899447116648E2   5.374318580228859E-4  -1.129664281661484E2   2.707817499558128E-2  -6.881464866633757E-1  
 4.100000000000000E9     5.184957626584440E-2   4.533359611529255E1   5.529687660033383E-4  -1.184649173220158E2   5.224117724824124E-4  -1.146649901497619E2   2.787556172341060E-2  -4.046537344571144  
 4.150000000000000E9     5.075535309154043E-2   4.191296840058752E1   5.430909874941807E-4  -1.226256183231892E2   5.083250511383897E-4  -1.232001798027263E2   2.818560696525562E-2  -5.575165438782248  
 4.200000000000000E9     4.912547986309854E-2   3.840928656480526E1   5.230509728085605E-4  -1.269387562948318E2   5.392563215938388E-4  -1.287560188956470E2   2.885866627383824E-2  -8.381237943929941  
 4.250000000000000E9     4.756462691854613E-2   3.433376285833817E1   5.123816866749077E-4  -1.354314865356264E2   5.231934140984894E-4  -1.369706966259886E2   2.961241889591665E-2  -8.287604045927498  
 4.300000000000000E9     4.619045147265722E-2   2.959661621422333E1   5.052099635255090E-4  -1.408636090680217E2   5.116083327602996E-4  -1.419947588087946E2   2.923811768938744E-2  -8.911830699265805  
 4.350000000000000E9     4.551397413877825E-2   2.492062749003873E1   5.172987207834725E-4  -1.489374200084458E2   5.113646504559140E-4  -1.487171054853853E2   2.924452232077351E-2  -9.695086725869365  
 4.400000000000000E9     4.439211270388423E-2   2.090289886793250E1   4.944405323580088E-4  -1.487856421944731E2   5.188841009883849E-4  -1.539598175457158E2   2.864658908423015E-2  -1.072838645012203E1  
 4.450000000000000E9     4.277039816078036E-2   1.578895646133941E1   5.191145112254767E-4  -1.564610700806449E2   5.180790938765575E-4  -1.576497986126957E2   2.850668720683266E-2  -1.268073887345608E1  
 4.500000000000000E9     4.275000670694983E-2   1.027999863964560E1   5.899588417489460E-4  -1.604327373139988E2   5.710131300863652E-4  -1.636276019340817E2   2.890814261042401E-2  -1.408846839094803E1  
 4.550000000000000E9     4.214174667933294E-2   5.671161451276537   5.528443902779822E-4  -1.690296293222356E2   5.760054151174331E-4  -1.712465102255706E2   2.867322630903757E-2  -1.408407665441313E1  
 4.600000000000000E9     4.128535152453724E-2   1.291683868467072E-1   5.465225416984089E-4  -1.775252606915603E2   5.596715554132451E-4  -1.763695760217588E2   2.824666248235873E-2  -1.709349517108657E1  
 4.650000000000000E9     4.163458013574204E-2  -4.995156596985694   5.819065379267834E-4   1.726941248226347E2   5.710887169326980E-4   1.767515702048682E2   2.918643280752437E-2  -1.576705701875674E1  
 4.700000000000000E9     4.134903665270279E-2  -1.010855678847427E1   5.860396729957127E-4   1.697102499385244E2   5.539029313375905E-4   1.694906559264427E2   2.729809679603376E-2  -1.603854531115454E1  
 4.750000000000000E9     4.210220492761600E-2  -1.469681782899606E1   5.860970361251950E-4   1.611855608993135E2   5.868627693794648E-4   1.649193862646510E2   2.660090387890858E-2  -1.833837019680140E1  
 4.800000000000000E9     4.238371504433772E-2  -1.809832887244781E1   6.035002052994557E-4   1.557654423586252E2   5.779060388332587E-4   1.579743957704814E2   2.536702177327473E-2  -2.141379682042805E1  
