#  HZ   S   MA   R     50.00 
! Rohde & Schwarz ZVA67 4Ports - Version 4.11 - 1305.7002k04 SN: 101051
! Date: 2023-05-31 11:13:02
! Measurements: S11 S21 S12 S22 
! 
 5.000000000000000E7     1.554433145042418E-2   1.723820101649529E2   7.294404805624037E-5  -9.232861035409671E1   6.626269310783826E-5  -1.442409849420834E2   1.856911742560910E-2  -1.773187407286805E2  
 1.000000000000000E8     1.391463724526895E-2   1.690584632386625E2   1.113821953772232E-4  -1.655500362411144E2   9.834262246240279E-5   4.246783556396128E1   1.639418393730046E-2   1.747226595910152E2  
 1.500000000000000E8     1.295281119904185E-2   1.589728373166475E2   5.935570638614994E-5  -7.396461051017121E1   8.803596954196971E-5   6.552500255521166E1   1.500000389618461E-2   1.693867605075401E2  
 2.000000000000000E8     1.239397906170856E-2   1.475211089104432E2   1.126153748859073E-4   5.732433952528506   7.768197036168492E-5  -7.050873953826639   1.423084323422850E-2   1.683541366194604E2  
 2.500000000000000E8     1.171410836775209E-2   1.399447487381372E2   5.746033227111035E-5  -4.228833705025834E1   1.181860329588002E-4   3.717697192017410E1   1.287981678747421E-2   1.616427475703474E2  
 3.000000000000000E8     1.032328430921267E-2   1.289430624967741E2   5.742428570696003E-5   1.087743681762947   4.869276001277104E-5   5.780095154573689E1   1.175991787537963E-2   1.567508634301181E2  
 3.500000000000000E8     9.675197929857207E-3   1.118081652970671E2   4.724211493183114E-5   8.672755192676155   1.518847104717738E-4   6.478368141379818E1   1.099919372331452E-2   1.491532545459312E2  
 4.000000000000000E8     9.557885675011920E-3   9.027776514320384E1   9.719213707192585E-5   3.202255343969696E1   9.322746075086379E-5   4.323437972926946E1   9.721240587174700E-3   1.434493181720493E2  
 4.500000000000000E8     1.177977480488115E-2   7.596560227237687E1   1.043111658191548E-4   1.802337145952749E1   7.025197544086754E-5   2.180001664283500E1   9.418737185317124E-3   1.279435497235311E2  
 5.000000000000000E8     1.345644107352446E-2   6.700057245680871E1   1.096397531250527E-4   8.823854489511312   7.739717123848867E-5   3.908464078499938   9.867083381584143E-3   1.202625265754895E2  
 5.500000000000000E8     1.565644555222907E-2   6.025405086287723E1   9.541756109625637E-5  -6.456922072666268E-1   1.106855456939443E-4   1.126349705626742E1   1.067495250931316E-2   1.136197900666410E2  
 6.000000000000000E8     1.712074820207749E-2   5.529675647934454E1   1.006630475190691E-4   1.597950171386579E1   1.103454300895515E-4   1.163631039226424E1   1.078208319350121E-2   1.100176845557257E2  
 6.500000000000000E8     1.962395798977184E-2   5.010594208242389E1   1.200649177692847E-4  -2.731205622816979   1.188428160831592E-4  -1.087510511398189E1   1.158430138438893E-2   1.043042804260409E2  
 7.000000000000000E8     2.145766909599781E-2   4.852780450045955E1   1.681869981582628E-4  -1.088778475677420E1   1.471582882596818E-4  -5.024442703260890   1.217301938820650E-2   1.024579203644077E2  
 7.500000000000000E8     2.332022743785231E-2   4.655823573858216E1   1.629877372663535E-4  -1.651834830696564E1   1.625260577994638E-4  -1.558232928037683E1   1.329766937800501E-2   9.628123830580711E1  
 8.000000000000000E8     2.494393859192778E-2   4.588584279378628E1   1.758485269502118E-4  -1.704583184641051E1   1.818109131902168E-4  -1.729875813588770E1   1.533786239176681E-2   9.586079744298880E1  
 8.500000000000000E8     2.604293559017304E-2   4.296184977156878E1   1.820172097392457E-4  -1.896119685338937E1   1.871495533685555E-4  -2.610231330507195E1   1.620670617020783E-2   9.581065303044933E1  
 9.000000000000000E8     2.753583933457485E-2   4.122178637537635E1   2.046823162441901E-4  -2.923537125692068E1   1.945467633555463E-4  -3.493045167468532E1   1.640716749739354E-2   9.815443311717814E1  
 9.500000000000000E8     2.785723567132620E-2   4.014919902831667E1   2.048462096576830E-4  -3.853338421044307E1   2.107215638967915E-4  -3.693451146375248E1   1.590531241227925E-2   9.818496982888995E1  
 1.000000000000000E9     2.769427391075225E-2   3.956093940719784E1   2.140688737256205E-4  -4.429210177779711E1   2.252938841620193E-4  -4.695408038603134E1   1.636124375740481E-2   9.748967752346454E1  
 1.050000000000000E9     2.694954078203235E-2   3.721268535471246E1   2.393814352214843E-4  -4.494124878922573E1   2.432868617267254E-4  -4.942528325889469E1   1.583489304508818E-2   9.804584875502454E1  
 1.100000000000000E9     2.699468329766228E-2   3.498895145494181E1   2.545474290955207E-4  -5.661414933009935E1   2.388109027102016E-4  -5.983007763594355E1   1.607230846886961E-2   9.474410010913790E1  
 1.150000000000000E9     2.625405953663559E-2   3.388183420388425E1   2.668994428405696E-4  -6.568474838196629E1   2.709488295761692E-4  -6.669824727823534E1   1.653904214169500E-2   9.571974310266482E1  
 1.200000000000000E9     2.530904401824724E-2   3.319750260562117E1   2.580398934885499E-4  -6.949679398256616E1   2.654961297636358E-4  -7.482700150954921E1   1.667327949918895E-2   9.574552430149103E1  
 1.250000000000000E9     2.303672812689931E-2   3.169805553781855E1   2.831700691775858E-4  -8.046256697875340E1   2.962554269948768E-4  -7.960290927282922E1   1.675421223779541E-2   9.804854979205231E1  
 1.300000000000000E9     2.175435127773269E-2   2.785617514239400E1   3.045185568328930E-4  -8.626186817716740E1   3.328971864002621E-4  -8.665175290551306E1   1.646326619763970E-2   9.779350847510141E1  
 1.350000000000000E9     2.010619637223712E-2   2.676751244217724E1   3.238627465616814E-4  -9.600304196676729E1   3.257313701481577E-4  -9.479397502501467E1   1.626853302474083E-2   9.815543702317304E1  
 1.400000000000000E9     1.782499717393048E-2   2.333478939594134E1   3.411197896866306E-4  -1.020489805048697E2   3.270422561290091E-4  -9.669288823760751E1   1.625766906039910E-2   9.678232892787011E1  
 1.450000000000000E9     1.583121605252307E-2   2.100552463914501E1   3.576367274075210E-4  -1.078614381954292E2   3.369081593531798E-4  -1.053301359438665E2   1.652252326465032E-2   9.889187923409776E1  
 1.500000000000000E9     1.289246475561475E-2   1.599354733900240E1   3.977496348887028E-4  -1.124235782034998E2   3.909725801012826E-4  -1.142844838739106E2   1.599725191145959E-2   9.829116339175253E1  
 1.550000000000000E9     1.045289378785727E-2   7.403835343995000   4.019780515615184E-4  -1.243539474978473E2   4.234135720953878E-4  -1.224771376054681E2   1.577063316688403E-2   9.876002621225642E1  
 1.600000000000000E9     8.345179636190849E-3  -4.493064307779420   4.418727000466066E-4  -1.317297032840462E2   4.379438356843356E-4  -1.314594479571470E2   1.528177402725835E-2   9.711374871215622E1  
 1.650000000000000E9     6.422216432972937E-3  -1.890041491465230E1   4.817418506795476E-4  -1.426603371079803E2   4.935642116344499E-4  -1.395040686818095E2   1.543262685085181E-2   9.745953728146962E1  
 1.700000000000000E9     5.120218046084569E-3  -5.346374752325500E1   5.203511301587881E-4  -1.494140386785564E2   5.465734240551727E-4  -1.507247312473340E2   1.456848352740330E-2   9.633022106031875E1  
 1.750000000000000E9     6.650690942870498E-3  -8.952779261459905E1   5.661260184068599E-4  -1.633554045611008E2   5.448738180385123E-4  -1.640623606846536E2   1.434790995343849E-2   9.618942058093818E1  
 1.800000000000000E9     9.808426247845207E-3  -1.031212192588101E2   5.703306153503748E-4  -1.756263271621405E2   5.567348507360269E-4  -1.738852242178565E2   1.309074985414306E-2   9.404825193215288E1  
 1.850000000000000E9     1.230509032078639E-2  -1.113644812116103E2   5.259069261712392E-4   1.697867113424187E2   5.124921172368673E-4   1.710305876676223E2   1.310866407081790E-2   9.079175442471821E1  
 1.900000000000000E9     1.500962722255874E-2  -1.178193621801763E2   5.302463740332049E-4   1.642952952778784E2   4.748146890946903E-4   1.601112738517087E2   1.231133873057161E-2   9.047134389571679E1  
 1.950000000000000E9     1.768563672731235E-2  -1.227419635526245E2   4.459611930047822E-4   1.588745303223709E2   4.836972021782388E-4   1.585873993650596E2   1.182473185537319E-2   8.079517337469449E1  
 2.000000000000000E9     2.065776333853711E-2  -1.265171022100872E2   4.973142880438184E-4   1.532695617883054E2   5.061572770667129E-4   1.560053840801971E2   1.237911295284047E-2   7.585821381969684E1  
 2.050000000000000E9     2.316502089783926E-2  -1.271286232185653E2   5.241314532493175E-4   1.429567749893607E2   5.235776588271670E-4   1.418245947214420E2   1.303305417586780E-2   7.177536566031192E1  
 2.100000000000000E9     2.484181752493791E-2  -1.298613602183353E2   4.545808895962112E-4   1.318233059211297E2   4.642153739712454E-4   1.362924954782924E2   1.303670624129846E-2   6.906986500976761E1  
 2.150000000000000E9     2.706916122105926E-2  -1.322029428836011E2   4.868381751357401E-4   1.290995761863134E2   4.829522035718462E-4   1.266583026538755E2   1.342651057753164E-2   6.183948144381890E1  
 2.200000000000000E9     2.907821399693536E-2  -1.336213849217130E2   5.188725486764579E-4   1.235037115669558E2   5.160747257610339E-4   1.197765407305442E2   1.430714962650172E-2   5.939991060395200E1  
 2.250000000000000E9     3.012058336162923E-2  -1.334587396112306E2   5.212780864080360E-4   1.109866519586757E2   5.347195306824365E-4   1.058257386178985E2   1.493145836531583E-2   5.454350476337468E1  
 2.300000000000000E9     3.004451217620034E-2  -1.347585041749300E2   4.882216131866267E-4   9.797207551006443E1   4.827619421939502E-4   9.812610822414190E1   1.662456010370741E-2   5.166443914507964E1  
 2.350000000000000E9     3.024530702287157E-2  -1.368519860834100E2   4.022064940476172E-4   8.652882092598402E1   4.462661988938480E-4   8.799262292744122E1   1.792046887172765E-2   5.032544440688412E1  
 2.400000000000000E9     3.003552079892903E-2  -1.387597369391205E2   4.082197919486691E-4   8.542724121695122E1   3.937357645699305E-4   8.896157712896385E1   1.942048532790179E-2   4.948094071280777E1  
 2.450000000000000E9     2.964726989086394E-2  -1.408842154588914E2   4.082289705712425E-4   8.323426262548118E1   4.237316591703855E-4   8.472183637739009E1   2.051910124236629E-2   4.842842147747390E1  
 2.500000000000000E9     2.821883519122093E-2  -1.429418374581163E2   3.713513303510221E-4   7.584230233393684E1   3.466072875171123E-4   7.307661147572892E1   2.153013435141993E-2   4.956665577453694E1  
 2.550000000000000E9     2.700200553409281E-2  -1.462545875754686E2   3.463799156530539E-4   7.365051886663913E1   3.459504285804827E-4   7.380574492759070E1   2.212985807387222E-2   4.983553441101331E1  
 2.600000000000000E9     2.513805868789808E-2  -1.501090004988069E2   3.620926809602616E-4   7.256420037318242E1   3.451669513905561E-4   7.283490799083711E1   2.287040636798701E-2   4.974236511310880E1  
 2.650000000000000E9     2.326350501095576E-2  -1.555421540166347E2   3.513769217147669E-4   6.898445831353283E1   3.607924347664044E-4   7.046985909320739E1   2.258654817374471E-2   4.925292446369910E1  
 2.700000000000000E9     2.140025861690075E-2  -1.613545336175592E2   4.001529962516677E-4   6.550741653432132E1   3.942705303173620E-4   6.406801473750093E1   2.345676149619080E-2   4.614917766214962E1  
 2.750000000000000E9     1.917330677658259E-2  -1.696632107502839E2   4.479364455631635E-4   6.442409516453338E1   4.016008993259439E-4   6.003283919524705E1   2.396672453659944E-2   4.591741457884876E1  
 2.800000000000000E9     1.754110392432108E-2  -1.789985509537885E2   5.017941673779320E-4   5.129331644889283E1   4.707454469467067E-4   5.185354986403670E1   2.418403693617489E-2   4.357607847931238E1  
 2.850000000000000E9     1.627744169025976E-2   1.659961593229403E2   5.377036128183019E-4   4.220913233721779E1   4.651340939104502E-4   4.393442586503039E1   2.507740650090778E-2   4.306010952157863E1  
 2.900000000000000E9     1.696011660049478E-2   1.513408922554671E2   4.826675180618146E-4   3.526991513631114E1   5.226403046388142E-4   3.676151670746668E1   2.507867930041620E-2   4.114947549377370E1  
 2.950000000000000E9     1.804045349457558E-2   1.389240428730645E2   5.100069931449014E-4   2.760277855371647E1   5.388928701333340E-4   2.488146372792607E1   2.615007559254045E-2   3.906323846890376E1  
 3.000000000000000E9     1.965114230480633E-2   1.289367131512400E2   5.356324604938341E-4   1.555167597069963E1   5.124989776010655E-4   1.522674080943159E1   2.643274654954870E-2   3.843242680220153E1  
 3.050000000000000E9     2.125267519157094E-2   1.193540382937628E2   4.572650460740345E-4   8.917324526673983   4.603822862650468E-4   5.677559560695975   2.662509445519858E-2   3.520409037795518E1  
 3.100000000000000E9     2.395578817777866E-2   1.094970043093327E2   4.456790460847984E-4   4.521563908572075   4.391280731364147E-4  -2.039467545952476   2.735742031175509E-2   3.361347648348718E1  
 3.150000000000000E9     2.686709313529882E-2   1.029456689906543E2   4.782905080617020E-4   1.067959883069163   4.650724425995091E-4  -1.782726155764675   2.824928160896461E-2   3.207396621680737E1  
 3.200000000000000E9     2.996468665975255E-2   9.725860070267252E1   4.977587075653066E-4  -8.517090845078098   4.652916832744509E-4  -1.018205229417928E1   2.879354545319178E-2   3.036456715701339E1  
 3.250000000000000E9     3.306346042573471E-2   9.305047461557336E1   4.912635543953318E-4  -2.088076463954701E1   4.356281643439245E-4  -1.752523591848147E1   2.894619501028293E-2   2.975333523950618E1  
 3.300000000000000E9     3.584926304175902E-2   8.873718136452887E1   4.243649612179596E-4  -1.497868690349615E1   4.390211358107828E-4  -1.944965802743748E1   2.931276174333509E-2   2.863691593171709E1  
 3.350000000000000E9     3.858842010577991E-2   8.537604982510467E1   4.502077188469153E-4  -2.963136650150825E1   4.805941139538519E-4  -2.529327433267860E1   2.962092359707487E-2   2.743204909719564E1  
 3.400000000000000E9     4.084045940065796E-2   8.247054305189843E1   4.730631855416384E-4  -3.310922396219520E1   4.639136393539452E-4  -3.451325663279349E1   2.963551151406503E-2   2.536420872275082E1  
 3.450000000000000E9     4.320127988689049E-2   7.921406664748987E1   4.247496078259612E-4  -4.539252319093846E1   4.205675438540288E-4  -4.561138425212501E1   2.965913918003755E-2   2.405960363008351E1  
 3.500000000000000E9     4.583088814395934E-2   7.633233452903473E1   3.974141115241146E-4  -4.685881215542142E1   4.417611515178134E-4  -4.965132100907082E1   2.949388364023416E-2   2.155715672924008E1  
 3.550000000000000E9     4.737004997006365E-2   7.369617862066798E1   4.277040274322891E-4  -5.238103915175155E1   3.767366300275025E-4  -4.543817965272606E1   3.069827406493573E-2   2.086483700681387E1  
 3.600000000000000E9     4.881470238080363E-2   7.059778214055004E1   4.113130841326410E-4  -4.930142454636053E1   4.406386826002556E-4  -5.281700946960140E1   2.988212806067135E-2   2.216839510421711E1  
 3.650000000000000E9     5.073741777418271E-2   6.745215978939017E1   4.598592526888674E-4  -5.664492191699709E1   4.491166285937002E-4  -5.543897982826032E1   2.849435485392180E-2   1.987487004797471E1  
 3.700000000000000E9     5.215241366475292E-2   6.521448852638814E1   4.821380543858234E-4  -6.493687680908366E1   4.379687496146978E-4  -6.192635717922530E1   2.767734065060344E-2   1.822187422729309E1  
 3.750000000000000E9     5.313815315508171E-2   6.215988856876282E1   4.861106671131566E-4  -6.746601584903063E1   4.905316713276693E-4  -6.772078344941657E1   2.719726761660643E-2   1.246850353984553E1  
 3.800000000000000E9     5.441926097443017E-2   6.000636783347257E1   4.719182033549597E-4  -7.824341466883962E1   4.803247815459402E-4  -7.909707358242463E1   2.811682010813180E-2   1.078808445546614E1  
 3.850000000000000E9     5.483056697587720E-2   5.801609150387328E1   4.987147058309970E-4  -7.839637089720311E1   4.659961483417457E-4  -8.372920291836154E1   2.726043748765382E-2   9.724329687812592  
 3.900000000000000E9     5.527529335126313E-2   5.544222611502028E1   4.966868297547077E-4  -9.217417367853838E1   4.820070901417432E-4  -9.166513265974069E1   2.754329256281880E-2   5.477976106877908  
 3.950000000000000E9     5.498892164885879E-2   5.368851945377952E1   5.465923590508874E-4  -9.909259075553860E1   4.750041155586112E-4  -9.252706775932118E1   2.777984489802416E-2   3.464942955771013  
 4.000000000000000E9     5.404953587654033E-2   5.082445709656944E1   4.914183780597878E-4  -1.047440992863959E2   5.328357693998382E-4  -1.082820544346062E2   2.727732103470836E-2   2.366845576106981  
 4.050000000000000E9     5.325493412900854E-2   4.835388220877655E1   5.151777902598713E-4  -1.131405352901480E2   5.132506744324968E-4  -1.126265897782427E2   2.703840672000074E-2  -3.708541244308244E-1  
 4.100000000000000E9     5.183140414809494E-2   4.518721439787919E1   5.028990509763303E-4  -1.195310656871527E2   5.142965763656293E-4  -1.186667428475733E2   2.786119176773172E-2  -4.059566875171239  
 4.150000000000000E9     5.075846606340611E-2   4.188739698408734E1   5.221329251811912E-4  -1.224802150571596E2   5.014928471829876E-4  -1.195057856573310E2   2.828384875910166E-2  -5.463899028092903  
 4.200000000000000E9     4.924580943513213E-2   3.833184287073075E1   5.110485813565917E-4  -1.297408789739253E2   5.275183142446465E-4  -1.312410036046114E2   2.873220423956451E-2  -8.270303472992197  
 4.250000000000000E9     4.775429104563000E-2   3.433313584268375E1   5.077745594370807E-4  -1.345645891478784E2   5.195055491861987E-4  -1.346485876525715E2   2.964177100045762E-2  -8.289770038647280  
 4.300000000000000E9     4.622073469617035E-2   2.948708679153507E1   5.400513210923682E-4  -1.415202701186536E2   4.981566262843217E-4  -1.407043063529776E2   2.936975777979817E-2  -8.645996216406097  
 4.350000000000000E9     4.555509568443877E-2   2.491206082285796E1   5.069657081421319E-4  -1.491561087895176E2   5.199296831219074E-4  -1.480998102693780E2   2.933568990777184E-2  -9.348655901922744  
 4.400000000000000E9     4.445651521803100E-2   2.079840166632025E1   5.104850587199286E-4  -1.534662503941316E2   5.051088755092826E-4  -1.528110323239485E2   2.860008443459577E-2  -1.047938072785991E1  
 4.450000000000000E9     4.291477764616326E-2   1.561401818433189E1   5.566213216652142E-4  -1.560711281157299E2   5.364174762569374E-4  -1.574522563816322E2   2.840936161376213E-2  -1.271425711104975E1  
 4.500000000000000E9     4.284093815391099E-2   1.015457028324785E1   5.791929385790781E-4  -1.638964808732690E2   5.552907762488724E-4  -1.636460653020367E2   2.872695385776448E-2  -1.403950068739945E1  
 4.550000000000000E9     4.213214586012434E-2   5.711183175395963   5.827161740234633E-4  -1.690223806072048E2   5.676273653568067E-4  -1.700231469255269E2   2.855254348626988E-2  -1.454061307247949E1  
 4.600000000000000E9     4.143649699316891E-2   3.406058399739950E-2   5.257303308797024E-4  -1.745409308178578E2   5.806436060131429E-4  -1.758435885975385E2   2.836016521120650E-2  -1.684236860544429E1  
 4.650000000000000E9     4.161715811138463E-2  -5.214087761886463   5.541390414795472E-4   1.780297282818586E2   5.720462629846053E-4   1.768865716327930E2   2.911101696723808E-2  -1.604037979934403E1  
 4.700000000000000E9     4.135916691044195E-2  -1.016763728701316E1   6.033853878880101E-4   1.692901847973870E2   5.809733839568535E-4   1.687375095782655E2   2.747076462794633E-2  -1.577147887683472E1  
 4.750000000000000E9     4.209158987417467E-2  -1.480059021739783E1   5.719555988173395E-4   1.617533178155117E2   6.054624854472013E-4   1.657617213235626E2   2.662179021745005E-2  -1.847034356242014E1  
 4.800000000000000E9     4.236434268927333E-2  -1.826707005964110E1   5.855922165466646E-4   1.575447110963276E2   6.221303027038838E-4   1.572061231952825E2   2.570562080041477E-2  -2.099900495550428E1  
