#  HZ   S   MA   R     50.00 
! Rohde & Schwarz ZVA67 4Ports - Version 4.11 - 1305.7002k04 SN: 101051
! Date: 2023-05-31 11:08:53
! Measurements: S11 S21 S12 S22 
! 
 5.000000000000000E7     9.999835286200766E-1  -6.623371158533457   6.104443735544835E-5   1.048754032362320E1   1.226050066603693E-4   1.060588429986550E1   1.000877046648448  -6.764743156624682  
 1.000000000000000E8     1.000925887588197  -1.305361035104428E1   1.219051904350956E-4  -1.709838413964479E2   4.804891594100179E-5   5.962096703410432E1   1.005898038095482  -1.390648631912223E1  
 1.500000000000000E8     1.004689237519882  -2.003335563506683E1   1.120447530119223E-4   4.245135313738855E1   7.140197952295231E-5  -1.215570859022843E2   1.007286744817804  -2.042830795294023E1  
 2.000000000000000E8     1.004736542839398  -2.632067984655399E1   3.658297680031297E-5   6.050147940782749E1   4.285952491219085E-5   6.992474359471774E1   1.008513267864476  -2.733388024727499E1  
 2.500000000000000E8     1.003872660865015  -3.290819114243845E1   1.068020982132029E-4   1.144285452777888E2   9.095626171383635E-5   2.975722749800783E1   1.007698255930105  -3.421390295428611E1  
 3.000000000000000E8     1.007169384055451  -3.942023279808158E1   1.040687663918778E-4   9.702143747673175E1   1.395384590391429E-4   3.841063134713348E1   1.011459659420511  -4.106334906163465E1  
 3.500000000000000E8     1.008169741728968  -4.592486744084425E1   1.296667090988353E-4   5.238547397289131E1   1.535478902793681E-4   5.217569750217739E1   1.011274430800776  -4.798678015366197E1  
 4.000000000000000E8     1.011539771956862  -5.230637069617397E1   1.577894689738334E-4   2.528628082337723E1   1.177871285545473E-4   2.156308483561345E1   1.015635334592960  -5.488579569610091E1  
 4.500000000000000E8     1.012671218308409  -5.881263218688878E1   8.015434843691805E-5   2.036371863194246E1   1.118971261466575E-4   3.215556948365208E1   1.016599141743007  -6.173412619778656E1  
 5.000000000000000E8     1.014757980711015  -6.535656968946144E1   1.332925845815866E-4   3.652509304342458E1   1.518839604157631E-4   2.461073849484505E1   1.015293345684729  -6.874579909480954E1  
 5.500000000000000E8     1.014967295591135  -7.190449167173050E1   1.572368545122064E-4   1.331526878711792E1   1.459848189450440E-4   6.439033080955967   1.013043761940984  -7.577784311496819E1  
 6.000000000000000E8     1.015372886377105  -7.856574385938983E1   1.777355847980763E-4   1.317231724426550E1   2.041586641241929E-4   1.581986492870196E1   1.011876079777177  -8.278184427598757E1  
 6.500000000000000E8     1.016617950203460  -8.519803003385367E1   1.555541170078688E-4  -6.698490437652762E-1   1.972000401531732E-4  -2.527527942438338   1.010393799524355  -8.973086114463007E1  
 7.000000000000000E8     1.012832483161137  -9.200732589705527E1   1.637649337244839E-4   5.010462478194592   2.096814210125246E-4  -1.060509175318088E1   1.008481891845601  -9.680206792522532E1  
 7.500000000000000E8     1.011244207748008  -9.884847259561367E1   2.500431262418696E-4  -9.908933726982715   2.191248407244193E-4  -6.770241991929273   1.003331225896642  -1.037622351222631E2  
 8.000000000000000E8     1.006317166638092  -1.056387167239921E2   2.775200770843543E-4  -2.143871150263190E1   2.515250962562317E-4  -1.910110366081544E1   9.984570461424884E-1  -1.108234503925781E2  
 8.500000000000000E8     1.004288113087833  -1.124434068282583E2   2.518975510885964E-4  -3.072539916445273E1   2.442660892746194E-4  -3.359346057388672E1   9.955806828079479E-1  -1.177954312047679E2  
 9.000000000000000E8     9.996997042205087E-1  -1.193094428754364E2   2.407919891411124E-4  -3.218562706958331E1   2.750501556747697E-4  -3.574431602393577E1   9.936693021067914E-1  -1.247270073780034E2  
 9.500000000000000E8     9.958198665090722E-1  -1.262322580973086E2   2.883642491762890E-4  -4.132935004508926E1   2.939713713558200E-4  -4.618987671399970E1   9.920397849144889E-1  -1.315985868871080E2  
 1.000000000000000E9     9.918007894121579E-1  -1.331462581699247E2   3.038157620219540E-4  -5.006691367242296E1   3.234725802281439E-4  -4.826355077641773E1   9.913305082453174E-1  -1.384384482506288E2  
 1.050000000000000E9     9.899280206466035E-1  -1.399335483913468E2   3.192860885187313E-4  -5.730674071255643E1   3.162909755003000E-4  -5.541806547981599E1   9.911960963896656E-1  -1.452725420437702E2  
 1.100000000000000E9     9.858293294985961E-1  -1.467568234083431E2   3.335395530563217E-4  -5.957331735726326E1   3.323405922817628E-4  -6.705440649416518E1   9.895626796430411E-1  -1.520949380553504E2  
 1.150000000000000E9     9.833739271470947E-1  -1.535238435665771E2   3.703461490149690E-4  -6.806989643931394E1   3.291956172152699E-4  -6.737770441130340E1   9.884329662885037E-1  -1.589161338482523E2  
 1.200000000000000E9     9.806093298459041E-1  -1.603300124758002E2   3.569687693676291E-4  -8.123376039680791E1   3.356521896518263E-4  -7.775361667120521E1   9.881828082732429E-1  -1.656958089267597E2  
 1.250000000000000E9     9.804112655568982E-1  -1.669159252059993E2   3.813706890515894E-4  -8.169620977565526E1   3.876372952549009E-4  -7.935505439965884E1   9.887367350625835E-1  -1.724354179659416E2  
 1.300000000000000E9     9.788087142266638E-1  -1.735053570738813E2   3.672679398776751E-4  -8.832123813347734E1   3.648624738845478E-4  -9.181710211863364E1   9.894586462052069E-1  -1.791350755571077E2  
 1.350000000000000E9     9.778722867486153E-1   1.798773726564816E2   3.732675878290671E-4  -9.679662803152939E1   4.109590671190501E-4  -9.708016271496952E1   9.901252997327675E-1   1.741991235884466E2  
 1.400000000000000E9     9.776731853600322E-1   1.734015468969649E2   4.197275975282669E-4  -9.987906919461753E1   4.013842878910266E-4  -1.025187481295216E2   9.906716703022336E-1   1.674987363338302E2  
 1.450000000000000E9     9.780257999052806E-1   1.669437412033907E2   4.234787022819451E-4  -1.107704813588248E2   4.319074205697187E-4  -1.087137419064790E2   9.917097526451855E-1   1.608390895765381E2  
 1.500000000000000E9     9.795366206422699E-1   1.605754490726167E2   4.569557279307390E-4  -1.138216508481663E2   4.805807103277881E-4  -1.141309440131295E2   9.922688804916204E-1   1.541713479714942E2  
 1.550000000000000E9     9.798978631325688E-1   1.542386324693349E2   4.783616121944649E-4  -1.221622693575328E2   5.082341691910310E-4  -1.238129783274019E2   9.927937718602706E-1   1.475195378837954E2  
 1.600000000000000E9     9.809956134070562E-1   1.479108207446344E2   4.844321609087015E-4  -1.287869898986440E2   5.004625692746202E-4  -1.300935959721789E2   9.925973247010537E-1   1.408763509143040E2  
 1.650000000000000E9     9.817763757742771E-1   1.415728383917748E2   5.354862704554776E-4  -1.379607474733744E2   5.520312705203882E-4  -1.370500067307542E2   9.932522382438291E-1   1.342294432508393E2  
 1.700000000000000E9     9.835933329543216E-1   1.353536421829305E2   5.779143087247380E-4  -1.460270519533515E2   5.469977503142070E-4  -1.456187264914163E2   9.924363170022048E-1   1.275877083493047E2  
 1.750000000000000E9     9.840895773347387E-1   1.291266912238252E2   5.745806926817774E-4  -1.544942040449291E2   5.696853498622092E-4  -1.540939730783166E2   9.918462703048664E-1   1.209304707114678E2  
 1.800000000000000E9     9.837270527221281E-1   1.228485029056965E2   5.871587474111232E-4  -1.640022015529008E2   5.918772494332723E-4  -1.670697951901586E2   9.894057125591677E-1   1.142727289504130E2  
 1.850000000000000E9     9.824764940018961E-1   1.164101480007924E2   5.760986803762584E-4  -1.753746926823025E2   6.009600430965813E-4  -1.732496317914932E2   9.874305431088755E-1   1.075360784992687E2  
 1.900000000000000E9     9.819184092511016E-1   1.101155862383345E2   6.029200732516537E-4   1.782643903615964E2   6.100256753059051E-4   1.778574975954213E2   9.853863264009266E-1   1.009416719821329E2  
 1.950000000000000E9     9.818406200906729E-1   1.037526032798032E2   6.091602812888644E-4   1.747063662220757E2   5.843880801075614E-4   1.755281872189508E2   9.826491837642895E-1   9.419785285000656E1  
 2.000000000000000E9     9.799026320018123E-1   9.735907392325892E1   5.785438678411861E-4   1.684805736016921E2   6.036170517592733E-4   1.676950168976648E2   9.814848300476131E-1   8.750379545470501E1  
 2.050000000000000E9     9.777988838495125E-1   9.074454890017461E1   6.434787128340386E-4   1.582269860785927E2   6.317036892578550E-4   1.580524131472514E2   9.798541655837330E-1   8.083776464284794E1  
 2.100000000000000E9     9.757482103062641E-1   8.421880346018486E1   6.241234858863143E-4   1.486429507104051E2   5.973420677585099E-4   1.519765510692862E2   9.791975352553575E-1   7.425732089876013E1  
 2.150000000000000E9     9.745894398503783E-1   7.770154493445486E1   6.493441159752874E-4   1.468548624898856E2   6.293048598485331E-4   1.448252993822439E2   9.768578283921191E-1   6.753931618657298E1  
 2.200000000000000E9     9.725193324342303E-1   7.113194609474715E1   6.517690194977854E-4   1.381638946566699E2   6.429525191336841E-4   1.380004692642363E2   9.763463237808846E-1   6.096847100122382E1  
 2.250000000000000E9     9.710964749545232E-1   6.442796477709209E1   6.982727168611169E-4   1.279180911771070E2   6.949912185995968E-4   1.281244333341798E2   9.759118718690155E-1   5.436491860943826E1  
 2.300000000000000E9     9.698020566412134E-1   5.775696955982012E1   6.883830045404101E-4   1.199738588001342E2   6.870767653127986E-4   1.181406748761439E2   9.761576192592301E-1   4.775356609072716E1  
 2.350000000000000E9     9.696321901096441E-1   5.106771418784649E1   6.606415302861514E-4   1.130947021345999E2   6.879481966406695E-4   1.080654891039492E2   9.775040001552562E-1   4.119983465417061E1  
 2.400000000000000E9     9.703634686107330E-1   4.450990360967718E1   6.487410819020788E-4   1.066527333466907E2   6.569141232876097E-4   1.060911196263578E2   9.777770113769779E-1   3.465376840093119E1  
 2.450000000000000E9     9.702554003366642E-1   3.776900700104953E1   6.660756755267678E-4   9.354468480219319E1   6.565374569223068E-4   9.415418147887471E1   9.780352657035321E-1   2.813961344647606E1  
 2.500000000000000E9     9.738310084033774E-1   3.114749142380343E1   6.199916763609362E-4   8.987863629526888E1   6.347407057963275E-4   8.745092900104238E1   9.779084919885860E-1   2.166814560612660E1  
 2.550000000000000E9     9.749716107339455E-1   2.453414402938305E1   6.063162205387382E-4   8.297918592418199E1   5.761850117759825E-4   8.467207312868599E1   9.778262807390684E-1   1.514743072733843E1  
 2.600000000000000E9     9.778681734304767E-1   1.793289889947884E1   5.541267329362767E-4   7.261127971639100E1   5.784671161010194E-4   7.830156677809708E1   9.773420009553835E-1   8.682824305109188  
 2.650000000000000E9     9.818047947320472E-1   1.142474915669857E1   5.797209063680209E-4   7.838106294379061E1   5.977104229119507E-4   7.170097740461428E1   9.756965829356856E-1   2.101096547950084  
 2.700000000000000E9     9.840628551769829E-1   4.827656394622550   5.984484427088279E-4   6.678419125298120E1   5.410747147437672E-4   7.229381316131043E1   9.751518960390494E-1  -4.466467039819541  
 2.750000000000000E9     9.871358616560115E-1  -1.605632036443180   6.417991617645224E-4   7.113798627319567E1   6.219964727193273E-4   6.751369891723790E1   9.737930919307182E-1  -1.106722236236124E1  
 2.800000000000000E9     9.906187412293369E-1  -8.197470061582227   6.687182351948416E-4   6.055786922068198E1   6.468388274223782E-4   6.575413347417560E1   9.719415844103592E-1  -1.764683697084713E1  
 2.850000000000000E9     9.946381353123374E-1  -1.463634371409816E1   6.994967960134922E-4   5.489955477002610E1   7.381189684061600E-4   5.746582754923588E1   9.733390600720185E-1  -2.418015378338190E1  
 2.900000000000000E9     9.954425592364055E-1  -2.119247770455828E1   7.377751006871166E-4   5.070365014189174E1   7.226131722339052E-4   4.708636455317830E1   9.734750902671495E-1  -3.073836115437880E1  
 2.950000000000000E9     9.976620661344813E-1  -2.771876061395599E1   7.338187374475609E-4   4.232372826445585E1   7.685676513349303E-4   4.229523425546169E1   9.733376095167170E-1  -3.732357418923896E1  
 3.000000000000000E9     9.972538636765713E-1  -3.432317103668827E1   7.745838993048964E-4   3.249037357124421E1   8.502336903055022E-4   3.175415142535611E1   9.734520314447919E-1  -4.401006704922330E1  
 3.050000000000000E9     9.993288986331448E-1  -4.092975553517314E1   7.796857936610498E-4   2.063539498622370E1   7.848471041336582E-4   2.101670747045652E1   9.734130687397107E-1  -5.072903787853409E1  
 3.100000000000000E9     1.000133283952613  -4.753421473827134E1   8.458998790441705E-4   1.113569622561320E1   7.511733195736774E-4   1.324484861250469E1   9.733674041956313E-1  -5.736313023042847E1  
 3.150000000000000E9     1.000052869740238  -5.424466467542830E1   7.681497122928176E-4   6.064393567643553   7.305835726626006E-4   3.952853713260999   9.735637879907475E-1  -6.399536492150011E1  
 3.200000000000000E9     9.995706646082304E-1  -6.090700134106711E1   8.085734104792744E-4  -6.006909321879732E-1   7.900865526488629E-4   3.375947871583909E-1   9.737801263831510E-1  -7.075686252411691E1  
 3.250000000000000E9     9.974302897379456E-1  -6.768681987978378E1   7.867893360751517E-4  -6.924524680628892   8.092022357908130E-4  -5.466813789134689   9.739799122712571E-1  -7.759114101725494E1  
 3.300000000000000E9     9.972797174230684E-1  -7.449485789922505E1   7.861229716466161E-4  -1.403826635363219E1   8.108418648004080E-4  -1.346798097679257E1   9.764955269099223E-1  -8.438355729821495E1  
 3.350000000000000E9     9.953716399759236E-1  -8.133183783692662E1   7.998322411964865E-4  -2.112950320647218E1   8.349438472106002E-4  -2.126936143123504E1   9.754800812797795E-1  -9.125710538692603E1  
 3.400000000000000E9     9.938485037367655E-1  -8.821015872685190E1   8.283002821308887E-4  -2.813968252909270E1   7.892962262331443E-4  -3.124934043991797E1   9.763512747320813E-1  -9.810844070332666E1  
 3.450000000000000E9     9.921984573439235E-1  -9.508383267537464E1   7.837195309821753E-4  -3.653769070972936E1   8.045769309569104E-4  -4.073858760199179E1   9.777601829032933E-1  -1.050362971245900E2  
 3.500000000000000E9     9.899172710344990E-1  -1.020773104906669E2   7.351006552336735E-4  -4.412231087921562E1   7.478740147556658E-4  -4.289357884239046E1   9.796771039964891E-1  -1.119735914112791E2  
 3.550000000000000E9     9.898496806242818E-1  -1.091374770979464E2   7.303600738663498E-4  -4.809870037676703E1   7.533072704770210E-4  -5.136737299256384E1   9.799503553895209E-1  -1.189826973143777E2  
 3.600000000000000E9     9.893148167798805E-1  -1.159956306838760E2   7.568472364755385E-4  -5.555828355497528E1   7.642547754732891E-4  -4.974818027213926E1   9.797171820668696E-1  -1.260515393881179E2  
 3.650000000000000E9     9.880951419679336E-1  -1.230697986876857E2   7.497742990578126E-4  -5.969448026758042E1   8.167483578036507E-4  -5.629725230268708E1   9.826504782411403E-1  -1.330046524574261E2  
 3.700000000000000E9     9.868186257681785E-1  -1.299870167705324E2   7.890773205191457E-4  -6.276017122309139E1   8.308504975546922E-4  -6.332422539348063E1   9.853763325923346E-1  -1.400162139489067E2  
 3.750000000000000E9     9.854379666800204E-1  -1.369934060454982E2   7.973771762703186E-4  -6.915949426815675E1   8.719899918181031E-4  -6.947319782476336E1   9.884927518661786E-1  -1.469061419929003E2  
 3.800000000000000E9     9.851883818309426E-1  -1.439444064864603E2   8.508372646180217E-4  -7.843682740313444E1   8.393743275691979E-4  -7.726669983498370E1   9.873702508169765E-1  -1.539945125295741E2  
 3.850000000000000E9     9.851286470277449E-1  -1.508891369293279E2   8.653943518673355E-4  -8.499686342485852E1   8.492351772542184E-4  -8.379108729192807E1   9.899948960580572E-1  -1.611102197047536E2  
 3.900000000000000E9     9.850089765335727E-1  -1.578712845329988E2   8.785169806414813E-4  -9.285784766015817E1   8.637264899212143E-4  -9.251754932281983E1   9.908147456656532E-1  -1.681285091720823E2  
 3.950000000000000E9     9.871227954135041E-1  -1.647516684404855E2   8.356828496679687E-4  -9.932669641836472E1   8.820132377638210E-4  -1.008421137339872E2   9.919856494518986E-1  -1.752234250749704E2  
 4.000000000000000E9     9.881236999815096E-1  -1.715405682704810E2   9.403646271596617E-4  -1.078253700734477E2   9.141573769428640E-4  -1.070456698897987E2   9.930169766413000E-1   1.776223931627901E2  
 4.050000000000000E9     9.914471661495986E-1  -1.783086029937573E2   8.781163541209362E-4  -1.136585738286443E2   9.053049212672405E-4  -1.144544055181149E2   9.928945980407545E-1   1.706531105994065E2  
 4.100000000000000E9     9.932816292915807E-1   1.749326793877911E2   8.833888707275966E-4  -1.229286474327879E2   8.931752204443676E-4  -1.240736256077252E2   9.926597925532830E-1   1.636137268228163E2  
 4.150000000000000E9     9.954766356025490E-1   1.682273441751506E2   8.974895437818779E-4  -1.295872449172533E2   8.723534660364691E-4  -1.291101051925821E2   9.921743670336788E-1   1.564440148986452E2  
 4.200000000000000E9     9.977069458451201E-1   1.615877876156553E2   8.704474707869920E-4  -1.383032136174440E2   8.770037903752401E-4  -1.349222886797109E2   9.920190389599702E-1   1.494070949232851E2  
 4.250000000000000E9     9.993712131624443E-1   1.549115686640641E2   8.765010836483859E-4  -1.420947698852259E2   8.599318991182363E-4  -1.424172738881358E2   9.921464012054306E-1   1.422611039064595E2  
 4.300000000000000E9     1.001509097580790   1.483116763145178E2   8.690609508608598E-4  -1.502887824695426E2   8.706140088933624E-4  -1.478405050868887E2   9.935339181262847E-1   1.351705910232931E2  
 4.350000000000000E9     1.001472858139612   1.416045962207380E2   8.670364971417133E-4  -1.535039170492748E2   8.494614258580720E-4  -1.565331826653703E2   9.949094324280468E-1   1.280419138056674E2  
 4.400000000000000E9     1.002692943420808   1.349509804180405E2   8.370288173296537E-4  -1.609129792157498E2   8.499204655400784E-4  -1.598181571302708E2   9.958339847568407E-1   1.209976759899819E2  
 4.450000000000000E9     1.003435985316092   1.283572826733260E2   8.499119555189913E-4  -1.642161213104156E2   8.531597445986738E-4  -1.642598574695400E2   9.966586265727451E-1   1.140259853397020E2  
 4.500000000000000E9     1.002666082852309   1.217122489727424E2   8.611573569841140E-4  -1.728129854789549E2   8.783168042856630E-4  -1.721166319074878E2   9.976348546626473E-1   1.069825546481570E2  
 4.550000000000000E9     1.003261673124136   1.150630915201600E2   9.011038876754800E-4  -1.796857058884976E2   9.168401361779027E-4  -1.777375261092704E2   9.985263847042470E-1   9.994527140874368E1  
 4.600000000000000E9     1.001333315499433   1.085130566793316E2   8.890521354775763E-4   1.739249636354375E2   9.149926497482835E-4   1.749709869919301E2   9.987204482773846E-1   9.298759388392794E1  
 4.650000000000000E9     1.002359164667034   1.019262293925769E2   9.300694089173894E-4   1.684320627588292E2   9.059446442158548E-4   1.692230482653215E2   1.000224701761957   8.592646081244948E1  
 4.700000000000000E9     1.000748677714436   9.536646656169353E1   9.143784956735068E-4   1.636486411132310E2   9.186549643293829E-4   1.622258078067034E2   1.001844955639772   7.913985358463380E1  
 4.750000000000000E9     1.001332465362470   8.873551049431084E1   9.071700419352741E-4   1.531110012205486E2   9.308080169259548E-4   1.559984536209514E2   1.001976480256166   7.226863144272535E1  
 4.800000000000000E9     1.002459220088932   8.220452832765689E1   9.187572318427316E-4   1.499226217401857E2   9.189411990425795E-4   1.493003709701071E2   9.999280615759298E-1   6.548035229645080E1  
 4.850000000000000E9     1.003391861089933   7.571031038861494E1   9.117814547676947E-4   1.426010724940236E2   9.382370807463087E-4   1.423837569543687E2   9.984337854718540E-1   5.852356410828612E1  
