#  HZ   S   MA   R     50.00 
! Rohde & Schwarz ZVA67 4Ports - Version 4.11 - 1305.7002k04 SN: 101051
! Date: 2023-05-31 11:10:17
! Measurements: S11 S21 S12 S22 
! 
 5.000000000000000E7     9.889515734424612E-1   1.729125612557936E2   6.344285938936297E-5   3.081031186081523E1   6.459964991756192E-5  -7.486054470481287E1   1.004491849463261   1.736284553699707E2  
 1.000000000000000E8     9.902352043079076E-1   1.666554278672243E2   1.121612073648693E-4  -8.700207434271705E1   8.124393529419688E-5  -5.520381281506697E1   9.956241516247573E-1   1.662902911954153E2  
 1.500000000000000E8     9.880346783863443E-1   1.599456129743283E2   4.526154587206586E-5  -5.541969143981029E-1   5.487242505630375E-5   1.000353412052873E2   9.915532674679518E-1   1.597666932484644E2  
 2.000000000000000E8     9.860035655098594E-1   1.531497429136047E2   5.754446016969879E-5   8.492460881602403E1   7.050931656616155E-5   4.115436499227876E1   9.939416694902492E-1   1.530507718173222E2  
 2.500000000000000E8     9.835056332690856E-1   1.465670313824725E2   6.376441136768709E-5   1.127477012439668E2   5.402209301301346E-5  -4.270893458180348E1   9.891910401170336E-1   1.462511058542192E2  
 3.000000000000000E8     9.780387881081962E-1   1.398680712104732E2   1.040865061322847E-4   7.252714565954710E1   2.568952286066059E-5   1.275701456653319E2   9.858793748663747E-1   1.393192448620511E2  
 3.500000000000000E8     9.772041848374535E-1   1.331147510874820E2   4.325643192075102E-5   1.098493146124842E2   2.991416199511093E-5   1.238535353950150E1   9.844391997186558E-1   1.325769330894978E2  
 4.000000000000000E8     9.710065224347152E-1   1.263121847781451E2   2.525054447210100E-5  -2.442386755793826E1   2.807638796216975E-5   2.247564155008048E1   9.808556569185313E-1   1.258683650080619E2  
 4.500000000000000E8     9.697473100195734E-1   1.195787962763641E2   5.188091816898814E-5   3.400154472660503E1   4.813579249415811E-5   2.296028755665008E1   9.793620114032149E-1   1.190919645081125E2  
 5.000000000000000E8     9.689271851043630E-1   1.130266183409727E2   2.192858125512483E-5   1.509447093339780E1   6.723383681296640E-5  -8.681508560783247   9.781313621185851E-1   1.123693721082061E2  
 5.500000000000000E8     9.682399100793483E-1   1.064547184811768E2   8.078066787530619E-5   3.887716756347156   7.011321364219272E-5   7.059576618656593   9.782180863484695E-1   1.057069449574730E2  
 6.000000000000000E8     9.677931445037110E-1   9.987586750433660E1   8.215126874121282E-5  -1.245678017047031E1   9.297077319270684E-5  -3.077583800741655   9.779185178015073E-1   9.906982542485945E1  
 6.500000000000000E8     9.664262122778194E-1   9.337452077057408E1   7.534572567824864E-5  -8.124517259936184   8.344659278553431E-5  -1.098669144322975E1   9.779406962843379E-1   9.235313143161751E1  
 7.000000000000000E8     9.689950272585652E-1   8.695958651012984E1   8.681342450869416E-5  -1.585883546575523   5.272224970776676E-5  -3.672514641386990E1   9.788393046477261E-1   8.577836814020255E1  
 7.500000000000000E8     9.713947718675052E-1   8.059663403200126E1   5.666939582490062E-5  -3.583556662708264   6.638366015884854E-5  -2.824866676393877E1   9.822731720747370E-1   7.907575319984092E1  
 8.000000000000000E8     9.751017701457089E-1   7.414490498992635E1   8.616042700632056E-5  -1.866349991109594E1   7.283151811719803E-5  -3.484394277882727E1   9.861430113047709E-1   7.251377261194529E1  
 8.500000000000000E8     9.782001400132149E-1   6.777556411779796E1   9.662710673435803E-5  -2.825947192215037E1   7.952826275086671E-5  -2.264999798797649E1   9.882503659370306E-1   6.577805327782649E1  
 9.000000000000000E8     9.797534342725639E-1   6.136358469423230E1   9.133769378332159E-5  -3.117501233931280E1   5.384074720925315E-5  -1.496886571385137E1   9.886197922061558E-1   5.911580805818318E1  
 9.500000000000000E8     9.835595003960604E-1   5.501616320054693E1   7.487976839946962E-5  -6.646549156334964E1   9.752037875336796E-5  -4.284456316617328E1   9.881973558197560E-1   5.238723600358556E1  
 1.000000000000000E9     9.859666031430977E-1   4.863459434685409E1   1.083713744722715E-4  -3.771607550722813E1   6.439861974542551E-5  -4.458903526102863E1   9.885817759862153E-1   4.569390565134836E1  
 1.050000000000000E9     9.878575006230452E-1   4.217180439792099E1   1.003937302700767E-4  -5.741517153369617E1   8.790144171435000E-5  -5.473935400439172E1   9.877069806996631E-1   3.890758386781503E1  
 1.100000000000000E9     9.901071359934823E-1   3.571464685988587E1   9.680956371175734E-5  -7.353472570130768E1   1.061879929797128E-4  -6.205731188192183E1   9.879611636053949E-1   3.218189696189446E1  
 1.150000000000000E9     9.911939781395819E-1   2.918703987674742E1   1.186057762164104E-4  -8.183740583745427E1   8.174987299925556E-5  -7.159261125820086E1   9.881394188167731E-1   2.546801475998756E1  
 1.200000000000000E9     9.936592458346241E-1   2.270493348544967E1   1.185452902565966E-4  -8.296304573133577E1   1.325093341648006E-4  -7.362968153449472E1   9.879012686422670E-1   1.862411523126199E1  
 1.250000000000000E9     9.928457573410069E-1   1.596757881641985E1   1.387607614617164E-4  -9.325747255459336E1   1.160924725718998E-4  -7.736919248548516E1   9.872501847886931E-1   1.185213261522263E1  
 1.300000000000000E9     9.938259728880651E-1   9.290342387311403   1.201509154599750E-4  -9.546738071868676E1   1.226894860937090E-4  -9.663444160212846E1   9.860847637170218E-1   5.015080655567662  
 1.350000000000000E9     9.930717474682560E-1   2.599233872418088   1.203911112480044E-4  -1.029516453208309E2   1.179397882639674E-4  -9.065989320377965E1   9.863867098622154E-1  -1.787617353247372  
 1.400000000000000E9     9.926290318097100E-1  -4.174942594645784   1.360702977896122E-4  -9.172278560127492E1   9.909156678968394E-5  -9.693629567373907E1   9.854978008003146E-1  -8.586374345158905  
 1.450000000000000E9     9.916574234444355E-1  -1.094729326178563E1   1.105128790909813E-4  -1.064375359687699E2   1.400999533445335E-4  -1.102726613090934E2   9.847964267903977E-1  -1.546380025260325E1  
 1.500000000000000E9     9.900861485203972E-1  -1.781521302660273E1   1.347465408713299E-4  -1.181568829424929E2   1.287098738176285E-4  -1.148112480945095E2   9.850484541968669E-1  -2.229838065782303E1  
 1.550000000000000E9     9.893144787075265E-1  -2.466876064465165E1   1.424668869805133E-4  -1.313207769939462E2   1.418024768717785E-4  -1.167653514844630E2   9.851189550325373E-1  -2.914009328104208E1  
 1.600000000000000E9     9.880095245084137E-1  -3.154791786439245E1   1.690851538606297E-4  -1.203113709953947E2   1.372471482215568E-4  -1.330219980834663E2   9.862716580158100E-1  -3.599968984370921E1  
 1.650000000000000E9     9.874576486484150E-1  -3.846308550331179E1   1.413083087275518E-4  -1.306071488516189E2   1.494527970639894E-4  -1.455185504526361E2   9.870159013641450E-1  -4.292881960456420E1  
 1.700000000000000E9     9.848337894381694E-1  -4.537866398964895E1   1.798380041157283E-4  -1.469990112478153E2   1.404322073614168E-4  -1.417063304438511E2   9.888444370127104E-1  -4.974874414017935E1  
 1.750000000000000E9     9.849742660569530E-1  -5.226165754938226E1   1.372528600369980E-4  -1.540812005193490E2   1.603556748139718E-4  -1.449129842016972E2   9.905172544443280E-1  -5.663065477715981E1  
 1.800000000000000E9     9.859198629817765E-1  -5.908284179954192E1   1.261066464391080E-4  -1.723541074430320E2   1.456467524498477E-4  -1.514360471404725E2   9.921141339593071E-1  -6.355611175663636E1  
 1.850000000000000E9     9.880832572311298E-1  -6.576256382156561E1   1.732551453257775E-4  -1.545265831034948E2   1.850174445041406E-4  -1.668214850998327E2   9.941732459219290E-1  -7.040494735072950E1  
 1.900000000000000E9     9.893711845384733E-1  -7.255650004277317E1   1.675963138697906E-4  -1.673180673943625E2   1.693582800265534E-4  -1.731508036007797E2   9.962803494766366E-1  -7.739434655953676E1  
 1.950000000000000E9     9.908774437329990E-1  -7.920292052131084E1   1.430063431801075E-4  -1.798064477654355E2   1.664972514527416E-4   1.755892589951043E2   9.983880490754440E-1  -8.418803182471277E1  
 2.000000000000000E9     9.932605953661307E-1  -8.586664686842053E1   1.828307774532780E-4  -1.619598779281801E2   1.884089759110321E-4  -1.761608031995141E2   9.992692062902283E-1  -9.111392902606838E1  
 2.050000000000000E9     9.967992086399531E-1  -9.237229032047196E1   1.497265930295155E-4   1.753834641083791E2   1.798909585433570E-4   1.744447009014246E2   9.999216606131449E-1  -9.808662210596891E1  
 2.100000000000000E9     9.999269128890000E-1  -9.885570903836886E1   2.292138367598775E-4   1.592971343998382E2   2.357495296375927E-4   1.626792133858610E2   1.000124285357404  -1.050811529327474E2  
 2.150000000000000E9     1.003211754071914  -1.054364719773641E2   1.730717846760673E-4   1.571568326981227E2   1.887476648908508E-4   1.630455596853295E2   1.000141021562496  -1.119625104603552E2  
 2.200000000000000E9     1.006518920893520  -1.118041855299800E2   1.851593128158014E-4   1.481211890217441E2   1.894209201148430E-4   1.493521514488471E2   9.999607917047605E-1  -1.190036869648982E2  
 2.250000000000000E9     1.009543557793221  -1.182458217157145E2   2.160882238214552E-4   1.431410248246034E2   1.800496395404143E-4   1.483012579867771E2   9.987606041407672E-1  -1.260080647922462E2  
 2.300000000000000E9     1.010117524350894  -1.246065548424513E2   2.124630366270136E-4   1.356026459528348E2   2.088822469945522E-4   1.319726118189186E2   9.948394226501268E-1  -1.330516753350210E2  
 2.350000000000000E9     1.010784366231365  -1.310369755860858E2   2.162131001664043E-4   1.277109373805131E2   2.187678051385951E-4   1.246023248342482E2   9.931285171097990E-1  -1.401416327499719E2  
 2.400000000000000E9     1.011279532507864  -1.375111337046454E2   2.306200459268303E-4   1.294673923055339E2   2.352119013753120E-4   1.261356045918812E2   9.902921506686082E-1  -1.471895304426068E2  
 2.450000000000000E9     1.011155053445131  -1.439918070412407E2   2.108053120721108E-4   1.155999856447267E2   2.223717890330051E-4   1.187733371185202E2   9.885333555407199E-1  -1.542487670541320E2  
 2.500000000000000E9     1.009835702512170  -1.505096515113530E2   2.238426880936240E-4   1.034453994895915E2   2.192449198205250E-4   1.162246672556708E2   9.876132250909192E-1  -1.614209429187911E2  
 2.550000000000000E9     1.007847959218076  -1.570350542020321E2   2.209544399435536E-4   1.078240825624557E2   2.245352753299457E-4   1.031244409570752E2   9.880444815369334E-1  -1.684866266064676E2  
 2.600000000000000E9     1.004161739346336  -1.636506748275780E2   2.439902639268779E-4   1.010721971035102E2   2.140648033251761E-4   9.689395807875155E1   9.873565827227847E-1  -1.756121345099633E2  
 2.650000000000000E9     1.001644185629450  -1.702975820893775E2   2.518676090004048E-4   9.915974659669303E1   2.310617436470174E-4   9.437974834820426E1   9.873752267073785E-1   1.773570075983082E2  
 2.700000000000000E9     9.986838031007873E-1  -1.769611424639971E2   2.302210607752324E-4   7.319828786020884E1   2.296202728029329E-4   8.916391498209345E1   9.861490870440629E-1   1.703646389778545E2  
 2.750000000000000E9     9.945454588356011E-1   1.763101981716157E2   2.477039460570426E-4   8.618378400236651E1   2.219677931193675E-4   7.686268502655349E1   9.852810018165478E-1   1.633174437437448E2  
 2.800000000000000E9     9.915077002019666E-1   1.696094000800032E2   2.558809825912747E-4   7.256240572719607E1   2.450517204949956E-4   7.492087065502020E1   9.864244863259787E-1   1.562645346386119E2  
 2.850000000000000E9     9.882213750102632E-1   1.627200638236290E2   2.772205768648535E-4   5.001566002401673E1   2.213246913852506E-4   5.478677619515572E1   9.851143830064840E-1   1.492483082465033E2  
 2.900000000000000E9     9.860552811061374E-1   1.559161769295561E2   2.389428122182037E-4   5.692001579501164E1   2.690039713271558E-4   5.992536934356858E1   9.845442605022128E-1   1.422973768629684E2  
 2.950000000000000E9     9.840221675081448E-1   1.491768283836618E2   2.338975021965612E-4   4.720484544812958E1   2.606353553526383E-4   5.271385963020317E1   9.831689138374526E-1   1.352474335496904E2  
 3.000000000000000E9     9.840810549839925E-1   1.424429275811858E2   2.268744326119689E-4   4.348282560363596E1   2.542993663015423E-4   2.994520430580171E1   9.823603281341874E-1   1.283711315371185E2  
 3.050000000000000E9     9.830524946896603E-1   1.357923490329777E2   2.659577293404316E-4   3.529082005503647E1   2.572652028943096E-4   2.995239497432869E1   9.817024871438088E-1   1.214902821042621E2  
 3.100000000000000E9     9.819258571135071E-1   1.289511514901263E2   2.783464693974316E-4   4.131277388051872E1   2.771942911836996E-4   2.149945409981544E1   9.801427655022378E-1   1.146590543579434E2  
 3.150000000000000E9     9.819772203344984E-1   1.223359526309723E2   3.015565291241574E-4   1.924555860939215E1   2.655332226284262E-4   3.132557551201704E1   9.796822050873252E-1   1.077867947503578E2  
 3.200000000000000E9     9.823450677659802E-1   1.157180495172328E2   2.812937699837353E-4   1.461541135638142E1   2.858084351404415E-4   1.768601380059923E1   9.793926850053076E-1   1.010454658582971E2  
 3.250000000000000E9     9.837145368589004E-1   1.092031072033036E2   2.746322188051983E-4   1.306826594674945E1   2.712049868954248E-4   1.505113586755068E1   9.792737197524218E-1   9.436017992255384E1  
 3.300000000000000E9     9.838414644161039E-1   1.027387041314056E2   3.011891966208532E-4  -3.002680415035883   2.572896890768926E-4   5.604360398700173   9.789946279088929E-1   8.770849651562590E1  
 3.350000000000000E9     9.858227215710654E-1   9.624924807471426E1   2.516313914384901E-4   1.287163170687840E1   2.677169348351281E-4  -1.193730128593152E1   9.788537225630288E-1   8.105043566091284E1  
 3.400000000000000E9     9.866633200331871E-1   8.996200621999523E1   2.289515563469139E-4  -9.033495156112014   2.824165725998321E-4  -8.013065986987000   9.786321147258966E-1   7.442658796334253E1  
 3.450000000000000E9     9.882934484158410E-1   8.360795053256913E1   2.629086200727679E-4  -5.113216777674364   3.122793461521281E-4  -1.394049240730165E1   9.784622905198062E-1   6.781187200250086E1  
 3.500000000000000E9     9.932673062106711E-1   7.736176006548958E1   3.039989025096819E-4  -1.877281641143018E1   2.721690349630143E-4  -2.654841669407685E1   9.776259558179298E-1   6.118962130742673E1  
 3.550000000000000E9     9.929407476408357E-1   7.100016629201257E1   2.670780476687654E-4  -3.218639744173900E1   2.840039314388552E-4  -3.205421645743672E1   9.780227819743842E-1   5.461026676207587E1  
 3.600000000000000E9     9.951240401824986E-1   6.465293720005161E1   3.066356120789157E-4  -3.719095065567545E1   3.069852465927087E-4  -4.004930321986546E1   9.777797850842912E-1   4.819418706851256E1  
 3.650000000000000E9     9.962656208661274E-1   5.837218841476657E1   3.655187921704791E-4  -4.718452674886628E1   3.134267493865734E-4  -4.027112229011381E1   9.755420261256461E-1   4.165172087532945E1  
 3.700000000000000E9     9.969778806252650E-1   5.208673926365892E1   2.706677587736453E-4  -5.356877383667634E1   3.077530040221792E-4  -4.890638049099307E1   9.730800760563215E-1   3.509350080371242E1  
 3.750000000000000E9     9.982712057078961E-1   4.578536137591996E1   3.050318290421021E-4  -5.437927258610117E1   3.350779692628877E-4  -5.619481883494922E1   9.704461523261087E-1   2.843813140603096E1  
 3.800000000000000E9     9.981473509698355E-1   3.955027421033667E1   3.360462417664204E-4  -5.862209408035484E1   3.135041726558674E-4  -6.157754958883232E1   9.690557437916136E-1   2.190825827473112E1  
 3.850000000000000E9     9.974499708861303E-1   3.329182842254164E1   2.691944219524241E-4  -7.363926186513683E1   3.094717281546071E-4  -7.015276109369624E1   9.668958148660168E-1   1.547851748361254E1  
 3.900000000000000E9     9.970797522932858E-1   2.699217744274678E1   3.375939057355009E-4  -7.422531440067486E1   2.804561408609590E-4  -7.581761223176611E1   9.653478409170859E-1   8.939086149351086  
 3.950000000000000E9     9.943033027406979E-1   2.070706065864845E1   3.149316918066460E-4  -7.305427704181204E1   3.187062210589455E-4  -7.300602278597268E1   9.638655554496843E-1   2.441350347748307  
 4.000000000000000E9     9.937687079273422E-1   1.432355959240612E1   3.156164199395909E-4  -9.486232154945506E1   3.155981528661119E-4  -8.632396940239191E1   9.624663451403223E-1  -3.963887417963593  
 4.050000000000000E9     9.907921177084348E-1   7.924656257323530   3.098291737095068E-4  -9.111655188053773E1   3.350794627352170E-4  -9.509599555022729E1   9.607553608076263E-1  -1.055867450596682E1  
 4.100000000000000E9     9.887114538172306E-1   1.469120798543604   3.153620950708294E-4  -1.000714746240786E2   3.325184143059563E-4  -9.855533575607731E1   9.596986928440645E-1  -1.708183023233175E1  
 4.150000000000000E9     9.865320730169869E-1  -4.965410038415453   3.599399133112951E-4  -1.053811871310164E2   3.281726850558980E-4  -1.084462283788536E2   9.580347425837377E-1  -2.354976632755410E1  
 4.200000000000000E9     9.837907762671733E-1  -1.147990987559728E1   3.468186219569580E-4  -1.126033303803893E2   3.358931320094888E-4  -1.161774394589390E2   9.582596487622059E-1  -3.007659846379318E1  
 4.250000000000000E9     9.813574944895268E-1  -1.797482814129231E1   3.391548214660116E-4  -1.220113568638180E2   3.355668127018879E-4  -1.176253725692345E2   9.578783805506398E-1  -3.648010657571393E1  
 4.300000000000000E9     9.791165336873672E-1  -2.454123891242315E1   3.394534763144093E-4  -1.273136644762984E2   3.390361812301557E-4  -1.255639731460462E2   9.565889831512866E-1  -4.292537612992842E1  
 4.350000000000000E9     9.791142587469470E-1  -3.099256056313016E1   2.980049694316707E-4  -1.343406392017465E2   3.410440474229085E-4  -1.305421439022404E2   9.560092206473657E-1  -4.940632948124886E1  
 4.400000000000000E9     9.780803228013074E-1  -3.747152911837571E1   3.587709651627897E-4  -1.321987205136894E2   3.549553456468229E-4  -1.371162219871520E2   9.545888993085462E-1  -5.592494425888309E1  
 4.450000000000000E9     9.783054071025109E-1  -4.399127848992793E1   3.478213479499988E-4  -1.483808039726801E2   3.680311256702931E-4  -1.493404427444865E2   9.536261430809399E-1  -6.248158260217713E1  
 4.500000000000000E9     9.787358626496314E-1  -5.043702904355343E1   3.884001800821812E-4  -1.524023729364310E2   3.623771578218292E-4  -1.514017220261373E2   9.527001744016979E-1  -6.902068577156778E1  
 4.550000000000000E9     9.791762550880587E-1  -5.695363656345482E1   3.418613727641233E-4  -1.578075223788841E2   3.715782964797705E-4  -1.569340825373203E2   9.511579240919904E-1  -7.558835529978457E1  
 4.600000000000000E9     9.813644114061181E-1  -6.350981364079024E1   3.847527778922546E-4  -1.633056421898138E2   3.869022195441204E-4  -1.642511870329381E2   9.515060302065453E-1  -8.217040404785261E1  
 4.650000000000000E9     9.831467946631038E-1  -7.006612942614305E1   3.854362403124772E-4  -1.711926763819061E2   3.687464375565884E-4  -1.715022408616893E2   9.506778043741290E-1  -8.867373423056228E1  
 4.700000000000000E9     9.853034136127675E-1  -7.660788686988207E1   3.905139576956529E-4   1.796096399540506E2   3.585840209147327E-4   1.796074695422691E2   9.493809126307428E-1  -9.540018151693737E1  
 4.750000000000000E9     9.869073205153717E-1  -8.308232079265954E1   3.600839837937931E-4   1.767337370020302E2   3.732771196171528E-4   1.760240620714955E2   9.493608509260437E-1  -1.020940544751265E2  
 4.800000000000000E9     9.886657198388875E-1  -8.966748205296355E1   3.936757381598721E-4   1.708305221039401E2   3.916516753358852E-4   1.709440918189711E2   9.499690763284554E-1  -1.088280912569936E2  
 4.850000000000000E9     9.899710728178096E-1  -9.620383584427844E1   3.814404680547572E-4   1.646957376303693E2   4.357400285549308E-4   1.624278257947877E2   9.514854792573408E-1  -1.154555376059565E2  
