#  HZ   S   MA   R     50.00 
! Rohde & Schwarz ZVA67 4Ports - Version 4.11 - 1305.7002k04 SN: 101051
! Date: 2023-05-31 11:10:38
! Measurements: S11 S21 S12 S22 
! 
 5.000000000000000E7     9.917034100980815E-1   1.731964152852547E2   5.955976703539078E-5   1.340834399466548E2   2.762250832139004E-4   6.253920857037343E1   1.006181120528420   1.734258244273292E2  
 1.000000000000000E8     9.928368233291507E-1   1.665868319252530E2   1.256369145008172E-4   4.857724354567043E1   8.880413734729647E-5   2.186983093417571E1   9.982713431554197E-1   1.664581890087467E2  
 1.500000000000000E8     9.880673295985213E-1   1.598971210503184E2   8.551511360487861E-5   1.310153270320523E2   4.581215972825741E-5  -1.544927048121464E2   9.924449567581093E-1   1.596965249684495E2  
 2.000000000000000E8     9.851184805215473E-1   1.530890888298845E2   7.441579658609778E-5  -4.568557667626667E1   8.379873542610107E-5   3.146971202933244E1   9.930798861926934E-1   1.530384839035235E2  
 2.500000000000000E8     9.823493692517068E-1   1.465228379313540E2   2.636974841606490E-5   1.315583244772598E2   5.588436274101673E-5  -7.095050165800906E1   9.902634783543358E-1   1.462165732989631E2  
 3.000000000000000E8     9.776794405911060E-1   1.398400688826533E2   7.280696619848184E-5  -1.316279221269346E1   7.264514313517503E-5   3.871093098015141   9.869606184215558E-1   1.393240612350137E2  
 3.500000000000000E8     9.760178877558122E-1   1.330782171688983E2   5.986534361678595E-5   9.877484931986642   5.089821519659568E-5   5.680843090428513E1   9.840526602344183E-1   1.325825730724261E2  
 4.000000000000000E8     9.709463198781463E-1   1.263429468106948E2   2.111535293101718E-5   1.429492378626421E2   3.504059613957977E-5   4.316926000976361E1   9.797908176811921E-1   1.258790523457052E2  
 4.500000000000000E8     9.694913183347632E-1   1.195740209925043E2   5.647401235407094E-5   9.807097691908215   3.870125181859406E-5  -9.382940899274777   9.792272356486592E-1   1.190507807421340E2  
 5.000000000000000E8     9.679839990782511E-1   1.130351201740668E2   8.826607665959231E-5   2.967084771951748E1   8.058417609127158E-5   2.881377683085503E1   9.783846493897886E-1   1.123347663476558E2  
 5.500000000000000E8     9.678956123307877E-1   1.064183717501544E2   4.550893725872358E-5   2.615440144817204E1   2.521984402837247E-5   2.199181262396131   9.785618355385849E-1   1.057106418107090E2  
 6.000000000000000E8     9.677993674824977E-1   9.985465084576634E1   7.580678420848645E-5   1.972861223296188E1   7.828937719072390E-5  -1.128086895421208E1   9.775267876193842E-1   9.904705932446458E1  
 6.500000000000000E8     9.653305825221084E-1   9.336171008644328E1   6.895091567330202E-5  -1.188862382585512E1   6.911843863926412E-5   8.444994957574902   9.781112733962748E-1   9.234643757523541E1  
 7.000000000000000E8     9.688540843651180E-1   8.694184782934424E1   6.320416700921534E-5  -4.241157790912115E1   7.943646806665529E-5  -4.057550935422306E1   9.794572820190592E-1   8.578458649787606E1  
 7.500000000000000E8     9.706602421563856E-1   8.062829390120255E1   6.050582376261142E-5  -1.607608527747428E1   7.781542323292704E-5  -2.799126923922785E1   9.823557824869046E-1   7.905385614385979E1  
 8.000000000000000E8     9.753861199250323E-1   7.415890425219965E1   9.066675995839480E-5  -3.462612365521778E1   5.760135971329150E-5  -5.117047631477044E1   9.861248623052847E-1   7.250528513329995E1  
 8.500000000000000E8     9.772404115403803E-1   6.775365299307632E1   1.007170474411861E-4  -3.967722739054562E1   8.073619007331461E-5  -2.729552065715957E1   9.874657393420784E-1   6.577670410415928E1  
 9.000000000000000E8     9.799494698096771E-1   6.136893987377812E1   7.348285629372804E-5  -3.240473503699108E1   7.410173063031352E-5  -3.241585700167713E1   9.884569586533990E-1   5.912972711311394E1  
 9.500000000000000E8     9.829148294339876E-1   5.503451409244497E1   9.543157473774869E-5  -1.859941658904931E1   8.900760411659953E-5  -3.034836279206700E1   9.881284848894687E-1   5.238696024845128E1  
 1.000000000000000E9     9.856621510563373E-1   4.862115613603501E1   8.123391155432130E-5  -5.391368800860715E1   9.809905540176407E-5  -3.832209781013899E1   9.884996710428826E-1   4.570074536901225E1  
 1.050000000000000E9     9.876649148540332E-1   4.217472125729978E1   9.210375132657497E-5  -4.709420770858051E1   7.708230384286903E-5  -5.651050465356854E1   9.877988960170758E-1   3.893289271046538E1  
 1.100000000000000E9     9.899779913252408E-1   3.570524844132540E1   9.813103695137330E-5  -6.049838857687604E1   9.325874435966026E-5  -6.365450439125287E1   9.881110315531343E-1   3.218348069354259E1  
 1.150000000000000E9     9.908210373007378E-1   2.919372902549702E1   1.148624629875972E-4  -7.478718816603690E1   8.418673834182095E-5  -5.957457175411955E1   9.880019245752555E-1   2.546166681579120E1  
 1.200000000000000E9     9.932632510504552E-1   2.271504309379458E1   1.083286231806767E-4  -7.376280893033827E1   8.452155157541020E-5  -7.989212922745169E1   9.874174158833110E-1   1.865807376496683E1  
 1.250000000000000E9     9.924970515606436E-1   1.598965845242853E1   1.341690388910336E-4  -9.629563786683787E1   8.882871427905867E-5  -9.168587287393174E1   9.865110729619347E-1   1.181729551098475E1  
 1.300000000000000E9     9.934068581836526E-1   9.306228721836861   1.212352357442935E-4  -8.088906643020924E1   1.248903877589886E-4  -8.397477415175717E1   9.860889935684382E-1   5.025318995068753  
 1.350000000000000E9     9.927164228744110E-1   2.575899513867306   1.778448397826447E-4  -1.133242686095063E2   9.885307501140304E-5  -9.134929114588377E1   9.863509496918418E-1  -1.771152083888199  
 1.400000000000000E9     9.919816698426849E-1  -4.170773874418806   8.950173243053552E-5  -1.121100176937952E2   1.704854651436340E-4  -9.676642664868253E1   9.856103895623578E-1  -8.587621793288099  
 1.450000000000000E9     9.918548135841366E-1  -1.093461972523672E1   1.560597958594828E-4  -1.037649150866882E2   1.434146587920933E-4  -1.218064557679504E2   9.850740216521484E-1  -1.547103670405755E1  
 1.500000000000000E9     9.897351696954465E-1  -1.778457780544513E1   1.175746455911235E-4  -1.207128038565174E2   1.455901771637645E-4  -1.218275506020842E2   9.846402986150058E-1  -2.228094555447708E1  
 1.550000000000000E9     9.885501915798569E-1  -2.468199773340391E1   1.186381831650398E-4  -1.166343981479544E2   1.414711417476993E-4  -1.224258988230485E2   9.850320392014221E-1  -2.913707686286760E1  
 1.600000000000000E9     9.877215929005142E-1  -3.157713611511079E1   1.442759172976856E-4  -1.266950939584140E2   1.469959958270995E-4  -1.270121087922879E2   9.863629263362456E-1  -3.599817475341692E1  
 1.650000000000000E9     9.867385112564939E-1  -3.845251172438170E1   1.312137902479330E-4  -1.439258453383915E2   1.295755155145846E-4  -1.384533020578135E2   9.870872603641849E-1  -4.291552723447870E1  
 1.700000000000000E9     9.853887989420321E-1  -4.539185112899044E1   1.325676694292743E-4  -1.376437858469961E2   1.369929127757974E-4  -1.393883830953916E2   9.889382770360116E-1  -4.975165916020136E1  
 1.750000000000000E9     9.843310899719228E-1  -5.223934301108714E1   1.525906875955184E-4  -1.380695621918549E2   1.468099926198170E-4  -1.464390236677232E2   9.899855785925221E-1  -5.662994296579837E1  
 1.800000000000000E9     9.857196479311717E-1  -5.909767815999646E1   1.657205705654976E-4  -1.625733333443114E2   1.666858337092803E-4  -1.604668718011168E2   9.925843602375646E-1  -6.353929956082615E1  
 1.850000000000000E9     9.873875853734805E-1  -6.577361692865513E1   1.957764482622861E-4  -1.670674412812816E2   1.492939932358516E-4  -1.719410167074473E2   9.941111319584226E-1  -7.038469341546636E1  
 1.900000000000000E9     9.887223662530574E-1  -7.253992423636761E1   1.851729262118129E-4  -1.668893536253621E2   1.777874417032863E-4  -1.680247657501447E2   9.964463381611638E-1  -7.737561416114522E1  
 1.950000000000000E9     9.903858720591511E-1  -7.920034753709267E1   1.720621612974856E-4  -1.678895972233447E2   1.700588536965234E-4  -1.690510911006019E2   9.982564920290593E-1  -8.419586862773846E1  
 2.000000000000000E9     9.924886866824508E-1  -8.584326319533163E1   1.728078370051426E-4   1.696078069819095E2   1.719373431026452E-4  -1.798232043029718E2   9.992579219906047E-1  -9.109812090298068E1  
 2.050000000000000E9     9.965261845879864E-1  -9.235936779107988E1   1.849827808729307E-4   1.669736536361125E2   1.886922337485327E-4   1.602797583997972E2   9.996532458499003E-1  -9.807613666802995E1  
 2.100000000000000E9     9.996716942133332E-1  -9.884985281026482E1   1.723442788428359E-4   1.589566755018000E2   2.127615624056021E-4   1.603681890605754E2   1.000421032193432  -1.050694338118874E2  
 2.150000000000000E9     1.002512238010972  -1.054336615661275E2   1.760885572197928E-4   1.497343172435402E2   1.788863514072437E-4   1.539021946691090E2   1.000963156879088  -1.119682765798027E2  
 2.200000000000000E9     1.005737880113019  -1.118078672552657E2   2.123819791856942E-4   1.492539299045002E2   2.001555207677639E-4   1.507125159016107E2   9.996951280093073E-1  -1.189893240446459E2  
 2.250000000000000E9     1.009022994132733  -1.182188721180259E2   2.192425374359028E-4   1.424225315796624E2   2.175909466937954E-4   1.508418406901432E2   9.979087387419250E-1  -1.259819124277085E2  
 2.300000000000000E9     1.010153878644332  -1.245893240244888E2   2.029455673824970E-4   1.376015203782052E2   2.253846465750143E-4   1.351428721753002E2   9.949494932474139E-1  -1.330488869050139E2  
 2.350000000000000E9     1.010483144226158  -1.310350353486837E2   2.113824352679441E-4   1.354675475888768E2   2.046930009380209E-4   1.278587578669935E2   9.929977146749256E-1  -1.401391083622051E2  
 2.400000000000000E9     1.011067534528739  -1.375016220613777E2   1.938295929242469E-4   1.218686549638902E2   2.137382945361831E-4   1.293607998050902E2   9.904006694251988E-1  -1.471888228727831E2  
 2.450000000000000E9     1.010972691931678  -1.440027943651288E2   1.748231127360220E-4   1.263685977103555E2   2.069933634157244E-4   1.118128168606569E2   9.885895812818020E-1  -1.542551157761475E2  
 2.500000000000000E9     1.008812445595594  -1.505091163001884E2   2.293541862221809E-4   1.158984420584585E2   2.387844129677311E-4   1.096012963707520E2   9.873900857598520E-1  -1.613825478223284E2  
 2.550000000000000E9     1.007187218341467  -1.570096376318252E2   2.091878342446330E-4   9.935762863856994E1   1.975402148806232E-4   1.064893690186320E2   9.878547548925564E-1  -1.684680918524776E2  
 2.600000000000000E9     1.004200769666947  -1.636761937648187E2   2.392810079415752E-4   9.803813910051773E1   1.912344987312809E-4   9.439376297989509E1   9.870723558980372E-1  -1.756047947268356E2  
 2.650000000000000E9     1.001311016658395  -1.702414767021342E2   2.398300822410158E-4   8.850210901302805E1   2.217083525718246E-4   8.049779549011097E1   9.872227018308677E-1   1.773691299148814E2  
 2.700000000000000E9     9.983058138127373E-1  -1.769519088533300E2   2.281016722416653E-4   8.281748208060431E1   2.616280622364423E-4   7.172003475349094E1   9.861495409457454E-1   1.703591057765200E2  
 2.750000000000000E9     9.949900749797587E-1   1.763088672827102E2   2.646456716123788E-4   8.251252165498821E1   2.611481927732645E-4   7.933536111041680E1   9.857113719443710E-1   1.633107769238680E2  
 2.800000000000000E9     9.912370349174783E-1   1.695666314635370E2   2.708096645675820E-4   6.523792591628958E1   1.914370197253061E-4   5.865645100024029E1   9.855607521796952E-1   1.562722002077998E2  
 2.850000000000000E9     9.875429103538649E-1   1.627574040470386E2   2.638525140278938E-4   6.867865179647662E1   2.383733189945473E-4   6.431528579311816E1   9.853679782483400E-1   1.492602305305756E2  
 2.900000000000000E9     9.862305978480890E-1   1.558929003990327E2   2.871872822292427E-4   5.373695479877021E1   2.247371827844631E-4   5.261380857558024E1   9.843277571061607E-1   1.422907050937980E2  
 2.950000000000000E9     9.831228260040518E-1   1.491601160182010E2   2.560042292519235E-4   5.132180062803214E1   2.556962103931491E-4   5.083841730381930E1   9.833175613928533E-1   1.352727845226872E2  
 3.000000000000000E9     9.836573015172513E-1   1.424220802285795E2   2.543099853670989E-4   4.661904388586321E1   2.453790669693049E-4   4.882431909308895E1   9.821896610740848E-1   1.283857213588601E2  
 3.050000000000000E9     9.818410483515305E-1   1.357669141938477E2   2.776453104343753E-4   3.686059921839638E1   2.662361452666805E-4   4.038321970183714E1   9.810372484028711E-1   1.215287859033904E2  
 3.100000000000000E9     9.809816637229508E-1   1.289920944113550E2   2.821340879544630E-4   2.626791830202480E1   3.212496305676359E-4   2.601197519516206E1   9.799773446410137E-1   1.146852084163085E2  
 3.150000000000000E9     9.816332299373225E-1   1.223230118746071E2   2.047826967487015E-4   3.259500986497817E1   2.769074856997875E-4   2.194203689263332E1   9.793301924784019E-1   1.077938083376077E2  
 3.200000000000000E9     9.818000286651869E-1   1.157351546411760E2   2.368187417562293E-4   2.506345383744322   2.799362796666362E-4   1.775485584584116E1   9.786412285351136E-1   1.010884635042411E2  
 3.250000000000000E9     9.829669922682507E-1   1.091969917367090E2   2.642094633597687E-4   7.854471250244036   2.540155105935530E-4   6.421898119709135   9.787852705661913E-1   9.434804252912225E1  
 3.300000000000000E9     9.838769576507355E-1   1.027618833828459E2   2.639195831727682E-4   1.105144411437472   2.500358634552581E-4   2.681899957006825   9.786584307805558E-1   8.772434292262402E1  
 3.350000000000000E9     9.860286516276665E-1   9.625670182438694E1   3.028571637630453E-4  -5.739374998259893   2.503968667982315E-4  -5.923028373468542   9.796697946284126E-1   8.103922198612712E1  
 3.400000000000000E9     9.865573323027690E-1   8.994206877844779E1   3.092122316539824E-4  -1.610591867692198E1   2.786472586175621E-4   1.316924779667942   9.782603613615861E-1   7.447512452515045E1  
 3.450000000000000E9     9.876940167981169E-1   8.360097494761743E1   2.951067775072971E-4  -1.228090274168160E1   3.133751236557364E-4  -2.126128524507200E1   9.780229358619136E-1   6.780718745525185E1  
 3.500000000000000E9     9.928047206936411E-1   7.735911684140146E1   3.410059701122897E-4  -2.720896656064795E1   3.195280252731887E-4  -1.874133779768481E1   9.775374706141256E-1   6.122254186353896E1  
 3.550000000000000E9     9.924906057617319E-1   7.099426627575807E1   3.034051400826745E-4  -2.323690878157128E1   3.272192040691391E-4  -3.739208425314886E1   9.774459577977805E-1   5.461721977414771E1  
 3.600000000000000E9     9.944994730714398E-1   6.464439366101787E1   2.848919417225198E-4  -3.754647949997486E1   3.085693636770401E-4  -3.294604787292463E1   9.780824447515955E-1   4.819874410959589E1  
 3.650000000000000E9     9.957986908367736E-1   5.837190231774544E1   3.307566211224091E-4  -5.204259852482864E1   2.827039798676036E-4  -4.399503756496954E1   9.755240191423086E-1   4.163951603896335E1  
 3.700000000000000E9     9.967472000662765E-1   5.207743590406565E1   3.305695974054222E-4  -4.759273555983953E1   3.094796943644761E-4  -4.983631395696229E1   9.732171672933299E-1   3.506249381095767E1  
 3.750000000000000E9     9.976977102748509E-1   4.578574990817553E1   3.165784853516313E-4  -4.978998800342889E1   2.925010696093126E-4  -6.272174240603779E1   9.700052750702493E-1   2.840622717825228E1  
 3.800000000000000E9     9.976562759769428E-1   3.956821702267185E1   3.534975321928906E-4  -6.639973471598765E1   2.692888841447464E-4  -7.047656956402780E1   9.691354954759728E-1   2.192945451136136E1  
 3.850000000000000E9     9.968813417760700E-1   3.333217217172496E1   3.377222435145853E-4  -7.731873099745071E1   3.335988138387969E-4  -6.733437518151453E1   9.666691721844339E-1   1.547811344707065E1  
 3.900000000000000E9     9.961241070740242E-1   2.697108324968754E1   3.107179258560496E-4  -7.648096094619849E1   3.026058405310113E-4  -7.804213214283270E1   9.653870787447807E-1   8.951810538651017  
 3.950000000000000E9     9.944034970968029E-1   2.068217594150496E1   3.233922127240295E-4  -7.986957644015119E1   3.387288631854262E-4  -7.916888846465548E1   9.643685415950010E-1   2.430606285244733  
 4.000000000000000E9     9.935202784084694E-1   1.432302617405581E1   3.044260729109612E-4  -9.633915403893684E1   3.218403689530528E-4  -8.779596207444520E1   9.619502529428780E-1  -3.981009965096864  
 4.050000000000000E9     9.906365100848725E-1   7.938378574044178   3.362431146248125E-4  -9.428440574558914E1   3.346787078120191E-4  -9.133509956577788E1   9.604176080714103E-1  -1.058577620391418E1  
 4.100000000000000E9     9.880585248299738E-1   1.474271101408199   3.259675937437799E-4  -1.010435011321213E2   3.331942311034342E-4  -1.016283776215269E2   9.595364749893163E-1  -1.707258880061561E1  
 4.150000000000000E9     9.861371638947777E-1  -4.972222763386498   3.403103667266959E-4  -1.036026220893308E2   3.332271768520951E-4  -1.096420054299712E2   9.585625795738036E-1  -2.355774642469817E1  
 4.200000000000000E9     9.834302392732883E-1  -1.148408279610243E1   3.125490901955042E-4  -1.168751580850634E2   3.359262415464046E-4  -1.172354812921957E2   9.584448202859726E-1  -3.005744157831673E1  
 4.250000000000000E9     9.809753617238151E-1  -1.797745406260567E1   3.382166255690799E-4  -1.180989215933182E2   3.432610270114082E-4  -1.221529475604513E2   9.583291334962266E-1  -3.650098771715434E1  
 4.300000000000000E9     9.786483128580348E-1  -2.453203917126615E1   3.273567128209056E-4  -1.199734230356037E2   3.311496359750841E-4  -1.267926066825557E2   9.565752663547338E-1  -4.290637259329502E1  
 4.350000000000000E9     9.788537000075850E-1  -3.099044413561001E1   3.388707772758185E-4  -1.281218602503503E2   3.677099792943272E-4  -1.338645834847360E2   9.558616000266691E-1  -4.938605425645646E1  
 4.400000000000000E9     9.775714526829551E-1  -3.745241001421118E1   3.611069530203063E-4  -1.385787528083894E2   3.469824920404823E-4  -1.372832635501219E2   9.546436283038265E-1  -5.591080066716851E1  
 4.450000000000000E9     9.778458080055040E-1  -4.401197403575176E1   3.736848765929545E-4  -1.449044714022504E2   3.668493083435840E-4  -1.471466056207187E2   9.533939930774893E-1  -6.247590950295000E1  
 4.500000000000000E9     9.784608456138670E-1  -5.044252602298395E1   3.660369156643378E-4  -1.511310715748143E2   3.762537715126643E-4  -1.508493831829030E2   9.523974764757970E-1  -6.900032186406597E1  
 4.550000000000000E9     9.788112127781938E-1  -5.693737376302091E1   3.974323421655083E-4  -1.578244942574723E2   3.849401879579624E-4  -1.564614976286148E2   9.513673755933539E-1  -7.556847324643137E1  
 4.600000000000000E9     9.811748006558539E-1  -6.351854807587679E1   3.707646166133183E-4  -1.648258684714313E2   4.035502888373822E-4  -1.645106186856964E2   9.513663960071382E-1  -8.217456416342793E1  
 4.650000000000000E9     9.826387843621659E-1  -7.005941643460595E1   3.442445667533455E-4  -1.733286405664894E2   3.870342174788451E-4  -1.693805074943085E2   9.506916634140040E-1  -8.865440453528409E1  
 4.700000000000000E9     9.852264222941797E-1  -7.660066888266482E1   3.889429583815682E-4  -1.773539078801416E2   3.661827354090531E-4  -1.787182921174733E2   9.492739383437961E-1  -9.538246247577580E1  
 4.750000000000000E9     9.863459254898296E-1  -8.308364557663974E1   3.667683328542474E-4  -1.793236736382835E2   3.746526231932991E-4   1.781756395757143E2   9.498147258466569E-1  -1.020950797703765E2  
 4.800000000000000E9     9.878996054058131E-1  -8.964115417423055E1   3.913467748893939E-4   1.633103990451913E2   4.078282842832637E-4   1.685970707864043E2   9.497593486849566E-1  -1.088043967567245E2  
