#  HZ   S   MA   R     50.00 
! Rohde & Schwarz ZVA67 4Ports - Version 4.11 - 1305.7002k04 SN: 101051
! Date: 2023-05-31 11:10:56
! Measurements: S11 S21 S12 S22 
! 
 5.000000000000000E7     9.928537464136006E-1   1.728538039996922E2   1.158325769407905E-4   1.534577750726839E2   7.324626484432174E-5   7.659399057225093E1   1.002971529930549   1.733191125933161E2  
 1.000000000000000E8     9.925852842864122E-1   1.665995935830046E2   1.057010140734875E-4  -9.718291093556096E1   1.500279592237464E-4  -9.884761624239445E1   9.942206021426067E-1   1.665912351650448E2  
 1.500000000000000E8     9.856952450813670E-1   1.599146319571961E2   1.689621947491322E-4   7.128568403777524E1   7.423631415749024E-5  -4.305106399899910E1   9.935461014547234E-1   1.599451731952574E2  
 2.000000000000000E8     9.848992566086035E-1   1.531723286802458E2   7.982456705845167E-5   6.008459739116751E1   7.389844215587447E-5   4.050198789789633E1   9.919406699676260E-1   1.530871194003915E2  
 2.500000000000000E8     9.823057767640298E-1   1.464791979980437E2   6.037840819766524E-5   7.399826132827701E1   8.235576565641320E-5   4.848016763277175E1   9.910378075143200E-1   1.462362638322081E2  
 3.000000000000000E8     9.782876880987768E-1   1.397962557324918E2   4.048508108798069E-5  -1.314583241906901E2   5.971062154142030E-5   4.857083316337056E1   9.860249876243876E-1   1.393309057260053E2  
 3.500000000000000E8     9.757875041664518E-1   1.331241607380607E2   9.696788952386072E-5   3.474849543740572E1   2.196088422821909E-5  -1.667242346656401E1   9.838754165754831E-1   1.326093512605863E2  
 4.000000000000000E8     9.708539045542015E-1   1.263449418791023E2   6.036733639758497E-5   5.542472328018937E1   3.285163771960544E-5  -2.424109955368494E1   9.802724658238677E-1   1.258354661909977E2  
 4.500000000000000E8     9.693825537917199E-1   1.195781248630433E2   4.062050194526513E-5   2.420081390256406E1   7.062312000067746E-5   4.081475785217520E1   9.795753834336963E-1   1.190411808840690E2  
 5.000000000000000E8     9.681828631864852E-1   1.130360879490064E2   4.232386609564445E-5   5.817580253260130E1   9.701043903197013E-5   3.081145088580938E1   9.776625046002836E-1   1.123357713810014E2  
 5.500000000000000E8     9.676864661611101E-1   1.064451975417465E2   2.543805064834996E-5   3.571403032783170E1   5.322469029029618E-5   8.032028520692416   9.787126385279653E-1   1.056808406451835E2  
 6.000000000000000E8     9.671537529243939E-1   9.983234799585684E1   1.587196344794675E-5  -3.533180095322667E1   3.204993241025907E-5  -4.159247468616648E1   9.778363191576035E-1   9.904851339777190E1  
 6.500000000000000E8     9.658041372553284E-1   9.336027815632936E1   8.940238000886020E-5  -1.939097643862168E1   7.730226796157413E-5  -9.446865509301574   9.780445778703998E-1   9.234097058287000E1  
 7.000000000000000E8     9.685976064732983E-1   8.695249723850658E1   7.013343611189599E-5  -5.508038724864202   3.917484387886428E-5   2.500274850026922E1   9.795889621198543E-1   8.577865038448499E1  
 7.500000000000000E8     9.708620693437770E-1   8.061260459310340E1   5.440370369841342E-5   1.000590316906592E1   6.685286258679406E-5  -2.347937822081942E1   9.822550366469450E-1   7.909664619817237E1  
 8.000000000000000E8     9.752919023901859E-1   7.416686812602049E1   1.042063151163953E-4  -1.404893173818658E1   5.279150713604482E-5  -2.977457081060396E1   9.862140964072949E-1   7.249502628677296E1  
 8.500000000000000E8     9.774707213059457E-1   6.776154151994869E1   5.482676067709346E-5  -3.432030047012711E1   9.736415351591398E-5  -3.499716632299936E1   9.878787782872603E-1   6.577315283227954E1  
 9.000000000000000E8     9.799615853907040E-1   6.136118496091980E1   1.045978054077314E-4  -3.594393337596501E1   8.337923504403314E-5  -5.179088803033119E1   9.885028755623357E-1   5.912749024329641E1  
 9.500000000000000E8     9.833571317940049E-1   5.503903412629198E1   1.047288751125434E-4  -2.959124363633283E1   6.913935725187015E-5  -5.754540589639213E1   9.877249119297173E-1   5.238943322654973E1  
 1.000000000000000E9     9.859491924003349E-1   4.864969799894449E1   7.120846330605319E-5  -3.372304759226001E1   9.236747594831549E-5  -5.528459451443452E1   9.888680025630551E-1   4.571057798232343E1  
 1.050000000000000E9     9.880652732481668E-1   4.217355212973067E1   9.890176664365480E-5  -5.211057738755777E1   1.053709227128683E-4  -5.476379712285501E1   9.871285115044987E-1   3.892816892570863E1  
 1.100000000000000E9     9.899071700474824E-1   3.571129617421276E1   1.087069985191050E-4  -6.469883217040980E1   9.539034483327586E-5  -5.630530105861273E1   9.877645559437212E-1   3.217284839761685E1  
 1.150000000000000E9     9.910882857014467E-1   2.920251001019039E1   1.016408630089659E-4  -6.897409999433494E1   1.000341930730371E-4  -7.795586232322214E1   9.884950744926884E-1   2.546194073514742E1  
 1.200000000000000E9     9.936561855068893E-1   2.272457379377476E1   7.716199216566182E-5  -6.144925674637453E1   1.164524487843532E-4  -8.472676800042008E1   9.879058215189409E-1   1.866163325044140E1  
 1.250000000000000E9     9.926421964939783E-1   1.600247912774972E1   1.153517510513220E-4  -8.554197860397225E1   1.005342399828041E-4  -8.830725910407432E1   9.866722676336760E-1   1.183514814646890E1  
 1.300000000000000E9     9.937550916474741E-1   9.298394201006172   1.230628180023807E-4  -9.100867573025994E1   1.091745313694654E-4  -8.634797120222935E1   9.855164550584424E-1   5.012418655785123  
 1.350000000000000E9     9.931583354523608E-1   2.605762578670223   1.652290322242339E-4  -9.872239016089132E1   1.229486326733767E-4  -9.175621281786908E1   9.861673431010199E-1  -1.778092406859417  
 1.400000000000000E9     9.928877969011476E-1  -4.142826511790486   1.412273120225247E-4  -1.075591528003991E2   1.106380153974163E-4  -1.188385105280367E2   9.857406402307077E-1  -8.584111709360334  
 1.450000000000000E9     9.916307758853065E-1  -1.095577828662776E1   1.273901312461480E-4  -1.109006985871044E2   1.274326187868206E-4  -1.077357334734329E2   9.844552510908423E-1  -1.544997998501132E1  
 1.500000000000000E9     9.896486390522956E-1  -1.782470514130354E1   1.568598885847487E-4  -1.113178111289540E2   1.172322827214909E-4  -1.192965719774270E2   9.846249240547981E-1  -2.230963711131862E1  
 1.550000000000000E9     9.887107442112489E-1  -2.466846626255570E1   1.159535219379419E-4  -1.175424151545701E2   1.354388940324452E-4  -1.341349540211372E2   9.849136847793224E-1  -2.913098474408571E1  
 1.600000000000000E9     9.876904267906530E-1  -3.157731795748376E1   1.655150812443574E-4  -1.288962216080191E2   1.466752115165235E-4  -1.292620115910765E2   9.867142423341538E-1  -3.600401312735807E1  
 1.650000000000000E9     9.870724119043263E-1  -3.842511379596991E1   1.464046294131148E-4  -1.348897368272452E2   1.489384420937535E-4  -1.396394661535811E2   9.869656313616814E-1  -4.290217886593721E1  
 1.700000000000000E9     9.851277528410581E-1  -4.538110039467824E1   1.416432470585026E-4  -1.430970351291399E2   1.678010681654277E-4  -1.455946699198711E2   9.885091526985969E-1  -4.975541318471954E1  
 1.750000000000000E9     9.847238983724915E-1  -5.227011691663544E1   1.560661846379862E-4  -1.524066978271297E2   1.639196003069214E-4  -1.521902067413745E2   9.903725736252634E-1  -5.665009551537525E1  
 1.800000000000000E9     9.861187025731870E-1  -5.907476804166094E1   1.818528154477850E-4  -1.525078463965403E2   1.703236619040519E-4  -1.551615327034821E2   9.922123379599704E-1  -6.353463930593067E1  
 1.850000000000000E9     9.877905119896844E-1  -6.575803763851687E1   1.661104517295108E-4  -1.618432447351821E2   1.593027706657497E-4  -1.591199465212577E2   9.943837729516417E-1  -7.038660957523996E1  
 1.900000000000000E9     9.891084406295895E-1  -7.255342955078007E1   1.522380698671681E-4  -1.744458779719354E2   1.862132511568098E-4  -1.666904229361943E2   9.965343788094776E-1  -7.738574160325673E1  
 1.950000000000000E9     9.900008059871499E-1  -7.920242648016924E1   1.710091379411708E-4  -1.769837193011395E2   1.675775140121574E-4  -1.779415561063994E2   9.981531571081282E-1  -8.419187047437978E1  
 2.000000000000000E9     9.922589780813144E-1  -8.584496022374356E1   1.504869960552564E-4   1.694675754830590E2   1.751029668893623E-4   1.772061935900469E2   9.992384369755871E-1  -9.112213937926340E1  
 2.050000000000000E9     9.968177847599253E-1  -9.235596088191200E1   2.055479607002104E-4   1.773083981287472E2   1.520304819116095E-4   1.669642697909050E2   1.000079077146000  -9.808566924876436E1  
 2.100000000000000E9     9.996029058512318E-1  -9.884318071112415E1   1.626056700612694E-4   1.673578490281191E2   2.008662260625054E-4   1.596218294106158E2   1.000203362019217  -1.050653973500510E2  
 2.150000000000000E9     1.002777505427254  -1.054225491664404E2   1.838991520683348E-4   1.542573048207423E2   1.921970664663740E-4   1.570956219035738E2   1.000193901618288  -1.119395913114859E2  
 2.200000000000000E9     1.005954581639244  -1.118046179748257E2   2.132440923008600E-4   1.519477111540318E2   2.146751167986488E-4   1.544853749425341E2   9.996820616493607E-1  -1.190009894293331E2  
 2.250000000000000E9     1.008629744583743  -1.182352336349060E2   1.929317047783086E-4   1.417322796310241E2   1.719945963187012E-4   1.433236844112493E2   9.987165102203209E-1  -1.260167220914536E2  
 2.300000000000000E9     1.009766449615621  -1.246014276387943E2   1.845543112834990E-4   1.385036291228468E2   2.234973760499957E-4   1.391577556275101E2   9.953846277464664E-1  -1.330297937773281E2  
 2.350000000000000E9     1.010663014010433  -1.310738758656604E2   2.268242245544525E-4   1.326835071073576E2   2.071062480115351E-4   1.307916017729368E2   9.932999674261650E-1  -1.401332858408130E2  
 2.400000000000000E9     1.010945444715669  -1.375117799865121E2   2.172706209758334E-4   1.137953752681863E2   2.423204214703437E-4   1.214932959613382E2   9.901500816948405E-1  -1.471888511078041E2  
 2.450000000000000E9     1.010823321546306  -1.439662426330782E2   2.213156749468256E-4   1.191680818034308E2   2.077295662399969E-4   1.161790415240405E2   9.892425584150248E-1  -1.542413481148403E2  
 2.500000000000000E9     1.009626920620865  -1.504668581570084E2   2.442274506095184E-4   1.058384876587198E2   1.996152599720028E-4   1.079010405057126E2   9.877336541355342E-1  -1.613982742943811E2  
 2.550000000000000E9     1.007499619800904  -1.570019936487578E2   2.479154725074739E-4   1.004024572351804E2   2.653124381982869E-4   1.058696705437841E2   9.878624014410646E-1  -1.684720404851073E2  
 2.600000000000000E9     1.004046257960298  -1.636453120984567E2   2.313217416521896E-4   9.491393660934413E1   2.148374954169634E-4   1.006094464285635E2   9.872023830724807E-1  -1.755932953742693E2  
 2.650000000000000E9     1.001635528541444  -1.702745695503153E2   2.422036947511420E-4   8.791717923184692E1   2.477162178386838E-4   9.322235853681069E1   9.873718431328015E-1   1.773901969836662E2  
 2.700000000000000E9     9.984953717340933E-1  -1.769608139804283E2   2.616185741464481E-4   8.802447395434076E1   2.317228411796919E-4   8.031392787566243E1   9.859948032557481E-1   1.703588659295191E2  
 2.750000000000000E9     9.956242563596492E-1   1.763180041514749E2   2.286582150343861E-4   8.670219239430885E1   2.436819659008191E-4   7.698812545962363E1   9.857039685533637E-1   1.632659439421463E2  
 2.800000000000000E9     9.911635472322083E-1   1.695449546838822E2   2.677514638021941E-4   7.097453222137375E1   2.668480242639705E-4   6.347226268008500E1   9.856990588555462E-1   1.562728954706497E2  
 2.850000000000000E9     9.875667326754255E-1   1.627406858754267E2   2.614963088283496E-4   6.374530685933520E1   2.623766755223753E-4   5.487780239070303E1   9.851330243607356E-1   1.492751411938188E2  
 2.900000000000000E9     9.861047180525537E-1   1.559165485393373E2   2.697817469225489E-4   6.074711124095274E1   2.469444143432483E-4   5.738721628536091E1   9.857806915816965E-1   1.423159188876235E2  
 2.950000000000000E9     9.846027553342704E-1   1.491464018846470E2   2.628174784094304E-4   4.412991461715024E1   2.256601783126321E-4   4.153628755510528E1   9.831570323701901E-1   1.352759853243927E2  
 3.000000000000000E9     9.838015234483973E-1   1.424604074644278E2   2.411356502687914E-4   4.831597986990131E1   2.963292303324798E-4   4.085282244234183E1   9.828104123519715E-1   1.283996384514913E2  
 3.050000000000000E9     9.825222499850936E-1   1.357441989342066E2   2.409872491127709E-4   2.800874786926291E1   2.688527166402310E-4   3.277934681732155E1   9.806411252631743E-1   1.215341680384258E2  
 3.100000000000000E9     9.815368706836766E-1   1.289834551133308E2   2.719396169002766E-4   1.887785492207537E1   2.976719648193039E-4   3.289280992128257E1   9.796552581802696E-1   1.146753995817747E2  
 3.150000000000000E9     9.821617222640056E-1   1.223926557338118E2   2.623954082494574E-4   1.652671769646265E1   2.162740292379978E-4   2.220020508540866E1   9.789309511703038E-1   1.078308755178855E2  
 3.200000000000000E9     9.823931296629038E-1   1.157548871352249E2   2.668983878563179E-4   1.863323017059759E1   2.828713301631643E-4   1.348904927865701E1   9.789435191778462E-1   1.010449531686086E2  
 3.250000000000000E9     9.833430975447678E-1   1.091767566789311E2   2.486516562489533E-4   1.107476061751396E1   2.841336907618725E-4   8.686831834701506   9.794285432882867E-1   9.434773272789180E1  
 3.300000000000000E9     9.835905193182459E-1   1.027795080751742E2   2.701537148527021E-4   4.164523270343387   2.666389559127861E-4  -3.210580800016825   9.787680534619994E-1   8.771061355773651E1  
 3.350000000000000E9     9.854074423750378E-1   9.627242052729262E1   3.247715003803991E-4  -8.667670497634569   2.614096585810538E-4  -1.046741726380360E1   9.798741955702033E-1   8.108304132346106E1  
 3.400000000000000E9     9.861828236872323E-1   8.991490334690282E1   3.152477102516527E-4  -1.718992124600209E1   2.973062801258800E-4  -8.404949720763680   9.782897318049366E-1   7.443224965389075E1  
 3.450000000000000E9     9.875140905167582E-1   8.357186886597128E1   2.874848011153343E-4  -1.083025507560967E1   2.649007749646111E-4  -1.948346778722539E1   9.778624403250625E-1   6.779037694648353E1  
 3.500000000000000E9     9.930871992485184E-1   7.736626356703702E1   2.966147794570758E-4  -1.779010035047147E1   2.276082789788119E-4  -1.735384806788053E1   9.777942084644457E-1   6.119174922741033E1  
 3.550000000000000E9     9.921736808061389E-1   7.101978930100648E1   2.855249065621504E-4  -2.272331406853716E1   2.974192523714068E-4  -3.451062629612851E1   9.778175581401405E-1   5.462126764210475E1  
 3.600000000000000E9     9.938440894283046E-1   6.465967835403114E1   3.085758654442155E-4  -4.375990445690915E1   2.774951919229700E-4  -1.866031866829422E1   9.776100367916052E-1   4.820506132492488E1  
 3.650000000000000E9     9.950767507215762E-1   5.835975853062462E1   2.977741685231242E-4  -4.023083903169889E1   2.979627227928360E-4  -4.439113263385458E1   9.759428486487054E-1   4.161205127204216E1  
 3.700000000000000E9     9.973372584137158E-1   5.209638202337997E1   2.919029210009571E-4  -5.425515262203146E1   3.034088359552597E-4  -5.024830531765906E1   9.730644456901287E-1   3.507432425273738E1  
 3.750000000000000E9     9.979016949313366E-1   4.581713352827334E1   3.021487994390769E-4  -6.098922861169694E1   2.734485422975269E-4  -5.774291478039556E1   9.704795419852733E-1   2.844440146721010E1  
 3.800000000000000E9     9.983182721086761E-1   3.957700517148165E1   3.205015742532477E-4  -5.154068629794026E1   2.939157831993076E-4  -6.587323746198102E1   9.687877018067167E-1   2.194217649036993E1  
 3.850000000000000E9     9.975240131662294E-1   3.330251953194930E1   2.772848932195447E-4  -6.849164645997441E1   3.130711062035313E-4  -6.227141569211108E1   9.666158449051899E-1   1.546980742925717E1  
 3.900000000000000E9     9.965335853959414E-1   2.698890028177910E1   2.671433932539755E-4  -7.486146604860429E1   3.564688071339194E-4  -8.021811875365164E1   9.657524117829553E-1   8.943707786832832  
 3.950000000000000E9     9.949403016857265E-1   2.068855702640619E1   3.262077378323779E-4  -7.796462641503798E1   3.031773514206508E-4  -8.122580042418903E1   9.637560040442591E-1   2.445896543018149  
 4.000000000000000E9     9.941360141990742E-1   1.432765265517169E1   3.106839649823123E-4  -8.159898253323547E1   3.220906172791061E-4  -9.688128093470655E1   9.620444856312262E-1  -4.024143517989899  
 4.050000000000000E9     9.906097586719177E-1   7.934745428040518   3.540162690649559E-4  -9.052022045864109E1   3.364068763900121E-4  -9.544002309317412E1   9.605220454796214E-1  -1.056633396844288E1  
 4.100000000000000E9     9.883067425213098E-1   1.481241810304774   3.294896213018362E-4  -1.029836146069240E2   3.163493439845962E-4  -9.951004090372909E1   9.596641034923295E-1  -1.706422176137791E1  
 4.150000000000000E9     9.866593030735118E-1  -4.973024444238705   3.578832221438153E-4  -1.067059113762948E2   3.364782858948163E-4  -1.075872583039502E2   9.583979074208162E-1  -2.354331242545142E1  
 4.200000000000000E9     9.834510836780339E-1  -1.148479282285868E1   3.477692853760451E-4  -1.123592024904438E2   3.285865530660250E-4  -1.132659715322712E2   9.581876648428037E-1  -3.008485362706280E1  
 4.250000000000000E9     9.815028058392611E-1  -1.798471290151362E1   3.509722824839084E-4  -1.240025055093511E2   3.430560698439557E-4  -1.173710154926038E2   9.581361343990457E-1  -3.650405647946271E1  
 4.300000000000000E9     9.789439299076027E-1  -2.454414306945067E1   3.308239775938902E-4  -1.272727105168284E2   3.530641889774440E-4  -1.257375468136512E2   9.567520764905287E-1  -4.293102368798110E1  
 4.350000000000000E9     9.788584122615101E-1  -3.096882082777218E1   3.573390499767453E-4  -1.336774068984834E2   3.476484552062095E-4  -1.306786494660229E2   9.555682907971003E-1  -4.937040162641105E1  
 4.400000000000000E9     9.775269652759314E-1  -3.746244833062708E1   3.245482964556886E-4  -1.318221688427065E2   3.493466219509263E-4  -1.370584183926428E2   9.545486927872533E-1  -5.591103087642569E1  
 4.450000000000000E9     9.778004489461075E-1  -4.402742759507277E1   3.592331195837422E-4  -1.493757968515850E2   3.689128931339923E-4  -1.470152998604432E2   9.538307904363024E-1  -6.250429671988997E1  
 4.500000000000000E9     9.784357227039477E-1  -5.043134114787545E1   3.847477110382977E-4  -1.570938069870049E2   3.741186730519715E-4  -1.518618931718839E2   9.529200309103777E-1  -6.900945700196425E1  
 4.550000000000000E9     9.790407430574393E-1  -5.695632150769371E1   3.702649539620829E-4  -1.586141645469155E2   3.716481432245961E-4  -1.599694187411421E2   9.513355494678657E-1  -7.556866201839866E1  
 4.600000000000000E9     9.813982194178050E-1  -6.350590804559656E1   3.594642336547377E-4  -1.662587825861512E2   3.692221014501461E-4  -1.654963057094748E2   9.510378378316418E-1  -8.218406330226974E1  
 4.650000000000000E9     9.830195569301731E-1  -7.004737628729309E1   4.073989661274964E-4  -1.684578153892315E2   3.834616274942413E-4  -1.714445411183785E2   9.508524446194850E-1  -8.866304046895583E1  
 4.700000000000000E9     9.853379911389086E-1  -7.661603969218869E1   4.019350688559208E-4  -1.768036318002470E2   3.902790455334510E-4  -1.787571289798346E2   9.490837766310379E-1  -9.539532396582062E1  
 4.750000000000000E9     9.868676242972678E-1  -8.306215576753932E1   3.754080009543552E-4   1.749837985481381E2   3.897625283002796E-4   1.740346458476598E2   9.496024207616227E-1  -1.020781995828972E2  
 4.800000000000000E9     9.883880585254289E-1  -8.964968379675887E1   3.768800315914286E-4   1.688858600339227E2   3.855651470591401E-4   1.677430684999691E2   9.497057290751347E-1  -1.087993919254220E2  
 4.850000000000000E9     9.896634785109508E-1  -9.623719992740462E1   4.050368301734762E-4   1.658466697949302E2   3.907949508151501E-4   1.626096464423750E2   9.516638763978288E-1  -1.154507150757375E2  
