#  HZ   S   MA   R     50.00 
! Rohde & Schwarz ZVA67 4Ports - Version 4.11 - 1305.7002k04 SN: 101051
! Date: 2023-05-31 11:09:54
! Measurements: S11 S21 S12 S22 
! 
 5.000000000000000E7     9.907274191181893E-1   1.728447692008920E2   1.615169859288197E-4   1.049028236450985E2   1.340728415069741E-4  -1.263295556621142E2   1.002531695563595   1.732654536457834E2  
 1.000000000000000E8     9.918958218414785E-1   1.666348234898048E2   1.229262332257876E-4  -1.671020974110143E2   9.217538718154452E-5  -3.888888982676512E1   9.945266564509404E-1   1.665192990143759E2  
 1.500000000000000E8     9.843829943357539E-1   1.600516809229428E2   4.447967625049407E-5  -7.846015361045768E1   1.103236056018769E-4   3.541132168526777E1   9.953282211645033E-1   1.598295565904382E2  
 2.000000000000000E8     9.864385587555914E-1   1.531251238413715E2   3.142865161527815E-5   1.032811073327718E2   3.782401308194031E-5  -3.813584896960990E1   9.929839042984630E-1   1.530065759863460E2  
 2.500000000000000E8     9.812195734006091E-1   1.465424240868510E2   2.220011103227936E-5  -1.436926763005869E2   3.744605496392156E-5   3.334283565369518   9.900962820317810E-1   1.462270730561860E2  
 3.000000000000000E8     9.776572625140610E-1   1.397566116707840E2   1.078912339491498E-4   3.773756719809860E1   8.168771298464697E-5   5.674633874265982E1   9.864332525572265E-1   1.393187667634621E2  
 3.500000000000000E8     9.767573249652576E-1   1.330766373478460E2   2.884137324565767E-5  -1.216093536171205E2   5.782448315277183E-5   5.917225181087416   9.833091032827096E-1   1.326138874823853E2  
 4.000000000000000E8     9.713664276159177E-1   1.263101222436865E2   8.263510240428340E-5   5.201036404135142E1   3.908238392715639E-5   3.907702576163977E1   9.796263240219525E-1   1.258661004136087E2  
 4.500000000000000E8     9.703734186196648E-1   1.195809950475621E2   3.952741016295814E-5  -5.735911439913783   3.956397775341255E-5   3.064960376566712E1   9.797108947856789E-1   1.190695944031019E2  
 5.000000000000000E8     9.693311775597386E-1   1.130265447540833E2   6.110130723512217E-5  -1.572745208598632E1   4.983964557512761E-5  -9.375553168500431   9.768439875413330E-1   1.123434963509522E2  
 5.500000000000000E8     9.690143208188414E-1   1.064325488875600E2   5.018651132892971E-5  -1.035954256546116E1   9.214279972218366E-5   1.774434340452713E1   9.786361591265540E-1   1.057042014378443E2  
 6.000000000000000E8     9.688104524587934E-1   9.981913925930051E1   8.708587141278047E-5   2.721454910309309E1   9.207533220550544E-5  -1.287927407108057E1   9.778365603550254E-1   9.906894303227523E1  
 6.500000000000000E8     9.666524018989535E-1   9.339380721555327E1   3.769011387197843E-5  -1.883102575949480E1   4.397240007266198E-5  -4.429725538335556E1   9.784947023900301E-1   9.235175755643516E1  
 7.000000000000000E8     9.693555300371450E-1   8.695648488925957E1   1.019405067132461E-4  -2.574295486127472E1   4.506273324407170E-5   1.755520091123981   9.795299095886455E-1   8.576725332871737E1  
 7.500000000000000E8     9.720570367954775E-1   8.061752239434533E1   7.057336149577855E-5  -2.831615093476138E1   8.239081039688109E-5  -4.497382105802240E1   9.823592280134293E-1   7.908747003493667E1  
 8.000000000000000E8     9.758108558345954E-1   7.416559482254623E1   5.928787653644678E-5  -3.302727839823265E1   6.667204502867297E-5  -3.079565526901106E1   9.858682940761996E-1   7.254725947903994E1  
 8.500000000000000E8     9.785520191813680E-1   6.778133188768653E1   6.196057182926662E-5  -2.486619545272754E1   4.824079739653494E-5  -5.577849049812833E1   9.882974553047916E-1   6.579151198526574E1  
 9.000000000000000E8     9.807692590378657E-1   6.137024056684590E1   8.403242654610983E-5  -3.148539008224707E1   7.160448894891367E-5  -3.800785006852117E1   9.884994608604323E-1   5.911335531997155E1  
 9.500000000000000E8     9.838825408516481E-1   5.502325639801753E1   1.017780769386637E-4  -3.763568156768454E1   8.923270482054481E-5  -8.238163524906437E1   9.879796213890398E-1   5.240130515075366E1  
 1.000000000000000E9     9.860997606230987E-1   4.862949219349289E1   9.800052880321339E-5  -5.112999111644706E1   1.054295623805262E-4  -5.383696756991948E1   9.883534599217798E-1   4.570317278380946E1  
 1.050000000000000E9     9.885171262515422E-1   4.215962201607729E1   1.013979450393822E-4  -6.690926910039984E1   1.101877806614301E-4  -5.605165528288791E1   9.879637605548604E-1   3.891163637232818E1  
 1.100000000000000E9     9.909144564821631E-1   3.570795904973651E1   9.039313732689012E-5  -5.564692448396745E1   8.579158547884139E-5  -5.337762003274928E1   9.878208594080596E-1   3.219052734824133E1  
 1.150000000000000E9     9.914846080170159E-1   2.919747658352407E1   1.117660650022675E-4  -5.911388667819156E1   1.133028415561364E-4  -7.632888684181411E1   9.883832874444848E-1   2.545996906750551E1  
 1.200000000000000E9     9.939449878972971E-1   2.271142588062933E1   1.131612187281469E-4  -7.256215431148736E1   1.410049742379180E-4  -7.232904355880126E1   9.874088491171040E-1   1.864772302954043E1  
 1.250000000000000E9     9.933072500451086E-1   1.596721431513520E1   1.117488398716493E-4  -8.968062543907732E1   9.613051587858985E-5  -8.338534042958875E1   9.867246905787659E-1   1.182503251529425E1  
 1.300000000000000E9     9.943070094370853E-1   9.293248018593840   1.286659726350434E-4  -9.097391215165195E1   1.068883140156323E-4  -7.930594110117879E1   9.857453842836347E-1   5.030195299682931  
 1.350000000000000E9     9.938069688077343E-1   2.595918619917385   1.251463761605308E-4  -1.053859869653339E2   1.323273355456041E-4  -1.029859690800066E2   9.861539389008490E-1  -1.777670826313794  
 1.400000000000000E9     9.932715386634256E-1  -4.181731739880960   1.404507174411939E-4  -9.953183419056086E1   1.262521020733509E-4  -1.070756044520963E2   9.852627778277513E-1  -8.582848547558433  
 1.450000000000000E9     9.925334441615927E-1  -1.094857476659268E1   1.640314562085627E-4  -1.031797981134561E2   1.561453661059372E-4  -1.203735589588838E2   9.848764572964170E-1  -1.546963952812444E1  
 1.500000000000000E9     9.908014730417178E-1  -1.780916983929961E1   1.325512498526586E-4  -1.062722286510339E2   1.412421762474954E-4  -1.167788204844430E2   9.847410775038824E-1  -2.229354239413744E1  
 1.550000000000000E9     9.896334636314151E-1  -2.468926796731902E1   1.462761199012296E-4  -1.175199444675466E2   1.341589754118812E-4  -1.299462331490816E2   9.852300064534311E-1  -2.915043695035491E1  
 1.600000000000000E9     9.883452023192600E-1  -3.156688900588652E1   1.580349076725637E-4  -1.343622222703064E2   1.382849738615251E-4  -1.251431281421267E2   9.863996126996599E-1  -3.601429360797793E1  
 1.650000000000000E9     9.877961060805246E-1  -3.844046458469149E1   1.688469091928831E-4  -1.272098600831654E2   1.795288612843440E-4  -1.432543471181490E2   9.873033106665760E-1  -4.292086390581689E1  
 1.700000000000000E9     9.856054884902019E-1  -4.537917115484565E1   1.467770062534026E-4  -1.389757777727851E2   1.453135925540617E-4  -1.458518146149444E2   9.888122455171357E-1  -4.976608271490164E1  
 1.750000000000000E9     9.853566290694190E-1  -5.227454720679202E1   1.533581566761822E-4  -1.548022107270454E2   1.350791717839374E-4  -1.436761184598539E2   9.903786779896669E-1  -5.663883473974311E1  
 1.800000000000000E9     9.866237149514823E-1  -5.909140008556031E1   1.269049830304833E-4  -1.632875192790013E2   1.792084045472702E-4  -1.623073493550409E2   9.922247103260100E-1  -6.354995973256004E1  
 1.850000000000000E9     9.887370632759727E-1  -6.575775879245603E1   1.912488088611171E-4  -1.590347633188720E2   1.618731307830895E-4  -1.588524079812751E2   9.942555888952628E-1  -7.037980385425291E1  
 1.900000000000000E9     9.899431353710250E-1  -7.256218070790990E1   1.702096150515453E-4  -1.632286828453187E2   1.744498689469067E-4  -1.702133443589983E2   9.966067211767961E-1  -7.739107129459475E1  
 1.950000000000000E9     9.911499627636838E-1  -7.921060838960813E1   1.707397883947921E-4  -1.781804683836806E2   1.564707657551791E-4  -1.711264377999776E2   9.986439330172346E-1  -8.419993277025738E1  
 2.000000000000000E9     9.932080196046935E-1  -8.583072759452556E1   2.089497715184427E-4   1.718719701359792E2   1.934532675060991E-4  -1.795706129652038E2   9.991821667790773E-1  -9.111603595969640E1  
 2.050000000000000E9     9.976340734266812E-1  -9.236597204807126E1   1.552519077190100E-4   1.629976538489580E2   1.888144509507131E-4   1.721089568056447E2   9.999762581138471E-1  -9.805112044787819E1  
 2.100000000000000E9     1.000427124588241  -9.885005545862681E1   1.752620811160369E-4   1.682573402611103E2   1.586748324203868E-4   1.767265290799776E2   1.000099983817388  -1.050599207837784E2  
 2.150000000000000E9     1.003125835237022  -1.054177934361531E2   2.118533491599892E-4   1.542976683778381E2   1.700242404931965E-4   1.513077467569806E2   1.000484812784638  -1.119690834015751E2  
 2.200000000000000E9     1.006688351198945  -1.118128349583471E2   1.998322586309540E-4   1.546434674889334E2   2.031718338449215E-4   1.530289559762156E2   9.999437885426439E-1  -1.189829116679076E2  
 2.250000000000000E9     1.008993435324441  -1.182209981938995E2   1.795634257760279E-4   1.475517698308797E2   1.972727443995124E-4   1.511920896327378E2   9.990487208517649E-1  -1.259971682702048E2  
 2.300000000000000E9     1.010932736749809  -1.245903496967627E2   2.038275477971665E-4   1.347389097753705E2   2.314783263600405E-4   1.425176195984463E2   9.952113327271733E-1  -1.330690927209241E2  
 2.350000000000000E9     1.011578226499095  -1.310667041440829E2   1.946616897740741E-4   1.413078637931185E2   2.217816942264019E-4   1.357418666105749E2   9.934270922051033E-1  -1.401372545871566E2  
 2.400000000000000E9     1.011842852186432  -1.375202577838878E2   2.178174703793409E-4   1.260883308305340E2   2.010219279431846E-4   1.256064680461902E2   9.901967881655174E-1  -1.471840358833204E2  
 2.450000000000000E9     1.011953576210097  -1.439841600792635E2   2.173806411976875E-4   1.158326086145760E2   2.286624935415015E-4   1.198355245877859E2   9.888710440595048E-1  -1.542257817197065E2  
 2.500000000000000E9     1.010514447120407  -1.505245587106178E2   2.409388426567150E-4   1.182502878532437E2   2.052236842612734E-4   1.097040881256590E2   9.881582296927369E-1  -1.614059891059801E2  
 2.550000000000000E9     1.007204938024167  -1.570236298816060E2   2.341354617244714E-4   1.053475942931795E2   2.308504716958367E-4   1.003834747202561E2   9.880071190537572E-1  -1.684557074726003E2  
 2.600000000000000E9     1.004904126128806  -1.636689082740644E2   2.243154860834123E-4   9.924546350474454E1   2.335121110585062E-4   9.458364484404960E1   9.870342114262469E-1  -1.756304720228623E2  
 2.650000000000000E9     1.002403065493819  -1.703127800516384E2   2.439250952951372E-4   9.010824013933049E1   2.243789800733880E-4   8.065596270270902E1   9.872688904088993E-1   1.773790888636084E2  
 2.700000000000000E9     9.989120214675312E-1  -1.769892294810793E2   2.391292219943455E-4   8.434079746817403E1   2.651387100392427E-4   8.606765309513325E1   9.862050558144975E-1   1.703465993219910E2  
 2.750000000000000E9     9.957915864809646E-1   1.763185094494023E2   2.904151082594677E-4   7.707434381367213E1   2.392218586929731E-4   7.512284885679999E1   9.857079276726215E-1   1.633043762446411E2  
 2.800000000000000E9     9.922866041878888E-1   1.695919058352272E2   2.521187139065611E-4   7.335677022169456E1   2.247798588726192E-4   7.569046867923804E1   9.852644167742158E-1   1.562525630898363E2  
 2.850000000000000E9     9.883652026926708E-1   1.627433075507449E2   2.394259304434743E-4   6.842345888292269E1   2.541946877281392E-4   5.984889459545644E1   9.857194169061672E-1   1.492583954836041E2  
 2.900000000000000E9     9.872632389241277E-1   1.558949514320994E2   2.891622880127575E-4   6.634717652422117E1   2.803040120025196E-4   4.323265393930912E1   9.852473681324255E-1   1.423170367074531E2  
 2.950000000000000E9     9.845029950294076E-1   1.491372842434069E2   2.673409517871666E-4   4.825563148255871E1   2.500864378954875E-4   4.247654757487290E1   9.830815669451530E-1   1.352915998964519E2  
 3.000000000000000E9     9.845512397435128E-1   1.424733854163957E2   2.382404064911452E-4   4.884895552161728E1   2.859556044156864E-4   4.769629086137091E1   9.828057310472100E-1   1.284355699477568E2  
 3.050000000000000E9     9.833361844581742E-1   1.357806018340423E2   2.866787973576928E-4   3.243762859217369E1   2.913050631716959E-4   4.121680059052311E1   9.812299028790879E-1   1.214888762817321E2  
 3.100000000000000E9     9.825281700805595E-1   1.289968456345837E2   2.225452319935202E-4   1.887046014856719E1   2.743406264813159E-4   3.202572599223876E1   9.797978705737417E-1   1.146628577619856E2  
 3.150000000000000E9     9.823539128861935E-1   1.223491883491335E2   2.807018119159013E-4   2.993096589466300E1   2.983932907526465E-4   2.586502401893853E1   9.790586371339525E-1   1.078293183923750E2  
 3.200000000000000E9     9.825265684760085E-1   1.157146645956042E2   2.930975068303749E-4   2.271810955433843E1   2.958739092496147E-4   1.064470931572422E1   9.793604641559647E-1   1.010942005854824E2  
 3.250000000000000E9     9.843294059796116E-1   1.091566922154583E2   1.995316133576048E-4   8.329888601917860E-1   2.599239992782865E-4   2.280545618569639   9.796988525637730E-1   9.435457804056686E1  
 3.300000000000000E9     9.843616483130047E-1   1.027378926233197E2   2.776274171814656E-4  -4.062319382303436   2.899365398974145E-4   3.477529480101322   9.787354262599903E-1   8.772858677530019E1  
 3.350000000000000E9     9.859438471099565E-1   9.628861614291172E1   2.857654062991986E-4   7.261691817468784E-1   2.671072970901156E-4   8.620831093798412E-1   9.793606285956641E-1   8.105633430499564E1  
 3.400000000000000E9     9.868664328007375E-1   8.996379102936908E1   2.857569850548384E-4  -7.130344972754258   2.806288683925756E-4  -6.358321864775992   9.786781162408101E-1   7.446051593554159E1  
 3.450000000000000E9     9.889657382291240E-1   8.357392058030293E1   2.798679160827941E-4  -1.734064124734923E1   3.083530735156760E-4  -8.404368582895664   9.775661896708722E-1   6.780455397902036E1  
 3.500000000000000E9     9.930362350674645E-1   7.735036633763448E1   2.946117780283863E-4  -2.266723286872165E1   2.921655476937901E-4  -1.890740183467710E1   9.783051549520706E-1   6.123337767597177E1  
 3.550000000000000E9     9.930881936661737E-1   7.101744432539262E1   2.903608333386527E-4  -3.294962992567025E1   2.577338781978290E-4  -2.763204286962235E1   9.778979807381738E-1   5.461435509455777E1  
 3.600000000000000E9     9.953597022465036E-1   6.464779132639799E1   2.544275349152684E-4  -4.140122026185470E1   2.806652832808382E-4  -3.468671220194538E1   9.771955491386869E-1   4.817303411654832E1  
 3.650000000000000E9     9.957839166314898E-1   5.836209416235094E1   3.085558218553983E-4  -3.755169580132148E1   3.519050345396617E-4  -3.522053091252629E1   9.758401744021962E-1   4.163975329088657E1  
 3.700000000000000E9     9.982184005551577E-1   5.206071866562959E1   3.064310342354714E-4  -4.113415330609600E1   3.334438632848408E-4  -4.996221299784971E1   9.733842221219137E-1   3.509757181311912E1  
 3.750000000000000E9     9.988009365465342E-1   4.578809300858067E1   3.225395371299128E-4  -6.530859393178432E1   3.202291005140261E-4  -5.628169102044904E1   9.705526358516996E-1   2.842555221799017E1  
 3.800000000000000E9     9.987650967663238E-1   3.957331824886280E1   2.893329977161455E-4  -6.850253367230768E1   3.360294212820316E-4  -6.487528802466738E1   9.692284945590595E-1   2.190493369641037E1  
 3.850000000000000E9     9.978978679446340E-1   3.325839041034328E1   3.221287987377594E-4  -6.412193908588522E1   2.455275193257381E-4  -7.174982628989534E1   9.674650777671535E-1   1.550995630798592E1  
 3.900000000000000E9     9.977277890074372E-1   2.694545728636168E1   3.170874694709642E-4  -7.295015791298523E1   3.037195814233959E-4  -7.255540434221376E1   9.662968894292856E-1   8.944452360365661  
 3.950000000000000E9     9.949857034438328E-1   2.066311315090055E1   3.301696194796317E-4  -8.541541717526269E1   3.405895873552588E-4  -7.784033060167964E1   9.642308328611950E-1   2.424812641709887  
 4.000000000000000E9     9.947168192003394E-1   1.429701850346100E1   4.047450482382986E-4  -8.310096729861452E1   3.274909474950956E-4  -8.997273741223775E1   9.624718598240249E-1  -3.980958646205192  
 4.050000000000000E9     9.912949371024251E-1   7.928911753251786   3.687005250209824E-4  -9.982736305606443E1   3.233215597130084E-4  -9.587105436738185E1   9.607525769332524E-1  -1.057668206673312E1  
 4.100000000000000E9     9.891852007954894E-1   1.469193880232835   3.351753095431798E-4  -1.007364503413783E2   3.216572841712786E-4  -9.915193024964783E1   9.598746779979114E-1  -1.706461368340287E1  
 4.150000000000000E9     9.868319399228350E-1  -4.973721532706179   2.948390581218028E-4  -1.064406816920531E2   3.336489130736781E-4  -1.030677341916162E2   9.588930026010166E-1  -2.356328458311655E1  
 4.200000000000000E9     9.842611972899927E-1  -1.149867879545683E1   3.688267555758660E-4  -1.219119299125846E2   3.387030792377625E-4  -1.127058665513674E2   9.585591496576327E-1  -3.006291955454481E1  
 4.250000000000000E9     9.820968961372959E-1  -1.797018096137477E1   3.302139226868299E-4  -1.185838768089093E2   3.266417326743173E-4  -1.181219405890310E2   9.578833038462576E-1  -3.648762216007062E1  
 4.300000000000000E9     9.796184738713778E-1  -2.454402041791614E1   3.469431762942537E-4  -1.231850772679249E2   3.522951358316753E-4  -1.274858596666400E2   9.564507794108493E-1  -4.291216350655250E1  
 4.350000000000000E9     9.796489348379679E-1  -3.099977465313036E1   3.480134402000566E-4  -1.305421536463519E2   3.579782835852124E-4  -1.344310474930152E2   9.557943351463621E-1  -4.937850581078584E1  
 4.400000000000000E9     9.782723920203377E-1  -3.747279418124701E1   3.695286154141285E-4  -1.399032329752159E2   3.296226203213663E-4  -1.380150150751008E2   9.546780828796777E-1  -5.589172377809965E1  
 4.450000000000000E9     9.786862860794764E-1  -4.401302004200054E1   3.643641149992388E-4  -1.431456689947587E2   3.667978515478589E-4  -1.462996897018710E2   9.539087415140271E-1  -6.246728365451591E1  
 4.500000000000000E9     9.792231003064287E-1  -5.043821222682315E1   3.840428133977921E-4  -1.540158103951659E2   3.785411121706435E-4  -1.505134179852622E2   9.529626986818227E-1  -6.901496660635580E1  
 4.550000000000000E9     9.797976855271277E-1  -5.697025695181598E1   3.591346274759503E-4  -1.568009031476280E2   3.745625716517724E-4  -1.589523659726489E2   9.513694548013816E-1  -7.553667908773699E1  
 4.600000000000000E9     9.823409642496908E-1  -6.351809435364303E1   3.777848765305970E-4  -1.660507295476100E2   3.776644153897909E-4  -1.625567108394268E2   9.517425367625396E-1  -8.217897108639241E1  
 4.650000000000000E9     9.833555297024265E-1  -7.004026011715258E1   3.875104702549282E-4  -1.762007497351030E2   3.762608314144818E-4  -1.707056925941686E2   9.506540238889706E-1  -8.864515246926293E1  
 4.700000000000000E9     9.857722465121224E-1  -7.659403085319258E1   4.337038234960640E-4  -1.793978664796954E2   3.884994427166427E-4  -1.786646540562280E2   9.492849987823226E-1  -9.539937773426473E1  
 4.750000000000000E9     9.873416794827612E-1  -8.308426572619636E1   3.701184252616168E-4   1.739069182894702E2   4.089393215358560E-4   1.738920896092338E2   9.495944255197895E-1  -1.020726611422803E2  
 4.800000000000000E9     9.894224292238357E-1  -8.966201782220992E1   3.956442507354060E-4   1.692700258916518E2   3.979709270630144E-4   1.706231612376078E2   9.499791152815095E-1  -1.087995701160401E2  
