#  HZ   S   MA   R     50.00 
! Rohde & Schwarz ZVA67 4Ports - Version 4.11 - 1305.7002k04 SN: 101051
! Date: 2023-05-31 11:07:36
! Measurements: S11 S21 S12 S22 
! 
 5.000000000000000E7     6.591807472036370E-3   5.018187528143637E1   9.990642154462489E-1  -6.792096404053923   9.970625890890608E-1  -6.791631977796766   8.271499210914747E-3   8.616462586353816  
 1.000000000000000E8     3.061926149845366E-3  -3.710979793705739E1   9.996558685546907E-1  -1.346168045989046E1   1.001799544293662  -1.348187092918261E1   3.848901896985904E-3  -3.667263591262429E1  
 1.500000000000000E8     7.606628392763193E-3  -1.767944368446877E1   9.995670416490301E-1  -2.020944815879485E1   9.992276982199386E-1  -2.022480972255532E1   8.357930449119477E-3  -3.722265201243852E1  
 2.000000000000000E8     6.302096312010060E-3  -1.698198748145935E1   9.975284938136778E-1  -2.682288420938898E1   1.000359248318927  -2.715925530451301E1   8.263841179136446E-3  -3.070225886979342E1  
 2.500000000000000E8     8.912562428181307E-3  -2.300472049662189E1   9.953730048259712E-1  -3.372384290040711E1   9.960571816281256E-1  -3.370511403058146E1   1.211807658093107E-2  -3.330241128060974E1  
 3.000000000000000E8     1.244537847005576E-2  -3.370868156289920E1   9.957053540362610E-1  -4.045925071265211E1   9.954408941257272E-1  -4.053003450263639E1   1.629449975856069E-2  -3.958646521135474E1  
 3.500000000000000E8     1.445692231666082E-2  -4.260888036532776E1   9.957991711614601E-1  -4.720965452010741E1   9.947094938233441E-1  -4.724444722791968E1   1.615485841538751E-2  -4.359078219315084E1  
 4.000000000000000E8     1.768323012365139E-2  -4.693333843292589E1   9.944919113006713E-1  -5.388255871452265E1   9.948139941988465E-1  -5.394079169701104E1   2.068132682623813E-2  -4.689079958570324E1  
 4.500000000000000E8     1.709102717782677E-2  -5.299676119574068E1   9.945167911327898E-1  -6.072317588982436E1   9.935047520719924E-1  -6.065682954066723E1   2.303682032796651E-2  -5.279317554805517E1  
 5.000000000000000E8     1.812331823185022E-2  -6.183543650966299E1   9.935096906940338E-1  -6.746276261438702E1   9.948777494954784E-1  -6.742798183060073E1   2.379726732816890E-2  -6.669295298788956E1  
 5.500000000000000E8     1.527293140822369E-2  -7.524504039477587E1   9.926420727370285E-1  -7.414534733170844E1   9.941498656169538E-1  -7.419312031840008E1   2.524848411080124E-2  -7.381361701346944E1  
 6.000000000000000E8     1.404006588517958E-2  -9.273187213750408E1   9.935849825877222E-1  -8.095332989967062E1   9.929631788165165E-1  -8.093967747167072E1   2.723826292877256E-2  -8.590210895569814E1  
 6.500000000000000E8     1.238982665731475E-2  -1.030482712793596E2   9.922742740918098E-1  -8.763484964813401E1   9.928748543203909E-1  -8.765657985479847E1   2.999644027616469E-2  -9.881042543883251E1  
 7.000000000000000E8     1.083513933550000E-2  -1.344292618850697E2   9.915342580564104E-1  -9.439107532913361E1   9.930192665559458E-1  -9.442009455818445E1   3.038269899314954E-2  -1.149455092839534E2  
 7.500000000000000E8     8.918241933978314E-3  -1.752810269090666E2   9.913232132554840E-1  -1.010872688761373E2   9.917716622411013E-1  -1.011302384505778E2   3.098449932299079E-2  -1.293659687426519E2  
 8.000000000000000E8     1.285357048739217E-2   1.484195436764917E2   9.914987896837384E-1  -1.078306944195743E2   9.907658264301235E-1  -1.078297781020138E2   3.061869178556866E-2  -1.467089678027734E2  
 8.500000000000000E8     1.560022780496152E-2   1.295066510230709E2   9.912666188529110E-1  -1.145815350207866E2   9.904065297891136E-1  -1.146170454416959E2   3.392584932144359E-2  -1.603366905368933E2  
 9.000000000000000E8     1.979983599973713E-2   1.102891703956599E2   9.894121190086628E-1  -1.213428230720538E2   9.898389475927333E-1  -1.213530163026742E2   3.726877718819984E-2  -1.726195764086736E2  
 9.500000000000000E8     2.406729436335423E-2   1.029201033281050E2   9.892386242725481E-1  -1.280611207021379E2   9.894372755921527E-1  -1.281045734494671E2   3.979033032593188E-2   1.766944894272410E2  
 1.000000000000000E9     2.766071674389381E-2   9.676256672002916E1   9.888770478188397E-1  -1.348191013141966E2   9.889924858295293E-1  -1.348286866671701E2   4.101482319487457E-2   1.655447834294705E2  
 1.050000000000000E9     2.996911753272685E-2   9.078561777437868E1   9.886225526738588E-1  -1.415306781803367E2   9.886895478048904E-1  -1.415686060951958E2   4.204910035471775E-2   1.573705217907355E2  
 1.100000000000000E9     3.219170679968537E-2   8.414822230315242E1   9.876300267167512E-1  -1.482886980200987E2   9.876843610775720E-1  -1.482765735607231E2   4.283709290027250E-2   1.469073184965615E2  
 1.150000000000000E9     3.522532614897062E-2   7.807503862901788E1   9.872367800757989E-1  -1.550189094069900E2   9.870255477434040E-1  -1.550152749054232E2   4.345725493180967E-2   1.380549032011773E2  
 1.200000000000000E9     3.682400227195479E-2   7.299960094406184E1   9.866474098558190E-1  -1.617536759146844E2   9.867079836743591E-1  -1.618021869530907E2   4.363785744469060E-2   1.280318796093033E2  
 1.250000000000000E9     3.668851567702487E-2   6.798669845275305E1   9.865784922228095E-1  -1.684894593309753E2   9.862755563441609E-1  -1.685168769727554E2   4.107812038709893E-2   1.225566166066223E2  
 1.300000000000000E9     3.665137942203856E-2   6.143978738001237E1   9.863191061889254E-1  -1.752124040471714E2   9.864227481423630E-1  -1.752642552917046E2   3.923958431790864E-2   1.160216625543929E2  
 1.350000000000000E9     3.696632375329593E-2   5.645123937499592E1   9.862121295042995E-1   1.780646867497282E2   9.863194714401363E-1   1.780471447087198E2   3.684616110947132E-2   1.099097648669635E2  
 1.400000000000000E9     3.504328687459560E-2   5.088898730782152E1   9.858723383675655E-1   1.713798108598054E2   9.860508766702087E-1   1.713260554519030E2   3.403303365529349E-2   1.039574565722434E2  
 1.450000000000000E9     3.381989380921498E-2   4.467637605383648E1   9.863417084250366E-1   1.646491367472549E2   9.859880604164543E-1   1.645951878336221E2   3.100452066843500E-2   1.011516544705900E2  
 1.500000000000000E9     3.182635317422198E-2   3.905485401786460E1   9.858532557476895E-1   1.579211694789400E2   9.865700904528301E-1   1.578898924088283E2   2.764852690621763E-2   9.838049571191782E1  
 1.550000000000000E9     3.007912769558212E-2   3.177702977319270E1   9.865152934415249E-1   1.512249123131495E2   9.867310960442975E-1   1.511688559978140E2   2.439464556644854E-2   9.830891184852629E1  
 1.600000000000000E9     2.812772834538535E-2   2.212034266278178E1   9.865609249477647E-1   1.444797012593483E2   9.869103746906672E-1   1.444654284762901E2   2.138931501923138E-2   9.947437541035893E1  
 1.650000000000000E9     2.634247663445309E-2   1.192923043710474E1   9.873837036971468E-1   1.378055080536567E2   9.871160975870844E-1   1.377547299026153E2   2.017933325790320E-2   1.029675653207421E2  
 1.700000000000000E9     2.443511125653556E-2  -5.797077591686667E-1   9.874106975456893E-1   1.310719078086079E2   9.868540672282107E-1   1.310970244169386E2   1.928575052768662E-2   1.110304751924882E2  
 1.750000000000000E9     2.376800631811248E-2  -1.777319587939042E1   9.876961651966921E-1   1.244076620592460E2   9.876219287304153E-1   1.243646956869022E2   1.970280995062883E-2   1.157617032087484E2  
 1.800000000000000E9     2.468252486960387E-2  -3.313531808721691E1   9.874154078990367E-1   1.177156136471532E2   9.879782539846057E-1   1.176937663336392E2   1.949921011502043E-2   1.185790048033937E2  
 1.850000000000000E9     2.711780855522421E-2  -4.750968989428032E1   9.883893980066844E-1   1.110043960698166E2   9.872611867807443E-1   1.109693700860172E2   2.022761437112887E-2   1.135308352015734E2  
 1.900000000000000E9     2.977536451005583E-2  -6.308224744740514E1   9.879736671497900E-1   1.043158123273284E2   9.880422450667130E-1   1.043057557655934E2   2.088029024703595E-2   1.175596755309105E2  
 1.950000000000000E9     3.350950692165697E-2  -7.475901524743672E1   9.877075910804153E-1   9.769192768577616E1   9.880120527720939E-1   9.760398744347175E1   2.153128622701572E-2   1.117033608280655E2  
 2.000000000000000E9     3.794830645284103E-2  -8.650066780934469E1   9.871567663096317E-1   9.095619620531005E1   9.874553645613207E-1   9.091249506823735E1   2.354525867802183E-2   1.044215025885509E2  
 2.050000000000000E9     4.328526526162074E-2  -9.452097392719431E1   9.875823001096317E-1   8.423433257111778E1   9.878542768503104E-1   8.424746108281153E1   2.410359936734021E-2   9.680502326923384E1  
 2.100000000000000E9     4.670113791583608E-2  -1.035939458807463E2   9.880663950006300E-1   7.758446726688902E1   9.874038133011650E-1   7.757077376675397E1   2.474965591387463E-2   9.302669676371954E1  
 2.150000000000000E9     5.104573913536489E-2  -1.111114727128008E2   9.879890050344072E-1   7.088598325963027E1   9.874795551132279E-1   7.082899987279387E1   2.621321613352564E-2   8.688867921092771E1  
 2.200000000000000E9     5.486315187356962E-2  -1.184511368317247E2   9.874636762155542E-1   6.419831306126251E1   9.881949163312669E-1   6.417139320990400E1   2.654652057441856E-2   8.024138950735771E1  
 2.250000000000000E9     5.699339109702863E-2  -1.247946337486726E2   9.876736314739997E-1   5.751822113724793E1   9.877342081562107E-1   5.745228090649512E1   2.747904709898041E-2   7.327042770468140E1  
 2.300000000000000E9     5.734491379599460E-2  -1.315663807243179E2   9.865122035572831E-1   5.084130752237873E1   9.864269346957184E-1   5.073947700081635E1   2.939848541727020E-2   7.015325793336328E1  
 2.350000000000000E9     5.777451553639404E-2  -1.379920595559247E2   9.862833312097217E-1   4.413935999654478E1   9.860471085783656E-1   4.403674537045495E1   3.143159694189784E-2   6.540239999970197E1  
 2.400000000000000E9     5.709050298257588E-2  -1.446300262516730E2   9.856815414000987E-1   3.744537383501631E1   9.854488063625568E-1   3.742103435743331E1   3.393807888852356E-2   6.242725878498520E1  
 2.450000000000000E9     5.651079906696455E-2  -1.511547629603611E2   9.854173699287034E-1   3.071013539474037E1   9.861660488385835E-1   3.068102756925827E1   3.504002504824267E-2   5.918330174543858E1  
 2.500000000000000E9     5.419664746354433E-2  -1.587210958283856E2   9.858720385507500E-1   2.401746800057754E1   9.855591535212750E-1   2.397668236732266E1   3.817709107571824E-2   5.669911651597278E1  
 2.550000000000000E9     5.141327080602712E-2  -1.663753484821279E2   9.856328951085034E-1   1.728917940096892E1   9.856083592372140E-1   1.726811046860674E1   3.935042549417062E-2   5.294858110461344E1  
 2.600000000000000E9     4.896129793535978E-2  -1.765069986947037E2   9.856092257630459E-1   1.058449745023164E1   9.849284143204508E-1   1.052236848087078E1   4.212594346834162E-2   5.076876671368587E1  
 2.650000000000000E9     4.630116377199956E-2   1.736185018277326E2   9.852808155971249E-1   3.861825754529289   9.846335592916118E-1   3.863653397027548   4.286279616839377E-2   4.732161761977076E1  
 2.700000000000000E9     4.399294951339187E-2   1.634674765877601E2   9.844663299736175E-1  -2.884282601448511   9.844880681807385E-1  -2.916247732814747   4.440242921627585E-2   4.258913558828526E1  
 2.750000000000000E9     4.260709644023384E-2   1.499232652246914E2   9.838923945005483E-1  -9.605641964918060   9.837688274347919E-1  -9.652730464720275   4.664935798225735E-2   3.796417846275279E1  
 2.800000000000000E9     4.139230520805147E-2   1.375513119258901E2   9.837540314738750E-1  -1.629438530164141E1   9.825522779528964E-1  -1.637034703007391E1   4.792964787271480E-2   3.201917306230364E1  
 2.850000000000000E9     4.209905119938379E-2   1.226604283732040E2   9.835445599831612E-1  -2.303271606671622E1   9.830192806872261E-1  -2.311050610814035E1   4.973061447757438E-2   2.585978028442966E1  
 2.900000000000000E9     4.468981159655151E-2   1.103463717576180E2   9.820990571410928E-1  -2.977557965941516E1   9.840081534662457E-1  -2.978566078899218E1   5.053743649678279E-2   1.973142240793002E1  
 2.950000000000000E9     4.493132840815291E-2   9.755976758485322E1   9.820229032322781E-1  -3.657912491616184E1   9.824054214716773E-1  -3.656855684251975E1   5.193165661480929E-2   1.215246775753666E1  
 3.000000000000000E9     4.617552270043578E-2   8.721619099223689E1   9.826895340084212E-1  -4.328998582397023E1   9.813284737150095E-1  -4.330214337790098E1   5.141234692712023E-2   6.791772590762321  
 3.050000000000000E9     4.720529648684750E-2   7.720991319069803E1   9.820173482000408E-1  -5.005253301557264E1   9.827552061202803E-1  -5.004090757780701E1   5.090654278474262E-2  -1.503092981774181  
 3.100000000000000E9     5.003351428439706E-2   6.777018778015297E1   9.813029687245705E-1  -5.674461931652445E1   9.818225174936425E-1  -5.682043054926763E1   5.053928818093149E-2  -8.496518394948362  
 3.150000000000000E9     5.036836438026066E-2   6.033288644242926E1   9.814541717881752E-1  -6.351970850052274E1   9.817396630911935E-1  -6.352500429788753E1   4.993120692013235E-2  -1.614161827938153E1  
 3.200000000000000E9     5.174961202246052E-2   5.312939045832920E1   9.811724079346585E-1  -7.021948522931642E1   9.822057684748287E-1  -7.021378421876318E1   4.825107559098753E-2  -2.378216568731417E1  
 3.250000000000000E9     5.184888621757525E-2   4.686733970918694E1   9.820588169201018E-1  -7.692794731601290E1   9.815042220307615E-1  -7.704016000176976E1   4.509623220883807E-2  -3.105046750750815E1  
 3.300000000000000E9     4.955396969275417E-2   4.121306397495079E1   9.820886333209368E-1  -8.364049752361598E1   9.824469805386439E-1  -8.375196536219127E1   4.291347018338065E-2  -4.106725948256916E1  
 3.350000000000000E9     4.871377267608930E-2   3.537662638693267E1   9.823956818052497E-1  -9.043064476002672E1   9.818203544203391E-1  -9.043427657048835E1   3.944934553834833E-2  -4.943508736417661E1  
 3.400000000000000E9     4.552611266726243E-2   3.208970156976943E1   9.828761678708092E-1  -9.708012562508552E1   9.824772769653236E-1  -9.716481062182392E1   3.550802056949500E-2  -6.005650042358049E1  
 3.450000000000000E9     4.186073114465307E-2   2.723608422294212E1   9.823899600056359E-1  -1.037919594028224E2   9.833316345207219E-1  -1.038583085061110E2   3.213964207908149E-2  -6.993080610428032E1  
 3.500000000000000E9     3.933405725119889E-2   2.339434284474491E1   9.839564842542423E-1  -1.105490488262545E2   9.843495738070380E-1  -1.105827401178721E2   2.740471581874555E-2  -8.538937447228408E1  
 3.550000000000000E9     3.347549040548850E-2   2.000581392792345E1   9.839818113251222E-1  -1.172758637902300E2   9.852156747626686E-1  -1.174122668930543E2   2.420173241791383E-2  -9.741784560899204E1  
 3.600000000000000E9     2.954349526496723E-2   1.912700175802110E1   9.846833922849489E-1  -1.240081526022852E2   9.846677543116055E-1  -1.240913639149368E2   1.984298496810924E-2  -1.144782662428890E2  
 3.650000000000000E9     2.648686858389321E-2   1.880501559651864E1   9.849382922744173E-1  -1.307275027201235E2   9.851176087672903E-1  -1.308040382299294E2   1.955127047862042E-2  -1.404176077374475E2  
 3.700000000000000E9     2.184839354492370E-2   1.957437609436460E1   9.843327678656038E-1  -1.374824555898055E2   9.849126654698046E-1  -1.375604282417852E2   1.943204382885604E-2  -1.583635918847875E2  
 3.750000000000000E9     1.671427475707676E-2   2.269196755997514E1   9.855802546981410E-1  -1.442135095661265E2   9.854242463075259E-1  -1.443090912809294E2   2.045692243645441E-2  -1.766957223850693E2  
 3.800000000000000E9     1.386029386265806E-2   4.461925961786729E1   9.846665750189422E-1  -1.509550273128039E2   9.845033625491999E-1  -1.510062399296283E2   2.002880536397073E-2   1.630206397870817E2  
 3.850000000000000E9     1.355909897411097E-2   7.004874940619912E1   9.841867714546622E-1  -1.576588456846424E2   9.841310335559304E-1  -1.577084318364214E2   2.241013769540008E-2   1.461141831560427E2  
 3.900000000000000E9     1.688823562217684E-2   8.882132343760073E1   9.845935409080029E-1  -1.644027916112087E2   9.835915045647824E-1  -1.644683882497820E2   2.534430935081166E-2   1.334776379961928E2  
 3.950000000000000E9     2.251219433488979E-2   9.874401040515684E1   9.835418131276252E-1  -1.711138569021570E2   9.833099414538984E-1  -1.711758214745940E2   2.758220659740988E-2   1.202236077487013E2  
 4.000000000000000E9     2.816268139435954E-2   1.021017734320109E2   9.832122566558134E-1  -1.778720451384274E2   9.837871447904780E-1  -1.778958902461328E2   3.113832513125939E-2   1.066819527478443E2  
 4.050000000000000E9     3.237966669044331E-2   1.010382063188346E2   9.833301845001274E-1   1.754646168234660E2   9.835462782092562E-1   1.753974425442236E2   3.383385804221497E-2   9.903682759522026E1  
 4.100000000000000E9     3.756529091518039E-2   9.951867436364918E1   9.820850229644565E-1   1.687267039530954E2   9.826199302793707E-1   1.686789599785814E2   3.585633410163674E-2   8.805692019279864E1  
 4.150000000000000E9     4.246515013480045E-2   9.589268762453814E1   9.808761785714627E-1   1.619936536682976E2   9.820322396501777E-1   1.619486912306348E2   3.923624979574040E-2   7.950801557470136E1  
 4.200000000000000E9     4.599387861579418E-2   9.174228018611167E1   9.813526831561241E-1   1.552813095550460E2   9.814805322945088E-1   1.552504200346611E2   4.220856500410125E-2   7.073622183948210E1  
 4.250000000000000E9     4.939984008335634E-2   8.599862040319219E1   9.808122079027448E-1   1.485752552373895E2   9.809617336314241E-1   1.485077553530841E2   4.677135271244703E-2   6.255832533988578E1  
 4.300000000000000E9     5.188077849344451E-2   7.954251518026375E1   9.803632074742192E-1   1.418372172639751E2   9.804893352267921E-1   1.418380922386621E2   5.091114561265243E-2   5.778128344863831E1  
 4.350000000000000E9     5.530279302288420E-2   7.302533091768318E1   9.801705831901606E-1   1.351516230553710E2   9.804075984701410E-1   1.350979474626166E2   5.523067754254962E-2   4.984765138332769E1  
 4.400000000000000E9     5.881488109896477E-2   6.572707551931178E1   9.801343157090070E-1   1.284497654220653E2   9.804050302843466E-1   1.284084556288382E2   5.853329537571437E-2   4.443355412118820E1  
 4.450000000000000E9     5.953668958625517E-2   5.915210429202637E1   9.801032551157538E-1   1.217834051668580E2   9.807386292263279E-1   1.216876608069436E2   6.110856802806276E-2   3.701571614683996E1  
 4.500000000000000E9     6.253615730549157E-2   5.153250806807657E1   9.801322503900174E-1   1.150726679481278E2   9.801783492249366E-1   1.150105252368448E2   6.451126092546182E-2   3.007025322086216E1  
 4.550000000000000E9     6.498955275368201E-2   4.425958063919619E1   9.799263771525453E-1   1.083271321222780E2   9.805010525107482E-1   1.083209326035591E2   6.718605968629869E-2   2.399518403907038E1  
 4.600000000000000E9     6.654983615490105E-2   3.634193988363132E1   9.797842731422621E-1   1.016641057489128E2   9.804834919628026E-1   1.015833350021142E2   6.811107399483747E-2   1.604149315550015E1  
 4.650000000000000E9     6.965149836023619E-2   2.758494049628002E1   9.800880544905780E-1   9.494871704537925E1   9.810095320850670E-1   9.490844857153935E1   7.021292856274342E-2   1.050827126064262E1  
 4.700000000000000E9     7.056329977054546E-2   1.962223968768528E1   9.804525183989872E-1   8.828077068486073E1   9.810035865426725E-1   8.824150875926367E1   6.934711904202646E-2   4.863193596007661  
 4.750000000000000E9     7.430968763092835E-2   1.130077101464805E1   9.814552185498758E-1   8.160687457741803E1   9.814731563474928E-1   8.155187413282533E1   6.895398820909288E-2  -1.540884862266173  
 4.800000000000000E9     7.604492340842205E-2   4.404865747398525   9.818289058863932E-1   7.491057150561632E1   9.818929867905428E-1   7.489419988664174E1   6.641714537773159E-2  -7.954354564286219  
