#  HZ   S   MA   R     50.00 
! Rohde & Schwarz ZVA67 4Ports - Version 4.11 - 1305.7002k04 SN: 101051
! Date: 2023-05-31 11:07:52
! Measurements: S11 S21 S12 S22 
! 
 5.000000000000000E7     7.784400396467751E-3   4.583240113890716E1   1.004503911663232  -6.926611980826298   1.000056640216523  -6.656342993289207   9.217335157219810E-3   4.452676048500807  
 1.000000000000000E8     3.657424639824972E-3  -3.307301735710664E1   9.979455380851359E-1  -1.355891226337781E1   9.997384155608213E-1  -1.341951443396347E1   3.765481671222256E-3  -3.529102727630055E1  
 1.500000000000000E8     8.068734630215782E-3  -2.075793732417954E1   9.997197963818103E-1  -2.015499068513558E1   1.000623459605740  -2.019524239683549E1   8.488601668498958E-3  -3.534938463175326E1  
 2.000000000000000E8     6.491583403239736E-3  -1.911345656807143E1   9.957805721898879E-1  -2.684016219486111E1   9.986595405695281E-1  -2.711632538330119E1   8.818387952017935E-3  -3.050884379370511E1  
 2.500000000000000E8     8.958418143108941E-3  -2.189345349888451E1   9.961454658616270E-1  -3.370653610740649E1   9.964596723906758E-1  -3.372170917129772E1   1.167968148823674E-2  -3.348367999576568E1  
 3.000000000000000E8     1.247455155279899E-2  -3.514958617518683E1   9.962777378265268E-1  -4.044854516514150E1   9.942948104538624E-1  -4.051270800940878E1   1.623191855065009E-2  -3.952157687946056E1  
 3.500000000000000E8     1.459180266402142E-2  -4.327795748754349E1   9.952824747554961E-1  -4.723123959570297E1   9.943540900266508E-1  -4.722801346002408E1   1.631021835700912E-2  -4.401126321763346E1  
 4.000000000000000E8     1.754813287274117E-2  -4.720689007580099E1   9.947695675989766E-1  -5.391151505977654E1   9.956044345957347E-1  -5.398259195300826E1   2.063412753346522E-2  -4.668936144551053E1  
 4.500000000000000E8     1.735570993007794E-2  -5.354100852828722E1   9.949629315148030E-1  -6.067440502729385E1   9.945983186450511E-1  -6.070091830142916E1   2.310235566908467E-2  -5.299465431802103E1  
 5.000000000000000E8     1.805637272955873E-2  -6.179110929810813E1   9.941578995797786E-1  -6.747475190763616E1   9.945462611106016E-1  -6.738304825350740E1   2.377438786628350E-2  -6.646117419481686E1  
 5.500000000000000E8     1.531640072167649E-2  -7.596657535388751E1   9.932996128175883E-1  -7.413911878274860E1   9.937704119690340E-1  -7.417028204749066E1   2.504746953760069E-2  -7.383023920354812E1  
 6.000000000000000E8     1.399581559883540E-2  -9.289466018976653E1   9.931647273929087E-1  -8.092712531149975E1   9.930911352070672E-1  -8.092782807724284E1   2.739567410856394E-2  -8.591973128692291E1  
 6.500000000000000E8     1.236776858270549E-2  -1.036653019901961E2   9.923436774115541E-1  -8.761315007869513E1   9.930909596266900E-1  -8.768206564643334E1   2.995916692859064E-2  -9.918087068057783E1  
 7.000000000000000E8     1.096674521612818E-2  -1.353897813935532E2   9.921858334934059E-1  -9.436878973091700E1   9.920019392951859E-1  -9.441239775028636E1   3.044068393121109E-2  -1.148854099609843E2  
 7.500000000000000E8     9.131932507216436E-3  -1.753992946271555E2   9.918228087275182E-1  -1.010969045362036E2   9.916509459685329E-1  -1.011265415695419E2   3.109478629277880E-2  -1.296228698017841E2  
 8.000000000000000E8     1.282147984599736E-2   1.482367679232538E2   9.914786705408463E-1  -1.078232875073837E2   9.911268174726187E-1  -1.078217812679800E2   3.055560387904684E-2  -1.467712498339028E2  
 8.500000000000000E8     1.571862523688963E-2   1.293784330388050E2   9.909607790880345E-1  -1.145695354577548E2   9.903997365919888E-1  -1.146537606024794E2   3.409627565555590E-2  -1.602381101598062E2  
 9.000000000000000E8     1.985432277895846E-2   1.102013805934014E2   9.898207740771163E-1  -1.213498837804870E2   9.896803528183453E-1  -1.213456722502647E2   3.714228055704306E-2  -1.724668469031723E2  
 9.500000000000000E8     2.406192215331052E-2   1.031508179411487E2   9.891135295444333E-1  -1.280605413249676E2   9.890023034969135E-1  -1.281013760132581E2   3.971912534605190E-2   1.765725169794699E2  
 1.000000000000000E9     2.756613610662619E-2   9.705375881569538E1   9.886073458597621E-1  -1.347884793885422E2   9.883187703428696E-1  -1.348294104120806E2   4.114911606138465E-2   1.656816956281113E2  
 1.050000000000000E9     2.993066580134526E-2   9.087197464700687E1   9.884018049525488E-1  -1.415465636691427E2   9.884825133568892E-1  -1.415593744681431E2   4.197618064474352E-2   1.573804784762402E2  
 1.100000000000000E9     3.226215237757842E-2   8.410094216929349E1   9.880096652851870E-1  -1.482985869374610E2   9.877384233981617E-1  -1.482719677475683E2   4.290979481859671E-2   1.468282956297422E2  
 1.150000000000000E9     3.523297662761960E-2   7.795869576261853E1   9.874284987576365E-1  -1.550255306638468E2   9.869936874666940E-1  -1.550333074795671E2   4.342908356114000E-2   1.380064022324396E2  
 1.200000000000000E9     3.679341195842524E-2   7.292110065387327E1   9.870239590494978E-1  -1.617606634200136E2   9.865877490270412E-1  -1.617784080314419E2   4.359786585806318E-2   1.279885452707791E2  
 1.250000000000000E9     3.668585051446240E-2   6.802675402428494E1   9.868063958473567E-1  -1.684996668547034E2   9.857965079491232E-1  -1.685036457478804E2   4.112377744877548E-2   1.226972887331756E2  
 1.300000000000000E9     3.645854932277164E-2   6.146195656814451E1   9.861962169667269E-1  -1.751812851332009E2   9.863618149404989E-1  -1.752361902482520E2   3.912866424076941E-2   1.159235537960795E2  
 1.350000000000000E9     3.702800515935577E-2   5.641959325326022E1   9.862627782912187E-1   1.780864164212879E2   9.863674498381377E-1   1.780793665408834E2   3.698646600966135E-2   1.096979012328266E2  
 1.400000000000000E9     3.500859509524462E-2   5.090552508233269E1   9.858929633016229E-1   1.713610852602731E2   9.857383906693567E-1   1.713333794424613E2   3.396818282127905E-2   1.040353900259380E2  
 1.450000000000000E9     3.392563621677890E-2   4.487680907126536E1   9.865343323823855E-1   1.646574111165080E2   9.859904389369590E-1   1.645929391559613E2   3.110683120169414E-2   1.013359035051454E2  
 1.500000000000000E9     3.181639110679842E-2   3.926257420304660E1   9.854783552288647E-1   1.579195980026256E2   9.863900826767383E-1   1.578921824336203E2   2.766099890583275E-2   9.862374671497379E1  
 1.550000000000000E9     3.002617048704060E-2   3.178739209600818E1   9.868073707620623E-1   1.512286427743900E2   9.867887283245328E-1   1.511919945693887E2   2.446340619328383E-2   9.830362994502968E1  
 1.600000000000000E9     2.827696453208476E-2   2.211163406555373E1   9.867131922941845E-1   1.445053953939118E2   9.866775297966082E-1   1.444880171338423E2   2.148740075236550E-2   9.981555624859733E1  
 1.650000000000000E9     2.622379164793908E-2   1.212354230987144E1   9.871437650751640E-1   1.377796951149366E2   9.868215682010642E-1   1.377728933675137E2   2.026186484164536E-2   1.032135560836715E2  
 1.700000000000000E9     2.437920879250357E-2  -4.190482473858992E-1   9.872757693113328E-1   1.310897602783531E2   9.870636243018638E-1   1.310944899320568E2   1.934308270699981E-2   1.104577791796027E2  
 1.750000000000000E9     2.379624795650396E-2  -1.765629145071780E1   9.877024832845475E-1   1.244351715939933E2   9.875259674079874E-1   1.243583604572371E2   1.966811167188804E-2   1.159827571028913E2  
 1.800000000000000E9     2.464633574228729E-2  -3.301793757184627E1   9.872233084158860E-1   1.177286636140286E2   9.876866570472100E-1   1.176812441548926E2   1.941216729243451E-2   1.186092728150308E2  
 1.850000000000000E9     2.699665940571520E-2  -4.743311355305215E1   9.876485774274072E-1   1.110311204242331E2   9.875780186119492E-1   1.109732205757931E2   2.012113003992011E-2   1.141639065995659E2  
 1.900000000000000E9     2.976910482907107E-2  -6.295027333766196E1   9.876986313946576E-1   1.043444775208434E2   9.877263186536179E-1   1.042921344874537E2   2.087212664814565E-2   1.177037304761357E2  
 1.950000000000000E9     3.354747512433944E-2  -7.491753701961143E1   9.876487387592920E-1   9.767160850127546E1   9.876875934311525E-1   9.762283909017720E1   2.153046757044211E-2   1.113635944673362E2  
 2.000000000000000E9     3.791826982135269E-2  -8.640611089076505E1   9.872606953896359E-1   9.098002673252847E1   9.877794117132872E-1   9.088760628877049E1   2.360612011172711E-2   1.045554966171779E2  
 2.050000000000000E9     4.316858596516029E-2  -9.445924330064918E1   9.877455783102703E-1   8.424344300572341E1   9.875768145480943E-1   8.422791869545021E1   2.418379520617662E-2   9.656543112988801E1  
 2.100000000000000E9     4.658526386243713E-2  -1.034550524817976E2   9.879033644039732E-1   7.759318867741604E1   9.873576380870199E-1   7.755985941434361E1   2.480348923435023E-2   9.271613350223615E1  
 2.150000000000000E9     5.103005145249377E-2  -1.112381011284641E2   9.877576381886567E-1   7.086037064263573E1   9.869903619786387E-1   7.083178325773464E1   2.612605612575319E-2   8.685653532872233E1  
 2.200000000000000E9     5.488068393072666E-2  -1.184047885453467E2   9.874879253991481E-1   6.419127200486099E1   9.876072103800532E-1   6.417923645812567E1   2.659992297385208E-2   8.013032913457801E1  
 2.250000000000000E9     5.688561527156744E-2  -1.248084061673382E2   9.870843255222199E-1   5.755414388083425E1   9.874449088794943E-1   5.741567855614134E1   2.765306162624129E-2   7.327102960853547E1  
 2.300000000000000E9     5.734698318923779E-2  -1.314763697266315E2   9.869739808735817E-1   5.081735008537467E1   9.863517652598393E-1   5.076842495842467E1   2.939061222330090E-2   6.993607061631940E1  
 2.350000000000000E9     5.776663987160248E-2  -1.378717281274582E2   9.861874848957889E-1   4.414867779565881E1   9.869937912628737E-1   4.405002916249686E1   3.131225124070339E-2   6.531693758600115E1  
 2.400000000000000E9     5.709461818545566E-2  -1.446109220353976E2   9.863462839375615E-1   3.739947587686250E1   9.857979000150083E-1   3.737892634820708E1   3.403255986579854E-2   6.266545326679573E1  
 2.450000000000000E9     5.652834596098455E-2  -1.510677597275446E2   9.855745391942749E-1   3.071717802869853E1   9.857478385875665E-1   3.065787204768355E1   3.504194047227513E-2   5.895908002099431E1  
 2.500000000000000E9     5.438100812084749E-2  -1.587068347345935E2   9.861572518435665E-1   2.401768750785350E1   9.864741847359321E-1   2.395065978659709E1   3.816813188869109E-2   5.648789228353028E1  
 2.550000000000000E9     5.129442504205672E-2  -1.664294141724598E2   9.856699563229147E-1   1.729633246730261E1   9.853154463048813E-1   1.725697074506120E1   3.923517324004684E-2   5.302589384604774E1  
 2.600000000000000E9     4.897282306684063E-2  -1.767180280220591E2   9.856308795724931E-1   1.057980156173142E1   9.845490604522806E-1   1.054982749161471E1   4.194064125466285E-2   5.081549257516429E1  
 2.650000000000000E9     4.616552284212624E-2   1.736560587955035E2   9.842432317525667E-1   3.878879684122901   9.848306195576366E-1   3.838540759435568   4.279261358212154E-2   4.727654143796496E1  
 2.700000000000000E9     4.393128502513195E-2   1.636203205314150E2   9.846695803169033E-1  -2.885843698826266   9.843252854018306E-1  -2.889012979487485   4.448284816715967E-2   4.244437828361397E1  
 2.750000000000000E9     4.252185720618363E-2   1.498832492460072E2   9.841663117391463E-1  -9.551948047979405   9.833695269729864E-1  -9.653738977766572   4.666889888406659E-2   3.818117191056050E1  
 2.800000000000000E9     4.139175584503466E-2   1.374502922713208E2   9.837669228907474E-1  -1.628882401161782E1   9.822674186632503E-1  -1.637331474170627E1   4.797393149805786E-2   3.191700357410719E1  
 2.850000000000000E9     4.214264195918472E-2   1.226740543932053E2   9.826895930773999E-1  -2.302896313303005E1   9.828911976329678E-1  -2.312753686825567E1   4.965397352298135E-2   2.573727349372597E1  
 2.900000000000000E9     4.482650477248032E-2   1.102711773956926E2   9.832315242837207E-1  -2.981622741976089E1   9.833821246469376E-1  -2.983503246708034E1   5.040934431745853E-2   1.967798049552083E1  
 2.950000000000000E9     4.503280078216511E-2   9.772213847250632E1   9.816632828110301E-1  -3.655097748047994E1   9.828861539360727E-1  -3.658692713234055E1   5.200840214941078E-2   1.223412759642088E1  
 3.000000000000000E9     4.622479677267842E-2   8.729289747480308E1   9.829404635261404E-1  -4.329253623634097E1   9.814067153604158E-1  -4.330533616604053E1   5.138976433826060E-2   6.720227951517345  
 3.050000000000000E9     4.720891102493121E-2   7.733863973396790E1   9.820449114696717E-1  -5.005061839876444E1   9.819614519267073E-1  -5.006441244570770E1   5.112377168105065E-2  -1.745513974636813  
 3.100000000000000E9     5.021600218541406E-2   6.767460027754213E1   9.820383219526392E-1  -5.674092375334018E1   9.818831078769965E-1  -5.679660014740249E1   5.079529159385677E-2  -8.594423741988447  
 3.150000000000000E9     5.055092611778581E-2   6.036433609398815E1   9.813878102814426E-1  -6.354072196914298E1   9.817988699531584E-1  -6.353498421456190E1   4.986158177596305E-2  -1.614334185960954E1  
 3.200000000000000E9     5.182109360708408E-2   5.335877832548931E1   9.808626044985752E-1  -7.023018734078806E1   9.827128761862721E-1  -7.024909295321297E1   4.851162547611890E-2  -2.396381689767051E1  
 3.250000000000000E9     5.188357163218051E-2   4.691984875356604E1   9.821379167954323E-1  -7.694448933778548E1   9.821533953525113E-1  -7.701570285244775E1   4.512723122839127E-2  -3.106420978836158E1  
 3.300000000000000E9     4.964675248662772E-2   4.133941063802600E1   9.828737466651802E-1  -8.361851573031825E1   9.824504611321908E-1  -8.370563058804569E1   4.290333369869343E-2  -4.134588226297798E1  
 3.350000000000000E9     4.899379583172074E-2   3.558445641074745E1   9.826170564048862E-1  -9.037791298947332E1   9.826793534768674E-1  -9.042463183626207E1   3.964482619272349E-2  -4.936352759686528E1  
 3.400000000000000E9     4.545980324296502E-2   3.183146614932545E1   9.830626677148961E-1  -9.706347986467209E1   9.817441188929932E-1  -9.716284954989929E1   3.565534210903416E-2  -5.999950928168714E1  
 3.450000000000000E9     4.209484227005342E-2   2.715613983469813E1   9.826482040559332E-1  -1.038326857986044E2   9.831994036501597E-1  -1.038798720776691E2   3.222783398716762E-2  -7.013263990305467E1  
 3.500000000000000E9     3.942605156395207E-2   2.314750385582790E1   9.837569159464109E-1  -1.105407676979210E2   9.846731539115859E-1  -1.106092145129852E2   2.750775184803976E-2  -8.568262017108407E1  
 3.550000000000000E9     3.333551458729703E-2   1.981905439443749E1   9.836854086863119E-1  -1.173072490721836E2   9.854893441549304E-1  -1.173856006665988E2   2.423071753663055E-2  -9.752343596204376E1  
 3.600000000000000E9     2.948594391689904E-2   1.911973287305114E1   9.839645697682148E-1  -1.240262426976412E2   9.846613634169161E-1  -1.241169738060967E2   1.986087711787945E-2  -1.144885922103366E2  
 3.650000000000000E9     2.655746856283647E-2   1.849468697618735E1   9.842361167847734E-1  -1.307418828757954E2   9.848529527657108E-1  -1.307996018594004E2   1.963427498271381E-2  -1.403724232890749E2  
 3.700000000000000E9     2.171075745458631E-2   1.963079524256452E1   9.843652290425841E-1  -1.374855952897253E2   9.851314309487494E-1  -1.375495610030657E2   1.940652063348022E-2  -1.582967709803532E2  
 3.750000000000000E9     1.651802137037804E-2   2.303782269615039E1   9.847176637085178E-1  -1.442316830275432E2   9.846599176415356E-1  -1.443144407070964E2   2.039184488506589E-2  -1.763275963031071E2  
 3.800000000000000E9     1.379294960765659E-2   4.459069517707539E1   9.843353121397810E-1  -1.509522027693968E2   9.845629571312201E-1  -1.510058855294232E2   2.010025685695701E-2   1.630936979225743E2  
 3.850000000000000E9     1.347855798189409E-2   7.020778678299307E1   9.835968312956364E-1  -1.576229817077644E2   9.841418839401028E-1  -1.577180721219727E2   2.237377133824214E-2   1.458201701763549E2  
 3.900000000000000E9     1.685531363165378E-2   8.887942809365735E1   9.844343996220759E-1  -1.644242320005357E2   9.835264867877863E-1  -1.644512542812407E2   2.524151803267818E-2   1.334088341604368E2  
 3.950000000000000E9     2.222008017971021E-2   9.912971404399303E1   9.832066477742975E-1  -1.711481155161138E2   9.835265837254836E-1  -1.711784105543580E2   2.764061499431503E-2   1.198649497773111E2  
 4.000000000000000E9     2.830414773323656E-2   1.022230470834021E2   9.837225623657195E-1  -1.778502224930710E2   9.837516275546504E-1  -1.778807670038194E2   3.138741656269490E-2   1.068997315781286E2  
 4.050000000000000E9     3.253156286882009E-2   1.010791498588432E2   9.829349126655192E-1   1.754653987885510E2   9.832175306548735E-1   1.754176876400629E2   3.385744707908348E-2   9.924035546302723E1  
 4.100000000000000E9     3.756114647627561E-2   9.980684389260001E1   9.819259357262762E-1   1.687445185743697E2   9.827606416759712E-1   1.686687538336429E2   3.578091815300141E-2   8.854564839607200E1  
 4.150000000000000E9     4.247043613614548E-2   9.594403340284035E1   9.812273334695293E-1   1.620137410745197E2   9.814384238064192E-1   1.619349312664743E2   3.915825718382374E-2   7.943454249533230E1  
 4.200000000000000E9     4.600664474631032E-2   9.182679645366152E1   9.810510471991767E-1   1.552902510352089E2   9.814971400613926E-1   1.552320668312351E2   4.231688908266291E-2   7.079253291607505E1  
 4.250000000000000E9     4.944496315449861E-2   8.600970253007037E1   9.810593092171251E-1   1.485625612811583E2   9.812501212208818E-1   1.485357440931059E2   4.687187603426076E-2   6.267227973133304E1  
 4.300000000000000E9     5.197194459697686E-2   7.964716775074642E1   9.804357664800179E-1   1.418515880935138E2   9.809956241563935E-1   1.418587987798681E2   5.085320186336427E-2   5.786980108859292E1  
 4.350000000000000E9     5.530489112812171E-2   7.312218459794426E1   9.800030935442819E-1   1.351774187496800E2   9.811675904248817E-1   1.350856148694082E2   5.524952585939130E-2   4.984337275061011E1  
 4.400000000000000E9     5.884974665479355E-2   6.566128113287473E1   9.801975059000260E-1   1.284703251785775E2   9.801904161588624E-1   1.284063611862968E2   5.838993959779233E-2   4.434907231803580E1  
 4.450000000000000E9     5.968277585476411E-2   5.915649796294492E1   9.800764436278012E-1   1.217705793068984E2   9.803170005326390E-1   1.217002046223946E2   6.105957031169906E-2   3.708620042457787E1  
 4.500000000000000E9     6.242245923179545E-2   5.153218069652669E1   9.799458243601531E-1   1.150926937633542E2   9.798918069155318E-1   1.150123750313834E2   6.455883484386557E-2   3.010680623134851E1  
 4.550000000000000E9     6.488223888852324E-2   4.426041476743980E1   9.795595948220571E-1   1.083180331833581E2   9.804008385749937E-1   1.083188814493723E2   6.715639493431327E-2   2.419617721171508E1  
 4.600000000000000E9     6.654793247847038E-2   3.648906853312980E1   9.797036862558066E-1   1.016785093504280E2   9.806617938355434E-1   1.016076683780581E2   6.795234965018587E-2   1.607895936565034E1  
 4.650000000000000E9     6.966575113113137E-2   2.766062957242138E1   9.802040403622745E-1   9.498435962995436E1   9.806545248776293E-1   9.491381034297176E1   7.016764291197920E-2   1.077710310765303E1  
 4.700000000000000E9     7.067619174396536E-2   1.968246148754565E1   9.812365584280712E-1   8.829801597744708E1   9.810042018851389E-1   8.822633648853717E1   6.925559504354828E-2   4.883370423716539  
 4.750000000000000E9     7.444232014428363E-2   1.132799754203024E1   9.810392589515093E-1   8.162743119002300E1   9.819042763139377E-1   8.154369848417956E1   6.901356663224456E-2  -1.410105849247135  
 4.800000000000000E9     7.608831795848225E-2   4.269031503489014   9.817465112881594E-1   7.493303255514555E1   9.814820293409236E-1   7.488075349732729E1   6.651221142377548E-2  -7.963754060787288  
