#  HZ   S   MA   R     50.00 
! Rohde & Schwarz ZVA67 4Ports - Version 4.11 - 1305.7002k04 SN: 101051
! Date: 2023-09-13 16:06:51
! Measurements: S11 S21 S12 S22 
! 
 6.705000000000000E10    1.021554480408010E-1  -3.551618515265701E1   3.629042510360567E-1  -2.972738578443883E1   3.640428529064908E-1  -2.477207259901226E1   4.595805151435498E-1   1.520437466581942E2  
 6.710000000000000E10    1.284592070640843E-1  -8.054698652886725E1   3.703137296362750E-1  -7.405092447248964E1   3.702139612878928E-1  -6.885687033382810E1   4.250474328219606E-1   1.429830381159659E2  
 6.715000000000000E10    8.991878965833511E-2  -1.058574216052848E2   3.720956629985212E-1  -1.189900422001065E2   3.734498044511826E-1  -1.136119677144631E2   3.977009324154362E-1   1.373520391124929E2  
 6.720000000000000E10    8.226096627827245E-2  -6.807744764124770E1   3.668944029735332E-1  -1.640156322350604E2   3.678507308192828E-1  -1.588107273950146E2   4.109208809011147E-1   1.346270301527092E2  
 6.725000000000000E10    1.861050002721013E-1  -7.658213505402767E1   3.500450098027079E-1   1.519391695214976E2   3.510833252454843E-1   1.569080516268127E2   4.683950701176248E-1   1.265927044766455E2  
 6.730000000000000E10    2.784830243101131E-1  -1.081559062444251E2   3.331530979952619E-1   1.100017993243686E2   3.333777622353616E-1   1.152279444033418E2   5.233007096638280E-1   1.123414734545134E2  
 6.735000000000000E10    3.209419640271743E-1  -1.423708918269819E2   3.239311575699483E-1   7.000242859282436E1   3.248291351814091E-1   7.530939949134452E1   5.476190535096149E-1   9.490791302720172E1  
 6.740000000000000E10    3.110415318695629E-1  -1.779208534904762E2   3.291697390622307E-1   3.024514629764924E1   3.289200416579261E-1   3.571859537889905E1   5.387060368046718E-1   7.686567863374789E1  
 6.745000000000000E10    2.443900931991537E-1   1.445801318520216E2   3.429381708449765E-1  -1.072082604810253E1   3.433529686316817E-1  -5.219439747722385   5.001679319204802E-1   5.952784098443640E1  
 6.750000000000000E10    1.336588628218805E-1   1.027779752373038E2   3.603725652525878E-1  -5.338635240997683E1   3.608415903634982E-1  -4.791174107505559E1   4.509446394362338E-1   4.509246589709669E1  
 6.755000000000000E10    2.104642843394420E-2   1.621122235939105E-1   3.715449442916794E-1  -9.735666608156826E1   3.727395246770917E-1  -9.200773879286159E1   4.110578453144065E-1   3.316104863756135E1  
 6.760000000000000E10    9.182080675534232E-2  -1.330077737236571E2   3.786950570817504E-1  -1.412085879771149E2   3.784643935993793E-1  -1.361403809702709E2   3.890863304447848E-1   2.115333019181518E1  
 6.765000000000000E10    1.262017808136602E-1  -1.699773091659889E2   3.817915604983386E-1   1.748729613178213E2   3.830243314500492E-1   1.799689766737741E2   3.579524010035761E-1   8.434728197680911  
 6.770000000000000E10    1.040284959398038E-1   1.682270009492571E2   3.857280721940047E-1   1.307348711831002E2   3.860882417754903E-1   1.355576053480396E2   3.204451370313423E-1  -5.808680924391406E-1  
 6.775000000000000E10    8.962189960006138E-2  -1.758859464004006E2   3.835892605926728E-1   8.602738338656472E1   3.842351980186202E-1   9.056000785388555E1   3.140656449146436E-1  -3.385310794652750  
 6.780000000000000E10    1.609531866325447E-1  -1.749573358825358E2   3.710638992299034E-1   4.145586486489479E1   3.713206866209582E-1   4.633612505591103E1   3.668508865771495E-1  -9.271121921763770  
 6.785000000000000E10    2.370016138219362E-1   1.579808336602278E2   3.533979514943209E-1  -1.263139207451586   3.550754813051331E-1   3.578632485762812   4.378151187567504E-1  -2.422872783870249E1  
 6.790000000000000E10    2.750206615894986E-1   1.237077594599762E2   3.412157153448863E-1  -4.230580648868099E1   3.421137677867404E-1  -3.727211621975874E1   4.871851652614122E-1  -4.359077375520403E1  
 6.795000000000000E10    2.711231612836185E-1   8.582808931523186E1   3.386987344097514E-1  -8.272363534048657E1   3.396440498099254E-1  -7.742161222403762E1   5.035778274097865E-1  -6.359220236641264E1  
 6.800000000000000E10    2.270447394988488E-1   4.280237701165072E1   3.462827718985362E-1  -1.230075605339650E2   3.464663213736993E-1  -1.180653018130358E2   4.915805442248866E-1  -8.225915984386570E1  
 6.805000000000000E10    1.618489879327821E-1  -9.821812398416123   3.576440989179696E-1  -1.649809753062483E2   3.579594951716895E-1  -1.597947732487077E2   4.633875182246876E-1  -9.862488413501043E1  
 6.810000000000000E10    1.047721704010806E-1  -8.027669657738879E1   3.677009150546189E-1   1.522376616404209E2   3.681407462358291E-1   1.573052200603147E2   4.317938259751294E-1  -1.118245485472235E2  
 6.815000000000000E10    8.533114926347264E-2  -1.634888478501987E2   3.752142013347841E-1   1.089728615826981E2   3.738350883018758E-1   1.138905589310340E2   4.112893204216142E-1  -1.234884263986005E2  
 6.820000000000000E10    7.639193536278539E-2   1.271245912971399E2   3.779415695208869E-1   6.529072859102141E1   3.790609855496771E-1   7.036260039237776E1   3.943245378409986E-1  -1.339066741829928E2  
 6.825000000000000E10    4.418169966893611E-2   6.548137591934159E1   3.811852982371207E-1   2.193435817597234E1   3.820670395953863E-1   2.673289646071421E1   3.752001732907099E-1  -1.423580304052615E2  
 6.830000000000000E10    1.115551794991547E-2  -1.276993362818726E2   3.804977644984448E-1  -2.230812278320169E1   3.816840600383214E-1  -1.728277707602468E1   3.728604803818585E-1  -1.473077593459706E2  
 6.835000000000000E10    6.608246992927550E-2   1.461250394489287E2   3.734641081118928E-1  -6.675063545264160E1   3.742818159302278E-1  -6.134964629979157E1   4.024926538454351E-1  -1.525553423963554E2  
 6.840000000000000E10    1.123443996999229E-1   8.572476133050766E1   3.601564533117163E-1  -1.101022442869916E2   3.607181609472906E-1  -1.045609572830918E2   4.565430156235151E-1  -1.615488321977803E2  
 6.845000000000000E10    1.517287322415686E-1   2.535157158906353E1   3.454783678387892E-1  -1.519739837378817E2   3.453191768903687E-1  -1.464428330744189E2   5.077025230439602E-1  -1.744163140748777E2  
 6.850000000000000E10    1.894041168065890E-1  -3.306536710839883E1   3.340501299015292E-1   1.673173700004129E2   3.349898609085082E-1   1.727780859601059E2   5.423423971792223E-1   1.709206538713254E2  
 6.855000000000000E10    2.258776297079818E-1  -8.551027927807766E1   3.296198151520734E-1   1.274291008607552E2   3.303029912266281E-1   1.326702042029804E2   5.555679205132279E-1   1.557209313735220E2  
 6.860000000000000E10    2.433244548981242E-1  -1.328882558511982E2   3.333867327041968E-1   8.752712026649256E1   3.339224502939610E-1   9.266565981235388E1   5.449256254218020E-1   1.409523266562825E2  
 6.865000000000000E10    2.253538225533156E-1  -1.773735169594474E2   3.436383112991187E-1   4.699937726421756E1   3.444557994833205E-1   5.200599078502162E1   5.155866352469740E-1   1.274174838300611E2  
 6.870000000000000E10    1.589584726223880E-1   1.414055985024497E2   3.566902966430026E-1   4.978388793906027   3.580158411277902E-1   9.967825726264664   4.726252081007685E-1   1.164362783901411E2  
 6.875000000000000E10    5.932701540608514E-2   1.130205752510710E2   3.680706048337668E-1  -3.809604779476703E1   3.680707991988376E-1  -3.336282956628298E1   4.385496260994476E-1   1.089036703582745E2  
 6.880000000000000E10    5.643284640796257E-2  -1.589189791801895E2   3.726538173955094E-1  -8.166984629801981E1   3.733680877549366E-1  -7.671726880933544E1   4.231237879057327E-1   1.028682721741637E2  
 6.885000000000000E10    1.195248182548629E-1   1.737083022797046E2   3.728038686789576E-1  -1.252396226745221E2   3.736170292029379E-1  -1.199079419134215E2   4.244851071617626E-1   9.626778354677387E1  
 6.890000000000000E10    1.186589342549658E-1   1.352369889116438E2   3.722320242678709E-1  -1.686544023516826E2   3.723890234709007E-1  -1.631386271772992E2   4.257381366859530E-1   8.922188009522182E1  
 6.895000000000000E10    4.811001566484038E-2   9.501157607413651E1   3.674544246309665E-1   1.477072662772261E2   3.680949500360952E-1   1.532909279436941E2   4.383981914795826E-1   8.264116914998053E1  
 6.900000000000000E10    6.761224754787892E-2  -1.278401969168686E2   3.563353060538222E-1   1.044962283363704E2   3.559393087176405E-1   1.101586620097124E2   4.750539866462425E-1   7.488247726236484E1  
 6.905000000000000E10    1.855547833387763E-1  -1.661990727454688E2   3.409730185611533E-1   6.298797221471541E1   3.410437789155839E-1   6.841252475143244E1   5.204040039148000E-1   6.320021628489453E1  
 6.910000000000000E10    2.702524284483056E-1   1.573651503744924E2   3.292011520621239E-1   2.308188484671986E1   3.294113043135973E-1   2.847598669963890E1   5.492397373106758E-1   4.820380237656653E1  
 6.915000000000000E10    3.043725038047843E-1   1.223391015341256E2   3.270036005432125E-1  -1.604550093101392E1   3.281927426219793E-1  -1.049336657865310E1   5.496055532845913E-1   3.180839422226429E1  
 6.920000000000000E10    2.825332041231353E-1   8.794127608635522E1   3.378993943630705E-1  -5.550037414851923E1   3.380974074441193E-1  -5.010660024424406E1   5.169464861981159E-1   1.574031114290061E1  
 6.925000000000000E10    2.033739610298659E-1   5.559651276658212E1   3.551664212635737E-1  -9.653227028022180E1   3.549292619661739E-1  -9.121707247534286E1   4.653545625326907E-1   2.135359731019201  
 6.930000000000000E10    9.189666266660658E-2   3.867270679627813E1   3.693220080300904E-1  -1.394036354556540E2   3.696441193289993E-1  -1.339279296028548E2   4.152795097689487E-1  -7.195623171957525  
 6.935000000000000E10    7.450589579877691E-2   9.714856994695907E1   3.750157574485197E-1   1.769547898720069E2   3.762760305259988E-1  -1.772356114917326E2   3.948864857165433E-1  -1.399698629009880E1  
 6.940000000000000E10    1.441492391782754E-1   8.559213849340355E1   3.779363809434972E-1   1.338324750619116E2   3.783844357163155E-1   1.396717352282583E2   3.908886027052861E-1  -2.308652594196883E1  
 6.945000000000000E10    1.604688381949829E-1   5.660964071142154E1   3.804226969823177E-1   9.119569946307831E1   3.798918556349958E-1   9.688595069828178E1   3.760444721242661E-1  -3.307633764743039E1  
 6.950000000000000E10    1.148243666469302E-1   3.321831686994923E1   3.814482346392606E-1   4.789830612770356E1   3.822533500014531E-1   5.341063283320667E1   3.581059017714233E-1  -3.985140612193335E1  
 6.955000000000000E10    6.775137590904060E-2   6.047262806238327E1   3.766790412729326E-1   4.219346290382809   3.771677637155866E-1   9.581436012736862   3.719762607447896E-1  -4.352624525585279E1  
 6.960000000000000E10    1.479257351461550E-1   7.370368077139352E1   3.626836290408245E-1  -3.872918894125015E1   3.637312868631236E-1  -3.353535773784581E1   4.278313866627390E-1  -5.163841170420816E1  
 6.965000000000000E10    2.370458210683304E-1   4.636623998023129E1   3.465072438071845E-1  -7.975364855991816E1   3.473451286475449E-1  -7.487951770546054E1   4.853481859384662E-1  -6.598543701308607E1  
 6.970000000000000E10    2.854617177860397E-1   1.355998009271568E1   3.383564400629425E-1  -1.194687777503810E2   3.383459140958480E-1  -1.144778150349061E2   5.155821638457286E-1  -8.327612837934682E1  
 6.975000000000000E10    2.868519254460603E-1  -2.120030666408849E1   3.380185173773696E-1  -1.586565428752632E2   3.391501076484779E-1  -1.536276971675430E2   5.137520928992105E-1  -1.009908850515939E2  
 6.980000000000000E10    2.415487168901965E-1  -5.709213762151656E1   3.498230921672366E-1   1.612032411559704E2   3.491890594250257E-1   1.664700296500106E2   4.822409428051605E-1  -1.173623952626526E2  
 6.985000000000000E10    1.525623620338550E-1  -9.192064192671963E1   3.632244112460543E-1   1.196126326699505E2   3.633142859088279E-1   1.252728646320806E2   4.365218355443717E-1  -1.306395341492021E2  
 6.990000000000000E10    4.430514591851113E-2  -1.063976658949252E2   3.729121932763602E-1   7.696732686705799E1   3.740882751378153E-1   8.284116896026056E1   3.991726811579867E-1  -1.401577288103826E2  
 6.995000000000000E10    7.402031982090308E-2  -1.983189972768278E1   3.784022567213525E-1   3.393196422199274E1   3.787598331010913E-1   3.994624056910281E1   3.806507738964524E-1  -1.487138274026989E2  
 7.000000000000000E10    1.390803725162531E-1  -4.710878827992801E1   3.814482742653447E-1  -8.551546416560241   3.817226328828221E-1  -2.771148680632964   3.656467251393274E-1  -1.582759036014114E2  
 7.005000000000000E10    1.488750009138463E-1  -7.671923845700489E1   3.834770971380195E-1  -5.100794732893034E1   3.842424588371500E-1  -4.552977683599635E1   3.380320467068093E-1  -1.667292048006693E2  
 7.010000000000000E10    1.144431301607995E-1  -9.303473427043168E1   3.843835343905520E-1  -9.425171902147801E1   3.848136186040814E-1  -8.880498136739398E1   3.167771976791924E-1  -1.696640209128941E2  
 7.015000000000000E10    1.121887968061132E-1  -7.510854608349948E1   3.773556800651832E-1  -1.377996103819121E2   3.781325243711244E-1  -1.323551092361930E2   3.430772458751614E-1  -1.701101887507870E2  
 7.020000000000000E10    1.949729812629409E-1  -7.979144634571316E1   3.623912145962930E-1   1.796272209217826E2   3.621706886167999E-1  -1.748432955059530E2   4.124575956033258E-1  -1.778575578262829E2  
 7.025000000000000E10    2.772213969761134E-1  -1.059627634620683E2   3.453451897615406E-1   1.389263220305751E2   3.456817557587268E-1   1.443919078340787E2   4.754085251854339E-1   1.670185074688976E2  
 7.030000000000000E10    3.224568957573853E-1  -1.363725614859027E2   3.364863665215551E-1   9.982079414165570E1   3.367311683463618E-1   1.053412176870295E2   5.057119162605369E-1   1.491658849012758E2  
 7.035000000000000E10    3.200804363886718E-1  -1.670526164024928E2   3.396271054191183E-1   6.078962088976997E1   3.398192103974711E-1   6.690461147432740E1   4.981006542071847E-1   1.311528512226743E2  
 7.040000000000000E10    2.644749420073218E-1   1.630612880874170E2   3.522784495154145E-1   2.108735756413857E1   3.527673947715916E-1   2.735912392344422E1   4.545155020671846E-1   1.145198142805559E2  
 7.045000000000000E10    1.656414154345581E-1   1.393482335612038E2   3.682988658599376E-1  -2.043223500229921E1   3.689340721822449E-1  -1.412163578553215E1   3.957501931973205E-1   1.024565577653195E2  
 7.050000000000000E10    8.076354322123180E-2   1.557823643317808E2   3.791987239950948E-1  -6.311582500991455E1   3.800940931348009E-1  -5.703589471861733E1   3.546495097403721E-1   9.561077629930563E1  
 7.055000000000000E10    1.269746061167092E-1  -1.764352876061021E2   3.832424452951713E-1  -1.058582732571668E2   3.838024764781046E-1  -1.000681059994889E2   3.415232460618566E-1   8.885691570863405E1  
 7.060000000000000E10    1.766698095858718E-1   1.671246534535292E2   3.846487842575549E-1  -1.483745275859372E2   3.852329502995429E-1  -1.426038013749244E2   3.286482860606402E-1   7.921716765185938E1  
 7.065000000000000E10    1.739953229456294E-1   1.497151651746684E2   3.854067861795252E-1   1.690376423923352E2   3.863113748020129E-1   1.748400256879388E2   2.949619167434205E-1   7.173073357560671E1  
 7.070000000000000E10    1.518754041375245E-1   1.489822960917354E2   3.848226984007330E-1   1.257978630418737E2   3.851201235055519E-1   1.315830753995043E2   2.749990708571019E-1   7.280996637767763E1  
 7.075000000000000E10    1.952857035320518E-1   1.546096754176207E2   3.742712912538020E-1   8.291409435293213E1   3.740326474388445E-1   8.840314208987907E1   3.231804356311845E-1   7.356866244570126E1  
 7.080000000000000E10    2.790815413457284E-1   1.402096732395299E2   3.576203764959344E-1   4.122675387279695E1   3.570446913911328E-1   4.693083124110851E1   4.033421721859293E-1   6.218687780988915E1  
 7.085000000000000E10    3.386922406828001E-1   1.160706054911295E2   3.423272738335559E-1   1.356526204930086   3.433074298991909E-1   7.530272048535014   4.579259493437304E-1   4.408532838070661E1  
 7.090000000000000E10    3.573565471139338E-1   8.935833046557599E1   3.395948705311231E-1  -3.738544786801458E1   3.399931165266483E-1  -3.084227237662013E1   4.719292888968122E-1   2.347997513652217E1  
 7.095000000000000E10    3.277196310556807E-1   6.202421979898141E1   3.479908458865110E-1  -7.621426927256444E1   3.487132069111904E-1  -6.961500738626123E1   4.427119421193376E-1   3.352748523469197  
 7.100000000000000E10    2.540220241594353E-1   3.682315725022223E1   3.640074902920849E-1  -1.163495496438209E2   3.645748649521980E-1  -1.100175780770475E2   3.805468081950884E-1  -1.416547342830474E1  
 7.105000000000000E10    1.559319425302355E-1   2.217853650975211E1   3.807933240053311E-1  -1.582983016893311E2   3.810812660087212E-1  -1.521312469706414E2   3.154004332525670E-1  -2.475777109324735E1  
 7.110000000000000E10    1.044066016746667E-1   3.886680137321101E1   3.897458106454544E-1   1.588789462117261E2   3.901041162158463E-1   1.648401744895575E2   2.831855851476343E-1  -2.928450689833457E1  
 7.115000000000000E10    1.353812391350972E-1   4.774006517146538E1   3.910493125858388E-1   1.160158529306455E2   3.921131853097302E-1   1.219986807684894E2   2.814801507841470E-1  -3.664481615078249E1  
 7.120000000000000E10    1.530498917482787E-1   3.433167609873846E1   3.931304788603623E-1   7.361644435062183E1   3.934757204054812E-1   7.951328933916545E1   2.724520020211498E-1  -4.689605857096329E1  
 7.125000000000000E10    1.369545896922720E-1   2.411159200522396E1   3.929995191145881E-1   3.107032399400827E1   3.928570736762442E-1   3.671875628591037E1   2.483702865719566E-1  -5.338856015618534E1  
 7.130000000000000E10    1.331873310396104E-1   3.279056437169287E1   3.881302547945877E-1  -1.187108210750901E1   3.891510541480431E-1  -6.255309090216145   2.529096472537251E-1  -5.263046540727695E1  
 7.135000000000000E10    1.987474515659605E-1   3.190406439866278E1   3.762684557902304E-1  -5.448590001718893E1   3.767847497791213E-1  -4.859790354367886E1   3.121515628425576E-1  -5.687362349929003E1  
 7.140000000000000E10    2.759954589881772E-1   1.181331888447600E1   3.604416179758045E-1  -9.571028296519495E1   3.612586806452564E-1  -8.959233232054257E1   3.866053900395370E-1  -7.166625406432509E1  
 7.145000000000000E10    3.287595495459096E-1  -1.451983349260802E1   3.488815544130404E-1  -1.352988730765403E2   3.497487934788353E-1  -1.290959772590508E2   4.343892342100179E-1  -9.146325433386069E1  
 7.150000000000000E10    3.419368697459873E-1  -4.243979448724115E1   3.477960893535355E-1  -1.740125915270060E2   3.475012759470313E-1  -1.678588386574924E2   4.420257823089274E-1  -1.123911135966658E2  
 7.155000000000000E10    3.122259369475134E-1  -6.983820201591166E1   3.563573299326133E-1   1.470415453462545E2   3.560439678119671E-1   1.529401425272522E2   4.080553666289997E-1  -1.319263030295089E2  
 7.160000000000000E10    2.449279923396485E-1  -9.394211562321146E1   3.706966074393087E-1   1.065834308097539E2   3.704820235445022E-1   1.123757122746915E2   3.443053087930060E-1  -1.471717766760150E2  
 7.165000000000000E10    1.691069648790496E-1  -1.055969749456384E2   3.827525685778672E-1   6.441687860324585E1   3.831127611799629E-1   7.020820381557539E1   2.828937745990168E-1  -1.530819511045023E2  
 7.170000000000000E10    1.443889583140666E-1  -9.889360457386907E1   3.888594419875515E-1   2.180908869952038E1   3.888553285788250E-1   2.750185824781350E1   2.728726937564734E-1  -1.520131110288733E2  
 7.175000000000000E10    1.673662904803237E-1  -1.035749263004608E2   3.886412715255150E-1  -2.052055419820952E1   3.891321260108809E-1  -1.498334717664613E1   2.994503977274516E-1  -1.570198750450905E2  
 7.180000000000000E10    1.670856393402605E-1  -1.205337833499094E2   3.872763050837221E-1  -6.262529737649870E1   3.879454850340667E-1  -5.689428755324484E1   3.144543474728578E-1  -1.668772187898514E2  
