#  HZ   S   MA   R     50.00 
! Rohde & Schwarz ZVA67 4Ports - Version 4.11 - 1305.7002k04 SN: 101051
! Date: 2023-09-13 16:12:00
! Measurements: S11 S21 S12 S22 
! 
 6.705000000000000E10    1.311862014292877E-1  -1.342714633371676E2   3.514568360913477E-1   8.059753461349082E1   3.519150569673063E-1   8.650541117470065E1   4.836577760668641E-1   1.572734170710711E2  
 6.710000000000000E10    2.645173883610215E-2   1.787278802062519E2   3.532179527336595E-1   3.652480386877239E1   3.531233476144133E-1   4.266980313011826E1   4.726961555630054E-1   1.483659163719447E2  
 6.715000000000000E10    9.853832266701976E-2  -3.406922802794288E1   3.473915928822560E-1  -7.342465179742650   3.485955013835769E-1  -1.117579028119337   4.846955249382437E-1   1.389232897951544E2  
 6.720000000000000E10    2.006736475071776E-1  -7.441463268665474E1   3.419401137182803E-1  -4.984271822106985E1   3.416603225368658E-1  -4.379160626126588E1   5.038447719035526E-1   1.269195076940250E2  
 6.725000000000000E10    2.497258532564285E-1  -1.122349541709862E2   3.390306769123275E-1  -9.137796449985640E1   3.393927136930691E-1  -8.548668618677779E1   5.058402424760026E-1   1.123253397204415E2  
 6.730000000000000E10    2.400038855348531E-1  -1.473903397417583E2   3.456341047977632E-1  -1.332084758185870E2   3.457084628883518E-1  -1.270532713054214E2   4.795228934320410E-1   9.781331713559906E1  
 6.735000000000000E10    1.684922312790408E-1  -1.775891593318526E2   3.558110730113973E-1  -1.761713530302632E2   3.561503011099345E-1  -1.698357481351497E2   4.359768737484081E-1   8.589623897046833E1  
 6.740000000000000E10    8.215038402642626E-2  -1.766438136906062E2   3.634255786849499E-1   1.398127960924273E2   3.635562015343662E-1   1.461450115272888E2   4.105442760269425E-1   7.809127342810525E1  
 6.745000000000000E10    1.126247621753583E-1  -1.418255465927804E2   3.621744975950298E-1   9.557264736165530E1   3.626799462879372E-1   1.020698267818389E2   4.195098938731383E-1   6.955110083669906E1  
 6.750000000000000E10    1.784889810473828E-1  -1.623172695388363E2   3.587273801029761E-1   5.253074284898402E1   3.594042181581167E-1   5.901233972960716E1   4.390637073535075E-1   5.679762697261712E1  
 6.755000000000000E10    1.884137215319899E-1   1.653698814292056E2   3.584889762137770E-1   1.013022293506294E1   3.597498348706413E-1   1.639833838550228E1   4.370761080376679E-1   4.134534506552275E1  
 6.760000000000000E10    1.387572784902548E-1   1.305048715787083E2   3.648334506023305E-1  -3.266225297488115E1   3.654429084946315E-1  -2.656990119497175E1   4.174630579633444E-1   2.675099149167633E1  
 6.765000000000000E10    3.805805659563555E-2   9.720114214885716E1   3.684722086141870E-1  -7.635274316259016E1   3.693297897063523E-1  -7.046401645560597E1   3.955539264527703E-1   1.520728711470228E1  
 6.770000000000000E10    7.984908645688936E-2  -1.301862073454606E2   3.657492737684996E-1  -1.200827057708832E2   3.666058137647445E-1  -1.146233357881599E2   4.016147251278305E-1   4.806698100008179  
 6.775000000000000E10    1.732495410202903E-1  -1.668924054776232E2   3.584222810401345E-1  -1.632087161318491E2   3.602266545778072E-1  -1.579684070715741E2   4.258818427946118E-1  -9.198311848760071  
 6.780000000000000E10    2.173693094790450E-1   1.570925939948406E2   3.544630884300752E-1   1.545828989899636E2   3.553418051711872E-1   1.601226950679483E2   4.365275466188654E-1  -2.624192574163418E1  
 6.785000000000000E10    2.081148233488821E-1   1.217717387433328E2   3.581817510746875E-1   1.126167493570653E2   3.586988809503998E-1   1.183976777815753E2   4.223551450863822E-1  -4.349206232384697E1  
 6.790000000000000E10    1.506408545094686E-1   8.839126718751604E1   3.652892919231057E-1   6.995744703265038E1   3.659750379461948E-1   7.586089990825451E1   3.914427458465997E-1  -5.773990040430022E1  
 6.795000000000000E10    6.539886970888145E-2   7.200195208051198E1   3.708352997561737E-1   2.621402910991074E1   3.712029899291167E-1   3.214315895090891E1   3.702989315969068E-1  -6.722756719673802E1  
 6.800000000000000E10    6.142180055657640E-2   1.291916158090682E2   3.686063912827542E-1  -1.764663034459560E1   3.704691541982613E-1  -1.182085401802132E1   3.831509256613398E-1  -7.522669013566384E1  
 6.805000000000000E10    1.197238425559364E-1   1.071845273720056E2   3.636539982755991E-1  -6.081890183792837E1   3.638784047773870E-1  -5.514652659510195E1   4.163139826457603E-1  -8.720816136648416E1  
 6.810000000000000E10    1.412468545737286E-1   6.517819965091216E1   3.597031910377440E-1  -1.031736814358148E2   3.604202340352093E-1  -9.749742201364536E1   4.365382819579603E-1  -1.015970731107877E2  
 6.815000000000000E10    1.275784983194603E-1   1.278836872130748E1   3.600486395137307E-1  -1.455863534406546E2   3.602270206746324E-1  -1.397929625273903E2   4.409636493809997E-1  -1.161089919907331E2  
 6.820000000000000E10    1.006037183431305E-1  -5.553989641750437E1   3.616291495289997E-1   1.718177362654306E2   3.625885240311687E-1   1.774329663680770E2   4.360267280910156E-1  -1.285278584274833E2  
 6.825000000000000E10    9.301905211735560E-2  -1.372797630046601E2   3.619864207627014E-1   1.287392212020443E2   3.627851938519216E-1   1.342920891625559E2   4.363120850428411E-1  -1.393209228882560E2  
 6.830000000000000E10    1.029135098353593E-1   1.461448779793500E2   3.591087164798442E-1   8.558381673257506E1   3.603983750775082E-1   9.142191556915529E1   4.484149138081981E-1  -1.496800490103825E2  
 6.835000000000000E10    1.067588995269890E-1   7.694539607163634E1   3.558091408475054E-1   4.293498693610147E1   3.562516859672715E-1   4.908439082402702E1   4.608688276473515E-1  -1.613199174643614E2  
 6.840000000000000E10    1.056320811208503E-1   6.366608777908769   3.535190730148167E-1   5.337443635901772E-1   3.541268436782242E-1   7.007970175923686   4.681199535765308E-1  -1.731036716732893E2  
 6.845000000000000E10    1.067583351462011E-1  -6.262597017175626E1   3.535367338497653E-1  -4.173625985962892E1   3.546272391187406E-1  -3.530259752848686E1   4.666885820276700E-1   1.753347099632898E2  
 6.850000000000000E10    1.022174381841043E-1  -1.261902484904095E2   3.545171011229538E-1  -8.420296436712593E1   3.554575661561233E-1  -7.784073167009231E1   4.618449702622581E-1   1.652269956224579E2  
 6.855000000000000E10    6.966320526088804E-2   1.725077845423317E2   3.543411536102571E-1  -1.267520649430855E2   3.550706760698879E-1  -1.209497779680722E2   4.632537583883844E-1   1.561147919547931E2  
 6.860000000000000E10    2.241464247093151E-2   4.803374905436299E1   3.513023976568616E-1  -1.693952835529382E2   3.518380080657869E-1  -1.637352800498316E2   4.739944107325270E-1   1.470656065705524E2  
 6.865000000000000E10    8.991398068143089E-2  -7.092632424266638E1   3.462514512179697E-1   1.483149266461241E2   3.473669935858696E-1   1.540096036629610E2   4.921085041801264E-1   1.367810250039928E2  
 6.870000000000000E10    1.671974488045175E-1  -1.203180620622748E2   3.428456697958385E-1   1.068097946092893E2   3.435017495574170E-1   1.124061592386620E2   5.040165947603841E-1   1.250209371489920E2  
 6.875000000000000E10    2.102938856741728E-1  -1.633500275595184E2   3.441485499142384E-1   6.567694598840394E1   3.441815109916373E-1   7.100953844396645E1   5.008243944349552E-1   1.127141240702329E2  
 6.880000000000000E10    1.998706544937281E-1   1.559884628902744E2   3.488123846184386E-1   2.397482188295122E1   3.504130833086984E-1   2.950759577192606E1   4.784457131322596E-1   1.012652018175479E2  
 6.885000000000000E10    1.306969204029570E-1   1.185664876222051E2   3.579226885020593E-1  -1.899220956003852E1   3.575579489456484E-1  -1.293197139291919E1   4.531472298235720E-1   9.257842275997216E1  
 6.890000000000000E10    2.694330122404539E-2   1.206163189219710E2   3.589571722953893E-1  -6.245752127862918E1   3.595328154616562E-1  -5.620495489046765E1   4.449888749215079E-1   8.617294667981882E1  
 6.895000000000000E10    1.017450743897018E-1  -1.650421075988864E2   3.553240103770320E-1  -1.055219651156390E2   3.559724586875410E-1  -9.923367303450858E1   4.613476741486104E-1   7.814716084803949E1  
 6.900000000000000E10    1.760994926387379E-1   1.621434379957674E2   3.499780369357470E-1  -1.476718853843302E2   3.505285908100411E-1  -1.412831600898543E2   4.795418434149628E-1   6.732264829612603E1  
 6.905000000000000E10    1.914619336359901E-1   1.271959648702443E2   3.484639072289983E-1   1.709147502145564E2   3.499522186915555E-1   1.769457345302022E2   4.801321904281937E-1   5.513423693651289E1  
 6.910000000000000E10    1.404582503553700E-1   9.490792154774421E1   3.521271709110611E-1   1.290900866240639E2   3.525619914405991E-1   1.350013048098546E2   4.653438210348867E-1   4.410880827254484E1  
 6.915000000000000E10    5.004103372913685E-2   9.730645828342507E1   3.526479071764169E-1   8.621095930801099E1   3.534489943709341E-1   9.239112390967246E1   4.571654839264810E-1   3.519396067187759E1  
 6.920000000000000E10    1.067548016398312E-1   1.579996688484314E2   3.485334119325753E-1   4.371918265528485E1   3.492018447164410E-1   4.967582549336792E1   4.690254950969369E-1   2.539618987065282E1  
 6.925000000000000E10    2.047766715776786E-1   1.327740969448556E2   3.419266979169491E-1   2.307739886861014   3.431985154438497E-1   8.290585575847935   4.882046513631116E-1   1.273080549161502E1  
 6.930000000000000E10    2.563532466951398E-1   1.006911908530590E2   3.413507491415935E-1  -3.847936917437972E1   3.426961329529643E-1  -3.215565387002770E1   4.859353371294647E-1  -2.331274883172757  
 6.935000000000000E10    2.501464381457468E-1   6.843147914012094E1   3.493522351692380E-1  -7.936139310142391E1   3.506686158301349E-1  -7.282302438086293E1   4.530763675613330E-1  -1.705660818264677E1  
 6.940000000000000E10    1.839783418067239E-1   3.917771929532449E1   3.613886519985904E-1  -1.217795511723955E2   3.629319606700800E-1  -1.149176504387921E2   4.024992358323752E-1  -2.839882263201544E1  
 6.945000000000000E10    9.613413069370615E-2   3.333009702582688E1   3.708670971672172E-1  -1.651113775690769E2   3.707636358800407E-1  -1.585763595235904E2   3.687856739051233E-1  -3.368227895415250E1  
 6.950000000000000E10    1.089439399585576E-1   6.807729011490650E1   3.686611340393584E-1   1.513509806001139E2   3.693654020625533E-1   1.576777398125189E2   3.844062137973466E-1  -3.833637474175630E1  
 6.955000000000000E10    1.769737085200145E-1   5.246008878294276E1   3.618343486442029E-1   1.088974140470370E2   3.629654731431133E-1   1.147799718909023E2   4.196695966573766E-1  -4.842955708365360E1  
 6.960000000000000E10    2.028959331327461E-1   2.209936166827004E1   3.573703737151932E-1   6.736207130410595E1   3.589770400693200E-1   7.302001236565282E1   4.383751229055811E-1  -6.212359076767513E1  
 6.965000000000000E10    1.736704866225963E-1  -1.055952858454686E1   3.593166494380601E-1   2.589048704060208E1   3.602072738429945E-1   3.124331483489157E1   4.323602699824092E-1  -7.549065114515238E1  
 6.970000000000000E10    9.444049627209158E-2  -3.627604554183248E1   3.616219237754389E-1  -1.646110420057636E1   3.617160618706612E-1  -1.107183394358781E1   4.215920149907532E-1  -8.626599108436398E1  
 6.975000000000000E10    4.689864961612082E-2   2.313680673914731E1   3.587840462334277E-1  -5.912319155312407E1   3.598742831096090E-1  -5.364719202175463E1   4.282697751032475E-1  -9.580059357046653E1  
 6.980000000000000E10    1.369748233858047E-1   2.487509485579535E1   3.531165566680156E-1  -1.013663860129072E2   3.537938321120049E-1  -9.552911625343131E1   4.507480846417424E-1  -1.071538371349908E2  
 6.985000000000000E10    2.100310733665809E-1  -6.643824254476007   3.487404516990058E-1  -1.425272309669106E2   3.487669558170649E-1  -1.362525687156977E2   4.652692973829902E-1  -1.215041143540219E2  
 6.990000000000000E10    2.364239470710937E-1  -4.060875436964883E1   3.497379542109483E-1   1.768520824105346E2   3.510207540856549E-1  -1.765531437485456E2   4.540611404417177E-1  -1.371046215314330E2  
 6.995000000000000E10    2.136467208070108E-1  -7.368041200484974E1   3.589321309405100E-1   1.356124566732235E2   3.597147513397049E-1   1.424169859912421E2   4.150940836918280E-1  -1.511971635904212E2  
 7.000000000000000E10    1.461836920429070E-1  -9.936781351834836E1   3.693543930054489E-1   9.343290916771431E1   3.704044189212947E-1   9.992923776238420E1   3.661890750019520E-1  -1.602440334310845E2  
 7.005000000000000E10    8.450252503641015E-2  -8.750161031590734E1   3.738165372563743E-1   5.024877787487827E1   3.746220358668903E-1   5.641989441414644E1   3.462640279787176E-1  -1.634744447976216E2  
 7.010000000000000E10    1.353574506163018E-1  -7.127637581065723E1   3.707206021918386E-1   7.057306773345014   3.711887002316874E-1   1.329458311950350E1   3.718774787007732E-1  -1.684631558503220E2  
 7.015000000000000E10    2.002662695871890E-1  -9.315231580343243E1   3.646103863267877E-1  -3.492132134241875E1   3.647690151150735E-1  -2.876720025607376E1   4.039579612163919E-1  -1.792861729617249E2  
 7.020000000000000E10    2.184121807422633E-1  -1.221208204806652E2   3.621493591567786E-1  -7.631946332447987E1   3.624081847648759E-1  -7.011028074407597E1   4.125813252315640E-1   1.672281567120997E2  
 7.025000000000000E10    1.839947233906172E-1  -1.493186916054992E2   3.641750671719116E-1  -1.178062336196327E2   3.649698363151899E-1  -1.117156069331136E2   3.978308177015180E-1   1.551200202336217E2  
 7.030000000000000E10    1.162369776400566E-1  -1.591381869461696E2   3.671429870627487E-1  -1.602224421870808E2   3.662657713185015E-1  -1.539230033957907E2   3.821052748066307E-1   1.469322035232698E2  
 7.035000000000000E10    1.159596790498339E-1  -1.309647973039153E2   3.635851365793846E-1   1.568340054161041E2   3.632457759093244E-1   1.637367659053863E2   3.963877645877539E-1   1.401362383571370E2  
 7.040000000000000E10    1.980919886208669E-1  -1.374659018819957E2   3.550817946546005E-1   1.149874997168290E2   3.557911001449927E-1   1.221611222846664E2   4.284041227520368E-1   1.291802581190229E2  
 7.045000000000000E10    2.603181044394173E-1  -1.623018791981102E2   3.500855259999848E-1   7.454972596930057E1   3.508078850272340E-1   8.163511723646360E1   4.474347930906424E-1   1.143374899325877E2  
 7.050000000000000E10    2.712697015608879E-1   1.700792493056400E2   3.528733474704369E-1   3.462928794977012E1   3.535455453097605E-1   4.127442800617245E1   4.321383044453816E-1   9.818774882147763E1  
 7.055000000000000E10    2.272103328622335E-1   1.453327636553269E2   3.633866299522751E-1  -6.301048758676601   3.637214895619678E-1   1.136002612843506E-1   3.822994597641481E-1   8.434248175647269E1  
 7.060000000000000E10    1.512518559610760E-1   1.344766541731142E2   3.746677687281287E-1  -4.866877354390168E1   3.738376783156789E-1  -4.242186841785853E1   3.291569103146239E-1   7.737660501174234E1  
 7.065000000000000E10    1.356533255023703E-1   1.539521371638692E2   3.754408776681182E-1  -9.181358732550639E1   3.754665533299541E-1  -8.553008193743274E1   3.205885402847485E-1   7.612617146843022E1  
 7.070000000000000E10    1.998431425842662E-1   1.520190103351573E2   3.712639536417253E-1  -1.343505707059095E2   3.711572536148800E-1  -1.281113525734696E2   3.518201482314851E-1   6.913548620609446E1  
 7.075000000000000E10    2.444198306678499E-1   1.317170986497747E2   3.662987556628439E-1  -1.756620358789579E2   3.670829465705756E-1  -1.696306752933628E2   3.706510736308265E-1   5.596098681356426E1  
 7.080000000000000E10    2.377107898519530E-1   1.095113632479345E2   3.682104165907996E-1   1.428875755598741E2   3.681216007512841E-1   1.491874541021829E2   3.550300956198937E-1   4.173358746811665E1  
 7.085000000000000E10    1.915171883608427E-1   9.488431066778912E1   3.723720848574857E-1   1.007250967150687E2   3.719648524725170E-1   1.075260618826911E2   3.184752801243965E-1   3.261067586355678E1  
 7.090000000000000E10    1.662686111966563E-1   9.899595900385256E1   3.716141664547438E-1   5.781117379867752E1   3.718865906625717E-1   6.509704130766538E1   3.103381122746710E-1   2.944547703096744E1  
 7.095000000000000E10    2.105796805389046E-1   9.945436040230281E1   3.642961345062457E-1   1.554787462649279E1   3.650208521561736E-1   2.292880977554853E1   3.501063459867642E-1   2.298941069326549E1  
 7.100000000000000E10    2.690996061597774E-1   8.235187144308918E1   3.559739390203320E-1  -2.537614057884034E1   3.566098386960430E-1  -1.822851060038549E1   3.954699640442619E-1   8.376568570248573  
 7.105000000000000E10    2.906467226722865E-1   5.812521555742571E1   3.541274238747032E-1  -6.546351105547181E1   3.544456736924364E-1  -5.835352215908493E1   4.112087730170041E-1  -1.017059389741152E1  
 7.110000000000000E10    2.636568507578150E-1   3.216125736168652E1   3.605394231928467E-1  -1.053251434007252E2   3.604175561299959E-1  -9.868818310413947E1   3.870822058280132E-1  -2.884698240504589E1  
 7.115000000000000E10    1.949150980144181E-1   9.764819602066680   3.703021367917051E-1  -1.466650453509454E2   3.708528132584845E-1  -1.400051379982454E2   3.361183295819041E-1  -4.415788357307314E1  
 7.120000000000000E10    1.142170176436506E-1   6.823262459184090   3.786425440890971E-1   1.708228186618790E2   3.797396569966221E-1   1.773332959456473E2   2.920923536962455E-1  -5.164966699493869E1  
 7.125000000000000E10    1.195036027146011E-1   3.295431818831441E1   3.799981254333398E-1   1.281239197339479E2   3.812094989627036E-1   1.343853224683650E2   2.896817915075684E-1  -5.583348377211820E1  
 7.130000000000000E10    1.769089869444476E-1   2.638309920852301E1   3.770182177951221E-1   8.595366022622716E1   3.777000604433088E-1   9.212226048586088E1   3.102803749689398E-1  -6.588000995516592E1  
 7.135000000000000E10    2.083522751070523E-1   5.577136607345660   3.748238535683264E-1   4.391142665948581E1   3.760262363397335E-1   5.061032142544977E1   3.128182178370190E-1  -7.989709896255874E1  
 7.140000000000000E10    1.964604608048199E-1  -1.398643324117735E1   3.757284984772994E-1   2.095800588048698   3.765008611091896E-1   8.900241693127610   2.882922617780395E-1  -9.201391398723187E1  
 7.145000000000000E10    1.720226151806368E-1  -2.217538885226437E1   3.754551175213757E-1  -4.029578331453010E1   3.763727504742908E-1  -3.340722592380550E1   2.649805087968236E-1  -9.616920116558195E1  
 7.150000000000000E10    1.889469309467629E-1  -2.217909685887085E1   3.698140764598805E-1  -8.269919262587179E1   3.705235719312138E-1  -7.599431607494481E1   2.899089974460077E-1  -9.687618624127866E1  
 7.155000000000000E10    2.464873467830629E-1  -3.376149372249013E1   3.584371880664857E-1  -1.241728718977089E2   3.599558829491122E-1  -1.177236584789888E2   3.522070767505123E-1  -1.057445930172358E2  
 7.160000000000000E10    2.953155431072863E-1  -5.650940044604579E1   3.495702512108572E-1  -1.644457898882796E2   3.500782848977603E-1  -1.581697844772847E2   4.066030498379629E-1  -1.220408670666258E2  
 7.165000000000000E10    3.087995632154685E-1  -8.317280866138998E1   3.475620788018369E-1   1.560933617848795E2   3.473977666807009E-1   1.622939516456829E2   4.247800777442377E-1  -1.407522730983880E2  
 7.170000000000000E10    2.766487908861283E-1  -1.102248229282522E2   3.534440702629551E-1   1.164042985586840E2   3.541713111814160E-1   1.225698554740158E2   4.032909813127270E-1  -1.586260622554608E2  
 7.175000000000000E10    2.030789500630407E-1  -1.332354145021891E2   3.647438284805651E-1   7.534614677819690E1   3.650935529642814E-1   8.161539972959233E1   3.548307112157281E-1  -1.723382498329569E2  
 7.180000000000000E10    1.210490952949376E-1  -1.355553205159425E2   3.742472033883840E-1   3.303608390289928E1   3.749783963318581E-1   3.941925465335562E1   3.114159598044484E-1  -1.784877120602117E2  
