#  HZ   S   MA   R     50.00 
! Rohde & Schwarz ZVA67 4Ports - Version 4.11 - 1305.7002k04 SN: 101051
! Date: 2023-09-13 16:15:09
! Measurements: S11 S21 S12 S22 
! 
 6.705000000000000E10    5.929750525761986E-2  -4.081855400865933   3.219403220232505E-1   1.656526992905982E2   3.222274533440661E-1   1.719701660465633E2   4.776681805504038E-1   1.502339007508016E2  
 6.710000000000000E10    1.136241730873352E-1  -5.932266195295446E1   3.296145308874569E-1   1.209928946214939E2   3.291024738307610E-1   1.273856443540758E2   4.387588656938647E-1   1.401971729891654E2  
 6.715000000000000E10    1.133716293519457E-1  -9.042494729789891E1   3.331940086771831E-1   7.568116491328576E1   3.348316200756054E-1   8.219755677379970E1   4.015438930761376E-1   1.331119346494156E2  
 6.720000000000000E10    9.516025381420575E-2  -8.686952900387519E1   3.330220319720545E-1   2.991706822764373E1   3.333647697677272E-1   3.629264824214415E1   3.907421989938366E-1   1.303255972664196E2  
 6.725000000000000E10    1.574278569264241E-1  -8.132496098611391E1   3.213975456569589E-1  -1.528858436340156E1   3.221834940120013E-1  -9.249932986556855   4.324181909749921E-1   1.255580872823728E2  
 6.730000000000000E10    2.462665462315152E-1  -1.053809517726114E2   3.057753207922724E-1  -5.885818991106013E1   3.066316993343268E-1  -5.262436877904058E1   4.927232118181236E-1   1.138273512671313E2  
 6.735000000000000E10    2.991760172569998E-1  -1.369906633563466E2   2.946711559610101E-1  -1.004854192439143E2   2.952539703843465E-1  -9.394751794825305E1   5.314595438484961E-1   9.751968748084713E1  
 6.740000000000000E10    3.050989216516356E-1  -1.706046071319836E2   2.930514670581538E-1  -1.407815728728854E2   2.940835590888234E-1  -1.343382802130778E2   5.394629975132724E-1   7.973561661634145E1  
 6.745000000000000E10    2.567328736243646E-1   1.538139482064819E2   3.023916333949347E-1   1.779939451410075E2   3.029641405417672E-1  -1.753320227312641E2   5.153956965491844E-1   6.191867181718946E1  
 6.750000000000000E10    1.626790970502835E-1   1.158942879248747E2   3.163412864453236E-1   1.352939671676980E2   3.169448932717939E-1   1.420199939848114E2   4.754495017225765E-1   4.605936942536108E1  
 6.755000000000000E10    4.667175704457436E-2   6.393350612973350E1   3.271784803575139E-1   9.145158553848333E1   3.288217100177078E-1   9.784953602269825E1   4.323582512705168E-1   3.221931966081154E1  
 6.760000000000000E10    6.021528145229067E-2  -1.185282122656498E2   3.364739212605237E-1   4.691395541140068E1   3.362767136925509E-1   5.315887522480371E1   4.029409614075942E-1   1.925849700446245E1  
 6.765000000000000E10    1.121378066595391E-1  -1.574354628793795E2   3.406981554593208E-1   2.428831764505734   3.414585356241925E-1   8.609126295851139   3.676043160644886E-1   6.169327241416509  
 6.770000000000000E10    1.143172506805132E-1  -1.798273521996998E2   3.458570599043289E-1  -4.217815779287630E1   3.461946263251776E-1  -3.645980515471991E1   3.256828056931018E-1  -3.884097401601697  
 6.775000000000000E10    1.070852368860855E-1  -1.799317491261765E2   3.453258840376692E-1  -8.746482941054212E1   3.456731545719984E-1  -8.198050242918905E1   3.065687160053605E-1  -7.530604670395287  
 6.780000000000000E10    1.567697135808304E-1   1.792242070583395E2   3.348664365960605E-1  -1.328806205952107E2   3.364148082272093E-1  -1.271237656764479E2   3.451493946170121E-1  -1.130178221964471E1  
 6.785000000000000E10    2.228438307822927E-1   1.566073567823860E2   3.211552478024753E-1  -1.767715221607360E2   3.224788477809183E-1  -1.709502742370478E2   4.145534499119166E-1  -2.407987525405852E1  
 6.790000000000000E10    2.611781426006306E-1   1.245607506869425E2   3.094260837700310E-1   1.410388012180175E2   3.101160386424031E-1   1.471497642414068E2   4.700802496325325E-1  -4.228113421785397E1  
 6.795000000000000E10    2.586352542629823E-1   8.830951603380819E1   3.056929908840956E-1   9.995558877774211E1   3.052743697176237E-1   1.060803803919976E2   4.945056777896069E-1  -6.182188363336293E1  
 6.800000000000000E10    2.186180857985667E-1   4.679516908920935E1   3.088883770499749E-1   5.868872469880255E1   3.100967263204566E-1   6.484871484705727E1   4.924047310170248E-1  -8.032822467587756E1  
 6.805000000000000E10    1.555773531509606E-1  -3.074256563238504   3.174650475534807E-1   1.666286930645699E1   3.180883171821689E-1   2.254804232292498E1   4.718820797293145E-1  -9.722088528967075E1  
 6.810000000000000E10    9.811378453291403E-2  -6.937553805280857E1   3.260013780535979E-1  -2.653952093283130E1   3.265808835098367E-1  -2.054018269497873E1   4.451595030658455E-1  -1.113770063357102E2  
 6.815000000000000E10    7.360547376830100E-2  -1.520182880373214E2   3.327983022367388E-1  -7.031949367256721E1   3.327136812223942E-1  -6.429409967528983E1   4.237113470024491E-1  -1.241225836391167E2  
 6.820000000000000E10    6.629103853280950E-2   1.396327221242718E2   3.372026875525021E-1  -1.142744931339886E2   3.386555744609684E-1  -1.083385989512505E2   4.029637558107606E-1  -1.353348853635058E2  
 6.825000000000000E10    3.942533474660782E-2   8.902200483900390E1   3.419744242420563E-1  -1.583386417350878E2   3.414639421485490E-1  -1.526523350279612E2   3.785278070216507E-1  -1.441145487339728E2  
 6.830000000000000E10    1.554678948782375E-2   1.480063234408510E2   3.418486182002032E-1   1.566918501075518E2   3.426723956041528E-1   1.626467054410006E2   3.711823057656180E-1  -1.491731608340761E2  
 6.835000000000000E10    6.314503335980701E-2   1.297169989951427E2   3.366325263137800E-1   1.117296300866794E2   3.366181073584184E-1   1.180316856342595E2   3.961070336197065E-1  -1.539597366310027E2  
 6.840000000000000E10    1.040305304205776E-1   7.605624912782936E1   3.246481046134057E-1   6.749473156210614E1   3.254145618596446E-1   7.413771308794009E1   4.488804869067356E-1  -1.623088188569480E2  
 6.845000000000000E10    1.402984617723211E-1   1.766418573662050E1   3.120376134024631E-1   2.480868077338944E1   3.120611363863638E-1   3.131809662894308E1   5.000775519832156E-1  -1.748899456814712E2  
 6.850000000000000E10    1.761452109907001E-1  -3.939925293018778E1   3.019904157091060E-1  -1.674667432588936E1   3.025604893807778E-1  -1.029457966836279E1   5.347587880270133E-1   1.707918030096412E2  
 6.855000000000000E10    2.074493005661682E-1  -9.046571897592931E1   2.980175698706530E-1  -5.730412408250661E1   2.987315590085647E-1  -5.131553793372443E1   5.495300568178844E-1   1.559054065782409E2  
 6.860000000000000E10    2.194014656504277E-1  -1.364221274333679E2   3.005995181697383E-1  -9.800357025727625E1   3.011130587718192E-1  -9.202242254198440E1   5.415091067934491E-1   1.413837994934915E2  
 6.865000000000000E10    1.963285559739228E-1  -1.791083591079386E2   3.081063221693162E-1  -1.392763453632921E2   3.092501056715200E-1  -1.335462612923092E2   5.157390942121376E-1   1.281291165482913E2  
 6.870000000000000E10    1.316286819955624E-1   1.444830502844372E2   3.194873870829716E-1   1.781364587099582E2   3.198422244654915E-1  -1.761306093672414E2   4.787435310118259E-1   1.171168471223694E2  
 6.875000000000000E10    5.070213162076457E-2   1.379365041640358E2   3.277572729147581E-1   1.346801123533014E2   3.284041310213089E-1   1.401403967866447E2   4.476350486863555E-1   1.087109404565946E2  
 6.880000000000000E10    7.250732059716321E-2  -1.709506949931093E2   3.331104353561586E-1   9.063129189456937E1   3.333392296686525E-1   9.634033253229575E1   4.297795618511184E-1   1.016602205571241E2  
 6.885000000000000E10    1.155844431632316E-1   1.644298780252702E2   3.349496588043494E-1   4.637664114684003E1   3.352481049424554E-1   5.259775662303105E1   4.229004618295424E-1   9.494923918283928E1  
 6.890000000000000E10    9.793510678801112E-2   1.302316639677626E2   3.340989435755346E-1   2.228336928362941   3.350193579544734E-1   8.501219371643717   4.204597897450674E-1   8.873059723336418E1  
 6.895000000000000E10    2.420100068755322E-2   1.243664898373934E2   3.294645648608333E-1  -4.211528657389418E1   3.302604382151134E-1  -3.580084914647905E1   4.368142720017042E-1   8.266151630551630E1  
 6.900000000000000E10    9.455710403619062E-2  -1.465493152522280E2   3.181372227778345E-1  -8.565291466707760E1   3.189353652904071E-1  -7.938367470792400E1   4.780759013476666E-1   7.432684926836659E1  
 6.905000000000000E10    1.972239540538251E-1  -1.789573330905826E2   3.046861072325034E-1  -1.276744660452963E2   3.060556823041521E-1  -1.214905821432950E2   5.204708346413396E-1   6.204326754150031E1  
 6.910000000000000E10    2.603131953707257E-1   1.470097454340038E2   2.978415999966348E-1  -1.681451379201646E2   2.979462917380671E-1  -1.620532646877913E2   5.427908026348448E-1   4.694654187918611E1  
 6.915000000000000E10    2.724956996473489E-1   1.137264972911032E2   2.985379348572684E-1   1.517311410947982E2   2.985848795872304E-1   1.579855125585432E2   5.365000853402170E-1   3.114690884591087E1  
 6.920000000000000E10    2.328512579706939E-1   8.196491777893986E1   3.073839143555889E-1   1.110877320431789E2   3.081743516294322E-1   1.170891383962137E2   5.029886913047351E-1   1.611596795046471E1  
 6.925000000000000E10    1.461651289601540E-1   5.755059489391012E1   3.201117660337307E-1   6.893039501146606E1   3.206540150078986E-1   7.494586126245510E1   4.613788393508709E-1   3.811750959549358  
 6.930000000000000E10    7.469701471580863E-2   7.324868453644614E1   3.293595754818672E-1   2.537547732965517E1   3.303018588205978E-1   3.163591712067951E1   4.271561333475682E-1  -5.742545715227619  
 6.935000000000000E10    1.178954918633095E-1   9.653465278113633E1   3.332385164215401E-1  -1.820318528471911E1   3.344247805638413E-1  -1.170782066072751E1   4.093990787156360E-1  -1.484902386101580E1  
 6.940000000000000E10    1.591412353916014E-1   7.575527147661857E1   3.367495894688945E-1  -6.174426799928556E1   3.378174998680604E-1  -5.500775453507026E1   3.934404714101383E-1  -2.535643502109141E1  
 6.945000000000000E10    1.474694406077441E-1   5.034210244283343E1   3.412402647687697E-1  -1.051612241081428E2   3.417985695477658E-1  -9.873342271981713E1   3.658527343971326E-1  -3.418895604070689E1  
 6.950000000000000E10    9.556368973891645E-2   4.230348365975434E1   3.425484849417564E-1  -1.494104998754590E2   3.427578442868133E-1  -1.431020489022569E2   3.521945413547535E-1  -3.846550720763959E1  
 6.955000000000000E10    1.039987590460606E-1   7.100735888554254E1   3.350601237229633E-1   1.663888944929882E2   3.358136854289907E-1   1.724552609711967E2   3.837905958637146E-1  -4.249659326878160E1  
 6.960000000000000E10    1.841336811607356E-1   5.973603861046365E1   3.223206843731336E-1   1.234921755680416E2   3.229998730657887E-1   1.292590340166628E2   4.434672656203822E-1  -5.311121514019406E1  
 6.965000000000000E10    2.445061816691796E-1   3.116638109035164E1   3.110651102053136E-1   8.225147132606617E1   3.120740315406116E-1   8.777385415630826E1   4.888411824182015E-1  -6.863102566731017E1  
 6.970000000000000E10    2.611158290357316E-1  -9.897921745614432E-1   3.068539938706304E-1   4.180786878687003E1   3.078981231979686E-1   4.751245237611390E1   5.041493358271171E-1  -8.563298477453310E1  
 6.975000000000000E10    2.310498553956035E-1  -3.427829327392504E1   3.108067353985808E-1   1.304630352887867   3.115638181130510E-1   6.938427680843777   4.917859068145154E-1  -1.021637503402347E2  
 6.980000000000000E10    1.598872075843292E-1  -6.622973790461519E1   3.198234672907673E-1  -4.034282037717129E1   3.199771910361233E-1  -3.448476070041873E1   4.619811083964706E-1  -1.164214563491223E2  
 6.985000000000000E10    6.916938329133143E-2  -7.899590272376770E1   3.280979655101238E-1  -8.312867548886032E1   3.280351698791263E-1  -7.678510243972266E1   4.298813451120496E-1  -1.280885766004487E2  
 6.990000000000000E10    6.704802273507513E-2  -2.079200864550219E1   3.331083536815261E-1  -1.263249233063868E2   3.333849549748366E-1  -1.195940811080856E2   4.099865381681505E-1  -1.386793466022102E2  
 6.995000000000000E10    1.313922207214741E-1  -3.426434789864408E1   3.373293369157072E-1  -1.690424654795883E2   3.374656563232459E-1  -1.623901057176342E2   3.921572163773872E-1  -1.497463889912624E2  
 7.000000000000000E10    1.554400851140611E-1  -6.224003705689324E1   3.414576128731620E-1   1.480148562844858E2   3.417500012814790E-1   1.545248421271423E2   3.608469627538179E-1  -1.602355086803592E2  
 7.005000000000000E10    1.318028566399011E-1  -8.382955335332942E1   3.445423503076067E-1   1.045514182156815E2   3.453540283418620E-1   1.108715729149821E2   3.248660630516561E-1  -1.659186704806571E2  
 7.010000000000000E10    1.077018372666334E-1  -7.977749490037793E1   3.428987609844413E-1   6.040720492025805E1   3.435831576803262E-1   6.663084873419308E1   3.223571658510437E-1  -1.658728915865569E2  
 7.015000000000000E10    1.589700072183728E-1  -7.406397771197108E1   3.333279349203032E-1   1.673100419719231E1   3.343276267303364E-1   2.286848919822180E1   3.745248721039591E-1  -1.698406031681728E2  
 7.020000000000000E10    2.341613529863019E-1  -9.414650426214395E1   3.205177960367661E-1  -2.558391464216363E1   3.211373411803959E-1  -1.933119656771417E1   4.382291059603881E-1   1.781052462788825E2  
 7.025000000000000E10    2.803370080566466E-1  -1.225052713200491E2   3.111890598287070E-1  -6.632649554052699E1   3.119903036267798E-1  -5.999549841596947E1   4.766354104378847E-1   1.618017095932667E2  
 7.030000000000000E10    2.841997426964079E-1  -1.519667390838333E2   3.109037411901584E-1  -1.062739982731600E2   3.105441389977962E-1  -1.000039881464741E2   4.802823001832077E-1   1.448280474950140E2  
 7.035000000000000E10    2.383158498861555E-1  -1.794946950789913E2   3.176337061174628E-1  -1.471474658154779E2   3.178652405940020E-1  -1.402376044409486E2   4.546730093683869E-1   1.293393497362204E2  
 7.040000000000000E10    1.574046342137269E-1   1.624167140059240E2   3.271929308926536E-1   1.708534929957905E2   3.276631508936864E-1   1.780116313759540E2   4.151461471624224E-1   1.170144541892086E2  
 7.045000000000000E10    1.050415183615009E-1   1.765313938287167E2   3.343217874183362E-1   1.280112482852626E2   3.348934726805065E-1   1.351747764805845E2   3.879282120156673E-1   1.081049921879335E2  
 7.050000000000000E10    1.469161198254141E-1  -1.712103337702456E2   3.374453012786120E-1   8.524173702212748E1   3.378200175444577E-1   9.216558840356709E1   3.775941558816291E-1   9.870867953969287E1  
 7.055000000000000E10    1.878766506516991E-1   1.730206108053706E2   3.391320192938366E-1   4.271466241909685E1   3.397488099371225E-1   4.942116252999409E1   3.597483704156276E-1   8.733215849294234E1  
 7.060000000000000E10    1.848258941436780E-1   1.543440066003518E2   3.440191628214869E-1   2.127861715599040E-1   3.445767318853495E-1   6.561426251169009   3.224017094981123E-1   7.762056724365030E1  
 7.065000000000000E10    1.554333828469431E-1   1.489799461358562E2   3.460295398392594E-1  -4.321082577587688E1   3.462052680809066E-1  -3.692102958045962E1   2.864604305469222E-1   7.543212363470038E1  
 7.070000000000000E10    1.728344282914941E-1   1.567617540576123E2   3.412812380281856E-1  -8.719043175485281E1   3.414141157205699E-1  -8.076969537587235E1   3.069898311304893E-1   7.713288460198477E1  
 7.075000000000000E10    2.432477345095431E-1   1.475433968160205E2   3.304598946979593E-1  -1.297028591587750E2   3.300673029823497E-1  -1.234890569136366E2   3.706985493628808E-1   6.934536149189522E1  
 7.080000000000000E10    2.993932387719591E-1   1.257904034027964E2   3.197217962664427E-1  -1.709306607448432E2   3.197598251242765E-1  -1.644648023636919E2   4.221042831084836E-1   5.343019129643511E1  
 7.085000000000000E10    3.121313605326530E-1   1.010826041236070E2   3.160556737295449E-1   1.488268589792007E2   3.165574130587203E-1   1.556551927372174E2   4.328729613899774E-1   3.522028115767614E1  
 7.090000000000000E10    2.818520630627612E-1   7.712899363538776E1   3.214607149340898E-1   1.080466651741343E2   3.224492396319293E-1   1.154683287240216E2   4.079169134929851E-1   1.759610013285271E1  
 7.095000000000000E10    2.165494953658154E-1   5.889756703366796E1   3.316928089738809E-1   6.657627448295882E1   3.319075946443043E-1   7.402109602827670E1   3.618661188340731E-1   3.936605460410122  
 7.100000000000000E10    1.617869399259563E-1   5.646693272960132E1   3.384508831970802E-1   2.406809162224728E1   3.395135903136515E-1   3.126492453065302E1   3.286365829458365E-1  -4.709541420855485  
 7.105000000000000E10    1.646095021803065E-1   6.143504607002369E1   3.429159534468745E-1  -1.859055392820438E1   3.425611179613875E-1  -1.163103520566641E1   3.261480899132355E-1  -1.250617130002791E1  
 7.110000000000000E10    1.899619410439083E-1   5.138283867144491E1   3.436229486326909E-1  -6.107435829619269E1   3.439671991655079E-1  -5.428542370735497E1   3.295586943061874E-1  -2.447311827249729E1  
 7.115000000000000E10    1.884663726338524E-1   3.304733519017899E1   3.454113782757665E-1  -1.032516393455527E2   3.464220652460324E-1  -9.649646822605895E1   3.124423787152372E-1  -3.859618556706288E1  
 7.120000000000000E10    1.500067396720657E-1   1.975952539180347E1   3.504641103268726E-1  -1.460761720797397E2   3.504703686592265E-1  -1.393756394043768E2   2.787285210256801E-1  -4.847788790453900E1  
 7.125000000000000E10    1.231654386777700E-1   2.783009115127275E1   3.503814637037575E-1   1.708046958318903E2   3.507536731402912E-1   1.771031816312957E2   2.629671656190671E-1  -5.071605117127459E1  
 7.130000000000000E10    1.663110858728378E-1   3.491854616786537E1   3.442410765219931E-1   1.275327575596007E2   3.444652111231891E-1   1.339976238941072E2   2.980407430657753E-1  -5.439492589997666E1  
 7.135000000000000E10    2.335343819887188E-1   1.885123358710334E1   3.348798111210961E-1   8.519858920692674E1   3.358691335044231E-1   9.195769816529153E1   3.486203910941583E-1  -6.689019701764011E1  
 7.140000000000000E10    2.717019141725138E-1  -5.168372564650247   3.281109965791013E-1   4.395720002871069E1   3.295173896652788E-1   5.107847880447511E1   3.786974681772799E-1  -8.424637755675033E1  
 7.145000000000000E10    2.721438793595046E-1  -2.995768216137982E1   3.280142728489880E-1   3.357743115258927   3.290204499194068E-1   1.032587620363209E1   3.736686700730808E-1  -1.020213745598943E2  
 7.150000000000000E10    2.383604341675510E-1  -5.101808624664961E1   3.334556320181547E-1  -3.793544136268568E1   3.333857881780250E-1  -3.098826003350891E1   3.412734029988941E-1  -1.164412013476987E2  
 7.155000000000000E10    1.962607128335509E-1  -6.234180504285381E1   3.368973944074156E-1  -7.981536605164457E1   3.385660965487579E-1  -7.321894695293264E1   3.077964262992853E-1  -1.242990733685978E2  
 7.160000000000000E10    1.893769908085865E-1  -6.495986525366136E1   3.391032415903117E-1  -1.222307777086065E2   3.398678433919434E-1  -1.158529979617847E2   3.102734511883175E-1  -1.286144667677552E2  
 7.165000000000000E10    2.182208600090310E-1  -7.550436942521606E1   3.365114784583587E-1  -1.645107783300375E2   3.371412213678829E-1  -1.580472670446519E2   3.393384716285357E-1  -1.370849347698980E2  
 7.170000000000000E10    2.343360953998812E-1  -9.532458065477425E1   3.361421898756357E-1   1.540708785271621E2   3.365438179281736E-1   1.603691329063080E2   3.587569536493020E-1  -1.503301016186453E2  
 7.175000000000000E10    2.110797624387178E-1  -1.179784697581285E2   3.387417539756515E-1   1.124277720379933E2   3.394253176119148E-1   1.188702917897284E2   3.500993011101145E-1  -1.639998497670763E2  
 7.180000000000000E10    1.502047872208709E-1  -1.328538971066180E2   3.445298642239295E-1   7.003889774850327E1   3.450289884499695E-1   7.655758593028713E1   3.230886864822698E-1  -1.735560554794225E2  
