#  HZ   S   MA   R     50.00 
! Rohde & Schwarz ZVA67 4Ports - Version 4.11 - 1305.7002k04 SN: 101051
! Date: 2023-05-31 14:22:21
! Measurements: S11 S21 S12 S22 
! 
 5.000000000000000E7     1.369955035737596E-2   1.748331285931721E2   1.674775358968166E-4  -1.008069362120807E2   9.047482995606721E-5   1.265360820049987E2   1.819925015214964E-2  -1.776468780824786E2  
 1.000000000000000E8     1.469688011433294E-2   1.719418091150297E2   2.048251066590432E-4  -1.603762864414809E2   7.647242061629457E-5   6.884780792059698E1   1.663087136845751E-2   1.772454900649856E2  
 1.500000000000000E8     1.230412026471170E-2   1.599929549071266E2   1.253534012322174E-5   1.478995654764541E2   7.705944438957472E-5  -6.697818014065642   1.433857590018176E-2   1.724672164628817E2  
 2.000000000000000E8     1.254938454113635E-2   1.495886719243523E2   3.023829422643808E-5  -3.572284028920274E1   1.587898182893441E-4   8.729937682907764E1   1.482008706933394E-2   1.657596952005561E2  
 2.500000000000000E8     1.039397747136319E-2   1.419017418493797E2   1.180715055780407E-4   4.480925527384650E1   8.563153915951077E-5   2.402233893580046E1   1.250482149563599E-2   1.632663153046745E2  
 3.000000000000000E8     9.708670060845403E-3   1.286570056982301E2   8.828907985269447E-5   6.276959059308330E1   9.356524896397973E-6   1.079349184273878E1   1.191593913960964E-2   1.545968276322739E2  
 3.500000000000000E8     8.525668527954285E-3   1.097607128221315E2   1.083326706005907E-4   1.732524948530566E1   7.586027289754791E-5   3.869556191732506E1   1.067456079147370E-2   1.496083165878637E2  
 4.000000000000000E8     8.505445480321571E-3   8.961002180092555E1   6.760831550945116E-5   2.225991995856899E1   1.037803076963012E-4   3.536326003501445E1   1.017861787383734E-2   1.434985051918901E2  
 4.500000000000000E8     1.097532387389606E-2   7.083301773519439E1   1.108961067862269E-4   5.138511821344081E1   1.068595237723706E-4   4.017328031988252E1   8.693131439750692E-3   1.286489943393692E2  
 5.000000000000000E8     1.237624350880481E-2   6.462561800316094E1   1.104529644925534E-4   2.538276048124432E1   8.410941522572284E-5   1.702876026899203E1   9.926929242689215E-3   1.200859626225737E2  
 5.500000000000000E8     1.527539310744226E-2   5.455030859117547E1   1.021899054467296E-4   2.557070570765972E1   7.062400139136227E-5   2.139590486811055E1   1.032615441207971E-2   1.125606981535998E2  
 6.000000000000000E8     1.637665016148483E-2   5.421227961433143E1   1.147792356473142E-4   6.252333005086687   1.314653493620048E-4  -4.547001955596086   1.111954890918470E-2   1.088023116739430E2  
 6.500000000000000E8     1.945623834935812E-2   4.560916463660519E1   1.452387107413914E-4   2.669649317912240   1.206266140970432E-4   5.313759856216713   1.135954320577710E-2   1.043938532847897E2  
 7.000000000000000E8     2.076512695463719E-2   4.777353089649332E1   1.601959737620110E-4  -9.179109623259441   1.235436797068578E-4  -3.682170348042665   1.216592916929653E-2   1.029116995212503E2  
 7.500000000000000E8     2.321649466213686E-2   4.247867768777545E1   1.521942710456105E-4  -1.467479715602849E1   1.543364110769046E-4  -9.635746415650651   1.309506068315636E-2   9.508388005717346E1  
 8.000000000000000E8     2.458342042858608E-2   4.500341657230659E1   1.729277152967613E-4  -1.892428231820929E1   1.539684010671606E-4  -2.708397744441135E1   1.535288015832351E-2   9.598641274863772E1  
 8.500000000000000E8     2.605977933485394E-2   3.937183246026412E1   1.689727198284264E-4  -2.352745562288949E1   1.820905528942741E-4  -2.365243389126130E1   1.634622284874308E-2   9.514997043723169E1  
 9.000000000000000E8     2.749731396334564E-2   4.122186217674687E1   1.805861336550976E-4  -2.841874208228588E1   1.946153494695762E-4  -3.219967158583707E1   1.662680143466160E-2   9.901638472299743E1  
 9.500000000000000E8     2.771240406919625E-2   3.725234619090059E1   1.952832505611376E-4  -3.535087396083497E1   1.825059990611918E-4  -3.756289391067973E1   1.582732562308520E-2   9.636544611554206E1  
 1.000000000000000E9     2.800390031713833E-2   3.904469978991891E1   2.106132535116687E-4  -4.198198718827744E1   2.058273941234684E-4  -4.511279779429430E1   1.651557511160434E-2   9.873233300132465E1  
 1.050000000000000E9     2.719258862078977E-2   3.534123960358114E1   2.330491715918021E-4  -4.974445730625278E1   2.268817683777333E-4  -4.683745159880156E1   1.564583107649281E-2   9.678470697228912E1  
 1.100000000000000E9     2.738106718001527E-2   3.533542927455220E1   2.510721195350743E-4  -5.980438445051627E1   2.589339733820704E-4  -5.738617592293792E1   1.621215065289702E-2   9.620621885141145E1  
 1.150000000000000E9     2.669597253734658E-2   3.263232953207464E1   2.630013302478916E-4  -6.790526969156717E1   2.464927518396713E-4  -7.132754922380920E1   1.618260731335772E-2   9.380013600787578E1  
 1.200000000000000E9     2.583283818824190E-2   3.382560495112582E1   2.700036967077751E-4  -7.357976363012776E1   2.786101789626604E-4  -7.619608373952856E1   1.703280304093272E-2   9.653229215202305E1  
 1.250000000000000E9     2.369782835958315E-2   3.071232725926675E1   2.681124638060098E-4  -8.524920564425682E1   2.791250459264051E-4  -8.545494015180886E1   1.631327446444635E-2   9.586535086526224E1  
 1.300000000000000E9     2.244429560560071E-2   2.974179733690389E1   2.892378506575312E-4  -8.621966158469535E1   3.007536445170452E-4  -9.078889919919892E1   1.708970251718479E-2   9.826743413266344E1  
 1.350000000000000E9     2.079593434892857E-2   2.694476520688009E1   3.141984654135719E-4  -1.004747139385661E2   3.181115553113868E-4  -9.589925470857347E1   1.572719034059007E-2   9.655881969324955E1  
 1.400000000000000E9     1.829575927243784E-2   2.635370235994313E1   3.285244041373714E-4  -1.026175248022376E2   3.170988098743960E-4  -1.045892020867566E2   1.704284406137819E-2   9.679989367040167E1  
 1.450000000000000E9     1.680932165795517E-2   2.139478769193990E1   3.563170641308950E-4  -1.088749061001489E2   3.731797017385153E-4  -1.137208643560158E2   1.595702038124219E-2   9.761570310677179E1  
 1.500000000000000E9     1.354951770342745E-2   2.256256155219694E1   3.904482743286422E-4  -1.180116920805086E2   3.830497260509120E-4  -1.175235109614466E2   1.668525156706434E-2   9.815568554594836E1  
 1.550000000000000E9     1.118422901819871E-2   1.006455802390432E1   4.364793781112420E-4  -1.255726174727361E2   4.220504338779865E-4  -1.317343671037848E2   1.497089187089288E-2   9.872373072165628E1  
 1.600000000000000E9     8.571325280500312E-3   9.519009761982035   4.209547159816411E-4  -1.360724148125644E2   4.325533701400619E-4  -1.362843849835692E2   1.597681430986041E-2   9.579234171774168E1  
 1.650000000000000E9     6.426588330665985E-3  -1.173725271210652E1   4.971876087852391E-4  -1.446238572734793E2   4.840006430850987E-4  -1.447977506135708E2   1.497190702345929E-2   9.743612624403657E1  
 1.700000000000000E9     4.021634416778708E-3  -3.368047191093761E1   5.094212803744162E-4  -1.604560026561044E2   5.326408837448266E-4  -1.600413061650713E2   1.501909795074103E-2   9.534536231848719E1  
 1.750000000000000E9     5.795937023359915E-3  -8.711924098983614E1   5.164258387925082E-4  -1.721429628140253E2   5.272295192682680E-4  -1.732566715022019E2   1.372615814865057E-2   9.754393555313772E1  
 1.800000000000000E9     7.907365911913857E-3  -1.059578143870516E2   4.854126059233775E-4   1.704810056452971E2   4.658857137667041E-4   1.704173176260259E2   1.335886748605510E-2   9.249509188210746E1  
 1.850000000000000E9     1.151316605159264E-2  -1.138398455223878E2   4.413864604640202E-4   1.642654662586610E2   4.531787485510073E-4   1.594616590795021E2   1.270388210679802E-2   9.194805479462413E1  
 1.900000000000000E9     1.358888201139840E-2  -1.211018551782854E2   4.257732706733829E-4   1.552855572222174E2   4.080206293591362E-4   1.533819216638282E2   1.248631715219341E-2   8.824165589065268E1  
 1.950000000000000E9     1.694647103803375E-2  -1.256680932885032E2   3.687060240070120E-4   1.507039845987481E2   3.942895734655599E-4   1.518329082156409E2   1.170899430153628E-2   8.081228186745426E1  
 2.000000000000000E9     1.966502503726988E-2  -1.302762851825006E2   4.284056021157178E-4   1.462938189915959E2   4.122105537486567E-4   1.472789708724227E2   1.271428530540646E-2   7.491779506959230E1  
 2.050000000000000E9     2.258573370732458E-2  -1.288454246405185E2   4.282351483746458E-4   1.340195213171217E2   4.098491786517830E-4   1.358151650080905E2   1.279653034504818E-2   7.191003464767462E1  
 2.100000000000000E9     2.409974430635212E-2  -1.335731111141322E2   3.739284058306269E-4   1.260261806028837E2   3.881466361324547E-4   1.236640665352348E2   1.333894025782269E-2   6.984380827171019E1  
 2.150000000000000E9     2.694439002800604E-2  -1.335114693247344E2   4.163848547334046E-4   1.276082932256217E2   3.632179227755723E-4   1.243055708730308E2   1.304027275663394E-2   6.278781962150976E1  
 2.200000000000000E9     2.822818611057264E-2  -1.362426916127017E2   4.098208387305766E-4   1.114549488187331E2   4.186494674618023E-4   1.147558842274514E2   1.417460029543724E-2   6.065185633384450E1  
 2.250000000000000E9     3.030255854980794E-2  -1.346544708472420E2   4.034508831625398E-4   1.018118515426471E2   3.881584154620787E-4   1.009042830479571E2   1.458973244521039E-2   5.382523498220352E1  
 2.300000000000000E9     2.961819428491140E-2  -1.368792439228018E2   3.750211463035593E-4   9.281550385036185E1   3.391402116454441E-4   8.847064150816759E1   1.719468476512243E-2   5.276865028043863E1  
 2.350000000000000E9     3.075861343411309E-2  -1.374519404806946E2   3.245439202082239E-4   8.459173095002559E1   3.201197168294425E-4   8.225152118689748E1   1.774129210674009E-2   5.114232023413948E1  
 2.400000000000000E9     2.964000590772810E-2  -1.404269289125044E2   2.942586083120834E-4   8.218358809144914E1   2.810954632236252E-4   8.015504787772763E1   1.990974668662113E-2   5.076552337263991E1  
 2.450000000000000E9     3.060351400955332E-2  -1.411393885469539E2   2.544540171505237E-4   8.052067590453061E1   2.659567616397972E-4   7.537014313914249E1   2.010832498061988E-2   4.915127968209278E1  
 2.500000000000000E9     2.809014068095527E-2  -1.436518404586753E2   2.605636534037389E-4   8.376530524578352E1   2.444669641581867E-4   7.206749208997620E1   2.200741126451814E-2   5.104491881413005E1  
 2.550000000000000E9     2.778679343408795E-2  -1.466416719501765E2   2.493831873833320E-4   7.320841380798682E1   2.457503736375989E-4   8.046273121593906E1   2.168708161005361E-2   5.107162479712559E1  
 2.600000000000000E9     2.533606322035502E-2  -1.511066462851363E2   2.622591036462881E-4   8.447368504868575E1   2.519516358320707E-4   8.116957522731593E1   2.325307255232599E-2   5.054675167533220E1  
 2.650000000000000E9     2.424640012017655E-2  -1.549770355930386E2   2.772911846618524E-4   7.842144396127063E1   2.498321522424111E-4   7.622824196498351E1   2.205852864187133E-2   4.958365360954007E1  
 2.700000000000000E9     2.139556231716851E-2  -1.616258002008428E2   3.312286708592792E-4   7.583986631904111E1   3.238344631446760E-4   8.696172991278124E1   2.440299606705641E-2   4.613071393625841E1  
 2.750000000000000E9     2.018482262478565E-2  -1.673130971014014E2   4.009551103611585E-4   7.570071859819234E1   3.859107989603819E-4   7.403048527052533E1   2.381078823209183E-2   4.701484746429957E1  
 2.800000000000000E9     1.789348444240067E-2  -1.777226605088462E2   4.632469486930539E-4   6.109228179223554E1   4.241384968958065E-4   6.179744729509539E1   2.492237587980262E-2   4.364170516113195E1  
 2.850000000000000E9     1.702006402237836E-2   1.704852359284140E2   4.324497353125547E-4   5.092599372709447E1   4.605667385286491E-4   4.700296404769287E1   2.481224310288453E-2   4.385392274525177E1  
 2.900000000000000E9     1.710682169297496E-2   1.534709979358559E2   3.751396704424113E-4   4.531003217570607E1   4.372874155585563E-4   4.167748007572885E1   2.535878644036530E-2   4.046252451979068E1  
 2.950000000000000E9     1.792764131135739E-2   1.435523290976545E2   4.619383893245066E-4   2.887662648515253E1   4.538029058295061E-4   2.873592469722913E1   2.586617902927870E-2   3.958394879347110E1  
 3.000000000000000E9     1.943389441554478E-2   1.302555312891489E2   4.510610463458272E-4   2.412384559152092E1   4.636810798884086E-4   1.871071832360380E1   2.683234493519017E-2   3.833062180757319E1  
 3.050000000000000E9     2.067190390537408E-2   1.242864824167350E2   4.483517624179253E-4   2.192014112458697E1   4.332735037331614E-4   1.263196618729087E1   2.577720551546612E-2   3.609684291852508E1  
 3.100000000000000E9     2.337930964393810E-2   1.096875353876170E2   3.998599846522649E-4   5.615589806182640   4.528184228943371E-4   5.439782267598901   2.734480447542384E-2   3.268716414621130E1  
 3.150000000000000E9     2.608456372657882E-2   1.058441421926813E2   4.504967818894692E-4   7.571380529526361   4.109282525372677E-4  -5.677732377679812E-1   2.805628126559060E-2   3.228066068064945E1  
 3.200000000000000E9     2.921996156994508E-2   9.782505733438855E1   4.298204498859526E-4  -1.472901127967123E1   4.158393732442975E-4  -3.049599220470699   2.884011351209434E-2   3.100355379184953E1  
 3.250000000000000E9     3.183863839423918E-2   9.422284704485602E1   4.414031572032035E-4  -1.272500790200177E1   4.275282052498312E-4  -1.186303013250176E1   2.854515109273956E-2   3.003694314014029E1  
 3.300000000000000E9     3.513802720115158E-2   8.870601931007251E1   3.962598890143247E-4  -1.776664685378184E1   4.194749522047119E-4  -1.941115054638666E1   2.929705591746861E-2   2.856950351985756E1  
 3.350000000000000E9     3.723730625720270E-2   8.661307930055006E1   3.906805583257685E-4  -3.008307920236797E1   4.008832781101500E-4  -2.492513221611372E1   2.897582742844058E-2   2.778429919597544E1  
 3.400000000000000E9     4.014989685210861E-2   8.187651741246991E1   3.685176664949755E-4  -2.613915366946144E1   4.313832509222179E-4  -3.711895788263860E1   2.976173045350118E-2   2.535897725144649E1  
 3.450000000000000E9     4.197761043658183E-2   7.995784858677104E1   3.121942585848420E-4  -3.661573052444322E1   3.606690151918811E-4  -3.741871137724645E1   2.948555122619039E-2   2.421320524453034E1  
 3.500000000000000E9     4.507722225294087E-2   7.587152794556548E1   3.732027895838386E-4  -4.911813842599126E1   3.129331198530573E-4  -4.635126664806139E1   3.004259200409843E-2   2.146584805185223E1  
 3.550000000000000E9     4.618838929722986E-2   7.471268606563579E1   3.586808614605933E-4  -4.103787718911803E1   3.629856836231128E-4  -4.857658046798982E1   3.055511090239195E-2   2.169385253386627E1  
 3.600000000000000E9     4.847767123516264E-2   7.014921692932066E1   3.924085867739576E-4  -4.687665085675976E1   4.393173647732304E-4  -4.901090945965669E1   3.019402791882812E-2   2.182401403610350E1  
 3.650000000000000E9     4.950142782507610E-2   6.836885732890519E1   4.371556948473554E-4  -5.900455630110068E1   4.468401982856988E-4  -5.105426290322144E1   2.848633637409058E-2   2.072638154152780E1  
 3.700000000000000E9     5.221345999716625E-2   6.469917415905871E1   4.676738370985130E-4  -6.354075844234477E1   4.210918566186918E-4  -6.162205788354142E1   2.798185526844089E-2   1.789435446991773E1  
 3.750000000000000E9     5.244821999631003E-2   6.331651889569886E1   4.634807053288218E-4  -7.245519169972741E1   3.908734154076930E-4  -6.931562654409129E1   2.714841087733332E-2   1.186128473525265E1  
 3.800000000000000E9     5.417090456503176E-2   5.946083405395819E1   4.455497043565207E-4  -7.728061914637799E1   4.384670981023139E-4  -7.811038024492642E1   2.894857353631029E-2   9.989624422864942  
 3.850000000000000E9     5.422798955921569E-2   5.874118068074703E1   4.351258468298269E-4  -8.493274064130389E1   3.774742601069931E-4  -8.982891951681222E1   2.776293927639635E-2   9.621961624822188  
 3.900000000000000E9     5.535735711056155E-2   5.503740033364061E1   4.892206644235946E-4  -9.099134304377805E1   4.787479751318062E-4  -8.911886538423391E1   2.786735390820957E-2   5.701705614201378  
 3.950000000000000E9     5.452030948428476E-2   5.433368620250188E1   4.600784479371546E-4  -1.018135701487834E2   4.529847454633787E-4  -9.472509892925993E1   2.771618701891731E-2   3.238408421618634  
 4.000000000000000E9     5.451692597201228E-2   5.023761829934337E1   4.641485653627726E-4  -9.596454005939934E1   4.244882632942678E-4  -1.025166629694648E2   2.784872277296867E-2   2.047353182365962  
 4.050000000000000E9     5.319815973876405E-2   4.940003702957124E1   4.660732684752267E-4  -1.081980435502353E2   4.535688713822192E-4  -1.101090234148669E2   2.717978433415067E-2  -1.428592868248187  
 4.100000000000000E9     5.224433608316460E-2   4.468310628272845E1   4.409043345015149E-4  -1.150820603857291E2   4.388953970916937E-4  -1.152485747077011E2   2.830170709578014E-2  -4.323032474557405  
 4.150000000000000E9     5.115450127245359E-2   4.268861271722992E1   4.587871967083265E-4  -1.182142064278847E2   4.321156180625087E-4  -1.195025028590280E2   2.832170246164836E-2  -6.295155088112288  
 4.200000000000000E9     4.969378090224691E-2   3.829646185020056E1   4.544322014213754E-4  -1.239660582899523E2   4.414520353269713E-4  -1.311687712476379E2   2.958776173907892E-2  -8.350663797460371  
 4.250000000000000E9     4.787053357072876E-2   3.503975339934603E1   4.369428947037786E-4  -1.302679699361838E2   4.569923672623738E-4  -1.303003469266200E2   2.931305600080109E-2  -8.775174809147790  
 4.300000000000000E9     4.712547926364005E-2   2.981480390950649E1   4.368808275459572E-4  -1.381760635459432E2   4.529262134059165E-4  -1.386864152139564E2   2.981532055110123E-2  -8.252975627903094  
 4.350000000000000E9     4.562079330457293E-2   2.593594546044399E1   4.284809133029400E-4  -1.458003932591109E2   4.287247334949333E-4  -1.442847751670441E2   2.859276896280331E-2  -9.376666487540524  
 4.400000000000000E9     4.561276866963615E-2   2.070968343004399E1   4.552426566643863E-4  -1.453632591069926E2   4.350159231409535E-4  -1.453379860565697E2   2.922035859800226E-2  -1.113496776404489E1  
 4.450000000000000E9     4.327363979958557E-2   1.692924534345033E1   4.824144557220394E-4  -1.480495873130438E2   4.665404849613656E-4  -1.543222874365451E2   2.802195007733484E-2  -1.275727293541429E1  
 4.500000000000000E9     4.402882858924390E-2   1.040474035503868E1   4.929390031911134E-4  -1.616584638834841E2   5.025644137865662E-4  -1.597623424623058E2   2.946508753405310E-2  -1.374663337340214E1  
 4.550000000000000E9     4.230870136816784E-2   7.079979078144197   4.994596637024693E-4  -1.658008608602308E2   5.018458035134297E-4  -1.670208128139570E2   2.787478100920322E-2  -1.319745429195342E1  
 4.600000000000000E9     4.272388984521812E-2   6.621514537500310E-1   5.133540351713883E-4  -1.751163004253751E2   4.979626694380420E-4  -1.747659105883879E2   2.869737432263126E-2  -1.771019992085527E1  
 4.650000000000000E9     4.171950975983076E-2  -3.383436829311914   5.371626874260881E-4  -1.796165167798096E2   5.120937947984919E-4   1.779073331020930E2   2.848730573834025E-2  -1.493676361712649E1  
 4.700000000000000E9     4.288217576271135E-2  -9.427548327372682   5.043696818725494E-4   1.765051840245950E2   5.203776358275923E-4   1.734511563587360E2   2.746998192250442E-2  -1.624136386614667E1  
 4.750000000000000E9     4.205709386036411E-2  -1.241250023610369E1   5.322289369527806E-4   1.703403448975198E2   5.343462891736747E-4   1.676256654055808E2   2.576540725733569E-2  -1.712688267946155E1  
 4.800000000000000E9     4.377110128527185E-2  -1.779761531536570E1   5.397863312507357E-4   1.605548648155103E2   5.431396058726463E-4   1.607362736133393E2   2.559104856706906E-2  -2.283784477701228E1  
 4.850000000000000E9     4.234734054548471E-2  -1.916690639796256E1   5.036957762590532E-4   1.558311306175240E2   5.513662598247405E-4   1.530274139260077E2   2.587767133315045E-2  -2.393929113422592E1  
