#  HZ   S   MA   R     50.00 
! Rohde & Schwarz ZVA67 4Ports - Version 4.11 - 1305.7002k04 SN: 101051
! Date: 2023-09-13 16:04:21
! Measurements: S11 S21 S12 S22 
! 
 6.705000000000000E10    4.848807736072139E-2  -9.522421984554039E1   2.668291907829490E-3   1.682745796788509E2   2.450614104666630E-3   1.784129636563585E2   4.841485373110048E-1   1.559013242352732E2  
 6.710000000000000E10    6.599396296448146E-2  -6.868248904001766E1   2.477708457197005E-3   1.281153386295192E2   2.498555572488023E-3   1.339960851706905E2   4.664819562353946E-1   1.460878271138040E2  
 6.715000000000000E10    1.062986834077415E-1  -7.216972061159721E1   2.817937968849436E-3   8.699785300381281E1   2.565205217590305E-3   9.047993481619935E1   4.580288547860918E-1   1.366369569395367E2  
 6.720000000000000E10    1.461431536944449E-1  -8.738179078935573E1   2.499650841759819E-3   4.437227055030953E1   2.548220756030455E-3   4.452655162662163E1   4.568593551672179E-1   1.273700090720787E2  
 6.725000000000000E10    1.768367059035103E-1  -1.061067622625818E2   2.583225898488630E-3  -5.575357443580701   2.593913892048386E-3   3.588478755911488   4.622980109702323E-1   1.171579403826533E2  
 6.730000000000000E10    1.980730136608489E-1  -1.259196077348083E2   2.622048236169244E-3  -4.694626503683926E1   2.412008972399581E-3  -3.873245720482851E1   4.680942841684926E-1   1.059500481181912E2  
 6.735000000000000E10    2.037189250594248E-1  -1.459347678928373E2   2.479638111740218E-3  -8.836430269391643E1   2.530300371378728E-3  -7.975970160835004E1   4.713758747365219E-1   9.355489108983139E1  
 6.740000000000000E10    1.955845437498404E-1  -1.657010802920523E2   2.379379503949266E-3  -1.263124039706658E2   2.504815533229717E-3  -1.222701269251487E2   4.719843913455321E-1   8.034173171272823E1  
 6.745000000000000E10    1.715186267933914E-1   1.748549980847549E2   2.643186419878683E-3  -1.711249968051860E2   2.443661425624129E-3  -1.652962921348828E2   4.638839129590364E-1   6.631801982212126E1  
 6.750000000000000E10    1.368927272245289E-1   1.582719405623964E2   2.500626933129958E-3   1.492820869857077E2   2.692763347493748E-3   1.557780789633011E2   4.504840575373392E-1   5.241106805283929E1  
 6.755000000000000E10    9.263466131081379E-2   1.477771115729298E2   2.633642576145482E-3   1.005911157299238E2   2.666802161547840E-3   1.106944248237486E2   4.293054517221790E-1   3.870341292397178E1  
 6.760000000000000E10    5.880577981876663E-2   1.597065334636935E2   2.805159596495553E-3   6.323250131993994E1   2.709637547192102E-3   6.966418176298984E1   4.107244023921973E-1   2.553636345285842E1  
 6.765000000000000E10    6.376121278913981E-2  -1.698592271879791E2   2.672966212758933E-3   1.986360678081427E1   2.754052970980652E-3   2.515683527760002E1   3.916708159666421E-1   1.313621523259626E1  
 6.770000000000000E10    1.007029617892075E-1  -1.671218365521773E2   2.907077527003916E-3  -2.455043394106723E1   2.839486383429422E-3  -2.110654917488990E1   3.800807877294117E-1   1.636524170962873  
 6.775000000000000E10    1.366125830843676E-1   1.790533686916100E2   2.727173091437739E-3  -6.629498490012101E1   2.803415586413545E-3  -5.907193824769097E1   3.784776107982147E-1  -9.933915217089922  
 6.780000000000000E10    1.625016953612800E-1   1.607675542362564E2   2.775982986281410E-3  -1.095868917724663E2   2.684177814164950E-3  -1.039229079497936E2   3.858126297993301E-1  -2.159960858395474E1  
 6.785000000000000E10    1.750823244480729E-1   1.405992795847129E2   2.903411751815918E-3  -1.563702602576031E2   2.673016005988308E-3  -1.506945902313907E2   3.984976874472005E-1  -3.435851055614778E1  
 6.790000000000000E10    1.736694154152785E-1   1.188385249028234E2   2.556114988309194E-3   1.633709864699482E2   2.612298407236606E-3   1.693640168572104E2   4.151174026970943E-1  -4.814191995070027E1  
 6.795000000000000E10    1.602471988277385E-1   9.598672769534281E1   2.750584202671169E-3   1.196729752442608E2   2.727335352389608E-3   1.273863945321471E2   4.287836151660850E-1  -6.264971799610165E1  
 6.800000000000000E10    1.330092984538353E-1   7.130934338314599E1   2.753728908498400E-3   7.860249231635439E1   2.709627827996481E-3   8.264705640288022E1   4.376345916727586E-1  -7.710246659312159E1  
 6.805000000000000E10    1.014408317048305E-1   4.425103792263927E1   2.483431611062919E-3   3.717982928741687E1   2.908251276140333E-3   4.166144123395265E1   4.414548044760243E-1  -9.173082104815856E1  
 6.810000000000000E10    6.656588165715464E-2   1.248806281445225E1   2.894574990691356E-3  -6.089306334547844   2.827328037053370E-3   1.169011492207411   4.360198048909389E-1  -1.055180145317940E2  
 6.815000000000000E10    3.516670078765193E-2  -3.205902328971346E1   2.807288665815919E-3  -4.800879655295517E1   3.056200751396278E-3  -4.219745422819193E1   4.299878497467239E-1  -1.184736198232520E2  
 6.820000000000000E10    2.295454003876263E-2  -1.200427751658773E2   2.870554953685255E-3  -9.263539657153986E1   2.799441095676694E-3  -8.426019275980107E1   4.226934054115696E-1  -1.299809914422015E2  
 6.825000000000000E10    3.396923770498603E-2   1.709736344833390E2   2.814134026292343E-3  -1.339076486289678E2   2.873515888658260E-3  -1.278178340519865E2   4.171080549386778E-1  -1.402610138302617E2  
 6.830000000000000E10    4.415800935815853E-2   1.262696950204569E2   3.177805835451107E-3  -1.735648039026843E2   2.800074042090642E-3  -1.721592835098436E2   4.208899881605623E-1  -1.493554657389532E2  
 6.835000000000000E10    4.830853581797367E-2   8.569320332240707E1   2.783270913382319E-3   1.427648120458779E2   2.990328709644283E-3   1.444293844487974E2   4.317518659561146E-1  -1.586162078115056E2  
 6.840000000000000E10    4.965539733250456E-2   4.077055201343166E1   2.878246839466294E-3   9.398721540724436E1   2.906377736819446E-3   1.029368824592137E2   4.525188434229543E-1  -1.683315328017603E2  
 6.845000000000000E10    5.587553821619806E-2  -6.230908844191069   2.586719033132541E-3   5.243174316389214E1   2.849223298436373E-3   6.044990267252987E1   4.734730010548898E-1  -1.791700787769986E2  
 6.850000000000000E10    7.052959891607943E-2  -5.112979101095797E1   2.885516150938090E-3   1.266093767604403E1   2.921894301675661E-3   1.685061664395875E1   4.919361614954197E-1   1.692869549134561E2  
 6.855000000000000E10    8.911109216692240E-2  -8.712009848481529E1   2.818425321617808E-3  -2.533439614662940E1   2.739116673872020E-3  -2.481304033634529E1   5.053028348991933E-1   1.571579380600794E2  
 6.860000000000000E10    1.083479062255286E-1  -1.171455044342862E2   2.721903848856391E-3  -6.684187918795064E1   2.872223502241346E-3  -6.619063934686670E1   5.086031414890752E-1   1.449340036703150E2  
 6.865000000000000E10    1.229067338663544E-1  -1.432614937436492E2   2.848181203026181E-3  -1.080062446043856E2   2.767541351601295E-3  -1.079658372439461E2   5.036606112259087E-1   1.330038176713871E2  
 6.870000000000000E10    1.282725887823082E-1  -1.656658150163188E2   2.876101435003728E-3  -1.513308314547329E2   2.894150142796122E-3  -1.470677063119152E2   4.907030167696504E-1   1.216878990078062E2  
 6.875000000000000E10    1.246234049063740E-1   1.744577047458317E2   2.842932433949027E-3   1.676749064406708E2   2.907206285242939E-3   1.703525026931757E2   4.728331380895786E-1   1.115138699151155E2  
 6.880000000000000E10    1.115235476851382E-1   1.584896634906881E2   3.080351421441645E-3   1.215719264685877E2   2.905881438428156E-3   1.300766623984322E2   4.538308866661929E-1   1.026465395404978E2  
 6.885000000000000E10    9.364325589477611E-2   1.497152516756652E2   2.996728218184184E-3   8.230465908004935E1   3.051049785907029E-3   8.453656576066406E1   4.442622067022178E-1   9.494499222498733E1  
 6.890000000000000E10    7.777364257947914E-2   1.502078220557020E2   2.799152296755645E-3   3.615151382793300E1   2.847742120313237E-3   3.889067619441579E1   4.438650191162146E-1   8.763485474421158E1  
 6.895000000000000E10    7.961898429358533E-2   1.590256274560949E2   3.006903699429458E-3  -4.942520002886139   2.932376641368547E-3  -1.004830684819745   4.544436491684725E-1   7.948925628572208E1  
 6.900000000000000E10    9.916252119647366E-2   1.617719048632548E2   2.821888862813408E-3  -4.862427909357250E1   2.895735060045415E-3  -4.313764287740738E1   4.719687644138547E-1   7.009858480867551E1  
 6.905000000000000E10    1.264241192518303E-1   1.543070901664793E2   2.479631241886968E-3  -8.792473341035519E1   2.711109221346990E-3  -8.750352044629334E1   4.886742978528855E-1   5.934810901835650E1  
 6.910000000000000E10    1.506304112843514E-1   1.423273321063249E2   2.756254591764957E-3  -1.342145319558564E2   2.768492739354358E-3  -1.252312392886032E2   4.985906291009010E-1   4.726950479111640E1  
 6.915000000000000E10    1.682666822608283E-1   1.274983613344473E2   2.813882212946775E-3  -1.699523975406204E2   2.856788594103868E-3  -1.661471529913218E2   5.005967877863022E-1   3.448229130278337E1  
 6.920000000000000E10    1.771594362303091E-1   1.115367903122077E2   2.718946337958295E-3   1.490681807104139E2   2.903169217441637E-3   1.519735219722600E2   4.919410595275787E-1   2.137830746674167E1  
 6.925000000000000E10    1.767403448676695E-1   9.651208866443454E1   2.940670252900399E-3   1.017337303334855E2   2.957051927554058E-3   1.117134258682659E2   4.763943550202765E-1   8.395378824243334  
 6.930000000000000E10    1.685963740400484E-1   8.220644574736836E1   2.980445934227827E-3   6.764884430513955E1   2.963059191156354E-3   6.863028862263180E1   4.515103543604904E-1  -3.918577571977378  
 6.935000000000000E10    1.534214186540855E-1   6.992762134531942E1   3.004033693215984E-3   2.326129519410469E1   3.035533364893064E-3   2.445069772127891E1   4.221231232040149E-1  -1.480488825901731E1  
 6.940000000000000E10    1.373502780722259E-1   6.093416305125504E1   2.944617880946453E-3  -2.108760507799877E1   3.082182375005684E-3  -1.287114757099225E1   3.974165647682703E-1  -2.417898847655930E1  
 6.945000000000000E10    1.277227100208815E-1   5.540098134160340E1   3.163271792200688E-3  -6.971266127227310E1   2.909749832938953E-3  -5.755685245352801E1   3.832359505751040E-1  -3.207987091717469E1  
 6.950000000000000E10    1.261613161078647E-1   5.149054540933285E1   2.869304735648098E-3  -1.052507621988556E2   3.185188471435498E-3  -1.028229959063811E2   3.843346954313119E-1  -3.948152019901421E1  
 6.955000000000000E10    1.323874294406490E-1   4.530587711080926E1   2.837502496724830E-3  -1.448015669563742E2   2.966064062223076E-3  -1.436552781819621E2   3.999520745833381E-1  -4.789137198659198E1  
 6.960000000000000E10    1.440854021004272E-1   3.563947296884624E1   3.007661916495207E-3   1.683399448382189E2   3.047329140679375E-3   1.743140594617345E2   4.231074980655369E-1  -5.830630267496866E1  
 6.965000000000000E10    1.552557647722142E-1   2.245676395458940E1   2.851839435472124E-3   1.301603726166940E2   3.027190847450716E-3   1.323751874881850E2   4.446835920301353E-1  -7.043312591498592E1  
 6.970000000000000E10    1.615663542912494E-1   7.581986444446240   2.847837696410833E-3   8.383291885548368E1   2.900000145149777E-3   8.931899745289228E1   4.595831535500311E-1  -8.365885179306910E1  
 6.975000000000000E10    1.618568676326413E-1  -8.647841496771976   2.935392932120505E-3   4.494370869345045E1   2.999942089587602E-3   5.155870118244405E1   4.670101226279553E-1  -9.755254069923834E1  
 6.980000000000000E10    1.569420437267861E-1  -2.554437769192823E1   2.890205390101572E-3   3.749556812381870   2.809279895172819E-3   8.991942617568496   4.634059679275713E-1  -1.114905297919456E2  
 6.985000000000000E10    1.472606907592367E-1  -4.082332452726519E1   2.793310317471315E-3  -3.490077443669709E1   2.851585246515830E-3  -2.961918321294393E1   4.487951723888013E-1  -1.249230960603469E2  
 6.990000000000000E10    1.344245488106183E-1  -5.415909094797220E1   2.982981590779936E-3  -7.441345522081183E1   3.114426126126808E-3  -7.315903261996529E1   4.256454488514264E-1  -1.376099466978698E2  
 6.995000000000000E10    1.235037321466874E-1  -6.382379429626064E1   2.981486612688332E-3  -1.185423336443337E2   3.023989857145997E-3  -1.116383741134617E2   3.980422848374180E-1  -1.485835601957758E2  
 7.000000000000000E10    1.189338395036372E-1  -6.974695991516964E1   3.301270286763211E-3  -1.625605786811783E2   3.144726242803645E-3  -1.576719151271382E2   3.714904368042080E-1  -1.574791156394615E2  
 7.005000000000000E10    1.234085603355580E-1  -7.422700754451776E1   3.212160735826924E-3   1.555348773021220E2   3.147362767285013E-3   1.629772586369556E2   3.553132773482396E-1  -1.642569780613017E2  
 7.010000000000000E10    1.395284312113928E-1  -8.210017913431113E1   2.823662019135827E-3   1.124662889453633E2   3.123109341429348E-3   1.172832386365687E2   3.567423962924919E-1  -1.701058253613368E2  
 7.015000000000000E10    1.601667444289318E-1  -9.283910959306891E1   2.975902656424486E-3   7.225420524691951E1   3.001812256177733E-3   7.676444076725211E1   3.737126136405247E-1  -1.772738569087139E2  
 7.020000000000000E10    1.811146705958578E-1  -1.066097441352910E2   3.040919164793816E-3   2.844529736936790E1   3.091903264099202E-3   3.352155099925110E1   3.972375496379559E-1   1.733948630675486E2  
 7.025000000000000E10    1.976798472609943E-1  -1.226399433757110E2   3.048545920948539E-3  -1.283884197330664E1   3.156862116423223E-3  -6.049281591453775   4.205124045561730E-1   1.619963782740076E2  
 7.030000000000000E10    2.097150221604653E-1  -1.391894887759104E2   2.986224840467003E-3  -5.376616874276748E1   2.903491357949436E-3  -4.984393025342958E1   4.365586704938699E-1   1.494929800959031E2  
 7.035000000000000E10    2.127613696311240E-1  -1.554743966998094E2   2.819006829585868E-3  -9.528711224431663E1   3.026681013101363E-3  -8.875071974601515E1   4.421523200598009E-1   1.363573901547329E2  
 7.040000000000000E10    2.054078204258772E-1  -1.710114554187847E2   2.974232159556118E-3  -1.363617517785641E2   3.037024217233482E-3  -1.291710077468856E2   4.359505045867761E-1   1.228849509004910E2  
 7.045000000000000E10    1.926667267121149E-1   1.752871049034058E2   3.211582446603266E-3  -1.772166422646576E2   3.130912271081568E-3  -1.682329848624465E2   4.199907764155588E-1   1.099876820466844E2  
 7.050000000000000E10    1.744296528926778E-1   1.648606827773473E2   3.046884612745994E-3   1.425722483565254E2   3.095866029874951E-3   1.514621150577134E2   3.947798614030949E-1   9.809770531292912E1  
 7.055000000000000E10    1.582509190533516E-1   1.587512459908002E2   3.166177399554743E-3   1.019171526641886E2   3.347094392547130E-3   1.070072498917455E2   3.636129170941287E-1   8.783926736615422E1  
 7.060000000000000E10    1.538063939691739E-1   1.567844098834427E2   3.256176553619677E-3   5.745950890845592E1   3.250033460494792E-3   6.370043068966074E1   3.376881522274288E-1   7.985696341400175E1  
 7.065000000000000E10    1.664407891108668E-1   1.547280210405921E2   3.329793437804183E-3   1.661624965124227E1   3.315655118887970E-3   2.185546151664704E1   3.215462579437894E-1   7.405299403606986E1  
 7.070000000000000E10    1.885210645702568E-1   1.487506589253355E2   3.083092563910198E-3  -2.442228207833741E1   3.191304441377368E-3  -2.139301536273947E1   3.219829053139139E-1   6.859658845336014E1  
 7.075000000000000E10    2.157247742480105E-1   1.382978450808057E2   3.115618941230893E-3  -6.527757629133048E1   3.169974030444640E-3  -6.263143193629389E1   3.366662182491680E-1   6.170269638200740E1  
 7.080000000000000E10    2.403438084613800E-1   1.247130745654064E2   3.358132606199347E-3  -1.081698595489021E2   3.141379306150141E-3  -1.032221999830453E2   3.584157075959031E-1   5.209963672061927E1  
 7.085000000000000E10    2.551862873089709E-1   1.092640974890674E2   3.012199470881567E-3  -1.508453740123651E2   3.034002220157820E-3  -1.442258034778944E2   3.751919835197590E-1   4.047841020493309E1  
 7.090000000000000E10    2.619831079814094E-1   9.307758576816084E1   3.133681948505473E-3   1.659106094026811E2   3.141166083941503E-3   1.757522192773748E2   3.866137041668072E-1   2.720435484182949E1  
 7.095000000000000E10    2.554685065091701E-1   7.637029881488796E1   3.047272992688302E-3   1.290095225077662E2   3.020944670251894E-3   1.378813722208725E2   3.878997817839530E-1   1.327145053136619E1  
 7.100000000000000E10    2.399064622555485E-1   6.026064606393696E1   3.144801971149871E-3   8.800588825471168E1   3.242491162766588E-3   9.480111495295360E1   3.796382839631715E-1  -1.200903841537659  
 7.105000000000000E10    2.121710030401134E-1   4.550546153932718E1   3.172389945532886E-3   4.766714031750365E1   3.282423414736012E-3   5.385049258678640E1   3.625542118092105E-1  -1.496892563664876E1  
 7.110000000000000E10    1.788681096640693E-1   3.339094269222333E1   3.315836274110645E-3  -3.172812990541155E-1   3.249350054286968E-3   1.048275573652482E1   3.386184314019213E-1  -2.787168622112990E1  
 7.115000000000000E10    1.487438437748663E-1   2.734659600790322E1   3.080227257111875E-3  -3.617191648569641E1   3.308156191517605E-3  -2.912738424116272E1   3.119923452789180E-1  -3.931739172872363E1  
 7.120000000000000E10    1.315140917358618E-1   2.815310951945878E1   3.110163359228901E-3  -7.625081476876676E1   3.429086559278837E-3  -7.221104706456526E1   2.915339221893655E-1  -4.815525675576131E1  
 7.125000000000000E10    1.404725131819099E-1   3.054615303723435E1   3.248479715715518E-3  -1.215740052842010E2   3.378063819138234E-3  -1.162828554719499E2   2.800378875397280E-1  -5.522907021102377E1  
 7.130000000000000E10    1.648455632371834E-1   2.657266923648408E1   3.195521369394756E-3  -1.638820052090969E2   3.366927302388359E-3  -1.577391243129538E2   2.850994771443213E-1  -6.213284567587820E1  
 7.135000000000000E10    1.986044827704653E-1   1.550012057460706E1   3.429811398289246E-3   1.574112467756815E2   3.296331108871843E-3   1.607041545852403E2   2.994904279282357E-1  -7.028601428467786E1  
 7.140000000000000E10    2.258899661679041E-1   1.678100369617850E-1   3.362942789034742E-3   1.116908933823573E2   3.367685398292607E-3   1.206286604942695E2   3.207547885567860E-1  -8.046464421249073E1  
 7.145000000000000E10    2.481202642408386E-1  -1.748134770101952E1   3.148482758509864E-3   7.302633944583447E1   3.218234732837734E-3   7.895626907203247E1   3.417529809366995E-1  -9.239765613424767E1  
 7.150000000000000E10    2.597581205838538E-1  -3.600414786896597E1   2.940400723155318E-3   2.774476173964908E1   3.088485918853035E-3   3.979642666670045E1   3.572783161850768E-1  -1.054425594279685E2  
 7.155000000000000E10    2.611000166591955E-1  -5.479264623850843E1   3.208119611116557E-3  -5.055676325334435   3.040965155003807E-3  -3.332352754110116   3.638658732865013E-1  -1.186806139593154E2  
 7.160000000000000E10    2.510393589061514E-1  -7.333269384000535E1   3.169179807937080E-3  -4.780145844450557E1   3.211292942066128E-3  -4.096201277368921E1   3.640024227552958E-1  -1.316671496045521E2  
 7.165000000000000E10    2.307081951740967E-1  -9.102260781853448E1   3.086915638679451E-3  -8.799280918096400E1   3.234687179628381E-3  -8.392296383279816E1   3.558479044581552E-1  -1.440965599028170E2  
 7.170000000000000E10    2.021411186839355E-1  -1.063061553388035E2   3.262228171018579E-3  -1.306017297639386E2   3.267656854489041E-3  -1.222735458568633E2   3.425333790817135E-1  -1.550450701159235E2  
 7.175000000000000E10    1.697233297398674E-1  -1.174418012544241E2   3.393572802121737E-3  -1.698270578793963E2   3.275061548829458E-3  -1.653035925541379E2   3.288445700074231E-1  -1.643936404230762E2  
 7.180000000000000E10    1.422582488337668E-1  -1.211417691798503E2   3.367085401461933E-3   1.481135019766884E2   3.440363179712294E-3   1.524452606476574E2   3.193426806533747E-1  -1.719513496097741E2  
