#  HZ   S   MA   R     50.00 
! Rohde & Schwarz ZVA67 4Ports - Version 4.11 - 1305.7002k04 SN: 101051
! Date: 2023-09-13 16:03:28
! Measurements: S11 S21 S12 S22 
! 
 6.705000000000000E10    3.475933858871901E-1   1.050511687359229E2   4.767452325782591E-3   1.537750851364658E2   4.711655075113439E-3   1.599903337611208E2   3.765406681294389E-1   1.085029563285987E2  
 6.710000000000000E10    3.501130608309157E-1   4.843086227907740E1   5.075029706633307E-3   1.015277294796177E2   4.991671882193963E-3   1.047576307511655E2   9.137597241098076E-2   1.080946867619258E2  
 6.715000000000000E10    3.903332643577115E-1  -2.499211910211675   4.550879685752822E-3   4.677334626518304E1   4.579444765923879E-3   5.203771195005256E1   2.695957838294906E-1  -1.656993187107904E2  
 6.720000000000000E10    4.442167367918930E-1  -4.541980091055835E1   3.889455480373403E-3  -3.630483235139228   3.877081743939871E-3   1.741152966092787   4.989246086689337E-1   1.690782611477662E2  
 6.725000000000000E10    4.897421783758129E-1  -8.236432462117114E1   3.118672908219238E-3  -4.632909248763578E1   3.362350581095720E-3  -4.233592492379099E1   6.270755318865670E-1   1.438512654612730E2  
 6.730000000000000E10    5.228887929340534E-1  -1.160621264524622E2   2.734121389240089E-3  -8.221305426863755E1   2.981903351892822E-3  -7.614184836353388E1   6.890897606113552E-1   1.210412059228561E2  
 6.735000000000000E10    5.338063766699641E-1  -1.482306001404999E2   2.725935553944989E-3  -1.153612793053817E2   2.744307167725067E-3  -1.120466392963812E2   7.143832873973437E-1   9.950659229579104E1  
 6.740000000000000E10    5.260072823665583E-1   1.789765724418288E2   2.684085171382727E-3  -1.545890677097774E2   2.932352181287241E-3  -1.484628293426795E2   7.170132282723020E-1   7.824907350400294E1  
 6.745000000000000E10    4.945591695120347E-1   1.434997859380362E2   2.905928109764784E-3   1.741802723126402E2   3.051068165248644E-3   1.766181644064734E2   6.972520401410989E-1   5.606270807351005E1  
 6.750000000000000E10    4.416129374664528E-1   1.031724828118478E2   3.288153864816579E-3   1.330732409974790E2   3.649959913673222E-3   1.357116689327189E2   6.551384576795115E-1   3.265071956551881E1  
 6.755000000000000E10    3.815820278593360E-1   5.461765258483021E1   4.239956037557716E-3   8.775972577331105E1   4.019707424261802E-3   9.319479260278027E1   5.727100093810233E-1   6.376671855310424  
 6.760000000000000E10    3.458957878364041E-1  -2.289343671047169   4.729042391991809E-3   4.441656217844211E1   4.693161291206320E-3   4.571528858053684E1   4.387691587425234E-1  -2.432668664792193E1  
 6.765000000000000E10    3.652940493957731E-1  -5.910784142200677E1   5.305907022188701E-3  -8.318815329414676   5.122537641715125E-3  -6.531193493543527   2.252482955128123E-1  -6.300693289441101E1  
 6.770000000000000E10    4.147794648327055E-1  -1.078165313320783E2   5.030054223069038E-3  -6.067667634999879E1   5.023371508807661E-3  -5.747445147727804E1   6.486100298420149E-2   1.260719368880099E2  
 6.775000000000000E10    4.615091915718289E-1  -1.484619682765757E2   4.597674865655770E-3  -1.160089939959464E2   4.560546157668276E-3  -1.069597795941972E2   3.096117029003056E-1   6.002839809929538E1  
 6.780000000000000E10    4.935523862955095E-1   1.759905115619858E2   3.839775497026141E-3  -1.559034657117616E2   3.839309365930832E-3  -1.551827033636060E2   4.890112053033296E-1   2.449530406974231E1  
 6.785000000000000E10    5.082345981248218E-1   1.425179037668096E2   3.315504631599787E-3   1.659532650332608E2   3.497969510956710E-3   1.690626834523789E2   5.960609717118965E-1  -5.375606919251466  
 6.790000000000000E10    5.064082649987817E-1   1.089815059212521E2   3.252403943552140E-3   1.237968363062636E2   3.333190128968555E-3   1.288822801836043E2   6.570225869290439E-1  -3.181401907870304E1  
 6.795000000000000E10    4.896037467947901E-1   7.382988645278148E1   3.197073488010618E-3   8.659272037892688E1   3.175702993658756E-3   9.341953298453591E1   6.882450140142042E-1  -5.616102457261261E1  
 6.800000000000000E10    4.624855402520333E-1   3.509802217329805E1   3.169230327496700E-3   5.018790821812195E1   3.370189313245545E-3   5.496371444737839E1   6.962936393690442E-1  -7.918791980827179E1  
 6.805000000000000E10    4.356398056465348E-1  -8.133219500765570   3.663606660976402E-3   1.606157502862388E1   3.492672003903807E-3   1.724381874316846E1   6.857519207545320E-1  -1.022056021970942E2  
 6.810000000000000E10    4.190305495028172E-1  -5.525933217639727E1   3.646239557549573E-3  -2.918100177535386E1   3.461216265892726E-3  -2.164159199015559E1   6.478353519647296E-1  -1.254963931219232E2  
 6.815000000000000E10    4.131942464368106E-1  -1.038863165363835E2   4.288870216736043E-3  -7.119867818353768E1   3.962220512233602E-3  -6.585400911523765E1   5.762537726277978E-1  -1.506853965764986E2  
 6.820000000000000E10    4.198952609696820E-1  -1.513586403905237E2   4.559214846355894E-3  -1.158153162689309E2   4.444498806507249E-3  -1.114362895002606E2   4.408424542800545E-1  -1.786898343100601E2  
 6.825000000000000E10    4.280845076553392E-1   1.640406947076558E2   5.048182343055875E-3  -1.638686939901025E2   5.152527555555639E-3  -1.599376654612969E2   2.122892119959312E-1   1.496342674824391E2  
 6.830000000000000E10    4.290311407677248E-1   1.211786587539976E2   5.396238909882040E-3   1.436209946054799E2   4.985791264785476E-3   1.487094086607573E2   9.535314635711051E-2  -7.301442534342871E1  
 6.835000000000000E10    4.269829464745448E-1   7.938502975777662E1   4.708769258897269E-3   9.319512259747562E1   4.763199736215380E-3   9.840967171930450E1   3.735133865502219E-1  -1.038697922177733E2  
 6.840000000000000E10    4.222885115685737E-1   3.737488126274266E1   3.912595175568848E-3   4.629115952280783E1   3.935276022944201E-3   4.960126851224823E1   5.585288841775261E-1  -1.332158839922854E2  
 6.845000000000000E10    4.269525215491555E-1  -4.635325172228752   3.662367949680415E-3   8.843037056782594   3.519207488100761E-3   1.108131693689426E1   6.607025129413726E-1  -1.581913286219684E2  
 6.850000000000000E10    4.402609687421508E-1  -4.671655257215667E1   2.990314158925724E-3  -3.205779203343123E1   3.187916938838306E-3  -2.487396464499968E1   7.125575796054781E-1  -1.798547294912131E2  
 6.855000000000000E10    4.611436877922840E-1  -8.721060318511063E1   2.950479389842915E-3  -6.453716666701502E1   3.153847754573654E-3  -6.251524998587160E1   7.349007999300983E-1   1.600985722868219E2  
 6.860000000000000E10    4.821499794864629E-1  -1.259862742351741E2   2.890975815117177E-3  -1.026409195100192E2   3.038703197922149E-3  -9.589554086408292E1   7.354499928236421E-1   1.407887627184340E2  
 6.865000000000000E10    4.953540301244311E-1  -1.635633449538780E2   3.347529346032297E-3  -1.360627448281105E2   3.296251780060315E-3  -1.322570681544865E2   7.126493317508623E-1   1.213145341040486E2  
 6.870000000000000E10    4.906851452567610E-1   1.589587249494387E2   3.597616994518257E-3  -1.757408450598222E2   3.570630365666392E-3  -1.708272462675509E2   6.583571619885181E-1   1.005694282020530E2  
 6.875000000000000E10    4.634489703612441E-1   1.201126274646953E2   3.986789678926211E-3   1.406629152813950E2   4.259505465428855E-3   1.462238344128018E2   5.529454953221100E-1   7.737441525980003E1  
 6.880000000000000E10    4.172032208178253E-1   7.758204063776844E1   4.829129082601707E-3   9.557427108970634E1   4.872514586571805E-3   9.978753654424843E1   3.571599104734233E-1   5.125718046484438E1  
 6.885000000000000E10    3.638361166775869E-1   2.907804689600222E1   5.455625666149057E-3   4.082506870255784E1   5.432394085482882E-3   4.748289857695696E1   6.730512111927507E-2   5.117284000315298E1  
 6.890000000000000E10    3.370771099466263E-1  -2.564558622984464E1   5.015075748731632E-3  -1.006851101519050E1   5.128595186292355E-3  -6.170184181240580   2.780421972992626E-1   1.466002095712688E2  
 6.895000000000000E10    3.566739710706788E-1  -7.961512759206944E1   4.319351883458213E-3  -6.143121515984914E1   4.382320174225183E-3  -5.563666286506295E1   5.078116651281782E-1   1.198518321290071E2  
 6.900000000000000E10    4.064541635481199E-1  -1.265215997516702E2   3.689140113204223E-3  -1.054138871828377E2   3.787277381054884E-3  -9.716242259168195E1   6.374419994973568E-1   9.509826872665238E1  
 6.905000000000000E10    4.606882489364667E-1  -1.660358209095597E2   3.111393003320772E-3  -1.408975175926207E2   3.127035061742827E-3  -1.358967093396801E2   7.014438188670210E-1   7.313587983964315E1  
 6.910000000000000E10    5.041945375164455E-1   1.593356141891998E2   3.036627628683522E-3  -1.763922059561932E2   3.069154928691018E-3  -1.745061664205239E2   7.281591446320520E-1   5.267821525238507E1  
 6.915000000000000E10    5.282843057052660E-1   1.270691721184536E2   2.787423984538487E-3   1.491324855076032E2   2.939299640226669E-3   1.542412369819806E2   7.314087409985564E-1   3.285274614067348E1  
 6.920000000000000E10    5.347192602657966E-1   9.514396249239870E1   2.901041642184735E-3   1.135496026491512E2   2.911333642539240E-3   1.219913399153318E2   7.127535798744855E-1   1.245868919227978E1  
 6.925000000000000E10    5.144911176474684E-1   6.206068806584017E1   3.265917648499543E-3   7.546994533970360E1   3.384463158049425E-3   8.165999094319274E1   6.728612894232393E-1  -9.069524950358408  
 6.930000000000000E10    4.711090722126006E-1   2.579433374638268E1   4.009577092136525E-3   3.816871746483152E1   3.868376624056849E-3   4.234202880206883E1   5.909861481405778E-1  -3.318270680308879E1  
 6.935000000000000E10    4.036637235037092E-1  -1.688466498528716E1   4.878008906098214E-3  -7.070156556876823   4.623817250127242E-3  -1.821782349436615   4.471627794473108E-1  -6.124425903389948E1  
 6.940000000000000E10    3.353285419136670E-1  -6.904235982983846E1   5.473550840447271E-3  -5.758827422480336E1   5.440212149459200E-3  -5.298067212079401E1   2.177033982506265E-1  -9.641872900378533E1  
 6.945000000000000E10    3.075006425915763E-1  -1.297012461020526E2   5.487484449802429E-3  -1.134773902522429E2   5.596758740559559E-3  -1.053799608411052E2   8.368338298786851E-2   6.927661581893230E1  
 6.950000000000000E10    3.398029472799650E-1   1.724499214921076E2   5.064607579761164E-3  -1.649270264859410E2   4.987686396225760E-3  -1.581270226294271E2   3.518711029205618E-1   2.281995450494595E1  
 6.955000000000000E10    3.988875842497025E-1   1.253703873606179E2   4.232934927401289E-3   1.514749465179913E2   4.139255685553866E-3   1.542073827523329E2   5.318806670530371E-1  -8.703111040964584  
 6.960000000000000E10    4.531558167211210E-1   8.615284431705108E1   3.591833210270800E-3   1.099372584414359E2   3.479240647392614E-3   1.151494518142993E2   6.353252183785857E-1  -3.543564245554002E1  
 6.965000000000000E10    4.935352223290737E-1   5.153600555043014E1   3.105221252460772E-3   7.029146689160051E1   3.057529883977365E-3   7.505446034190292E1   6.876700253663745E-1  -5.902244731537500E1  
 6.970000000000000E10    5.180489944147069E-1   1.898415826033146E1   2.973855166998448E-3   3.614491230321747E1   2.890636739207194E-3   4.085402657737124E1   7.092150783965295E-1  -8.104040229695950E1  
 6.975000000000000E10    5.253270511297316E-1  -1.331369064213328E1   2.654014048117992E-3   1.148886346511632   2.828582645848740E-3   6.880197765041148   7.099553132917537E-1  -1.024554645424190E2  
 6.980000000000000E10    5.157892997077317E-1  -4.659860672680409E1   2.915103385500825E-3  -2.787494936875649E1   3.068097963341628E-3  -2.686261392671891E1   6.880260091730708E-1  -1.241222047099294E2  
 6.985000000000000E10    4.889615351923171E-1  -8.169047347690631E1   3.093807269967412E-3  -6.864021006082706E1   3.411037827966797E-3  -6.471327373889588E1   6.376438061627263E-1  -1.470467324885978E2  
 6.990000000000000E10    4.431186803869219E-1  -1.208518530602552E2   3.688422334157754E-3  -1.089237936906750E2   3.976761162391001E-3  -1.030659171477003E2   5.465532777531071E-1  -1.727518993473415E2  
 6.995000000000000E10    3.818473156822698E-1  -1.656278939968105E2   4.752311595658965E-3  -1.536127099563415E2   4.729608931677486E-3  -1.500218575173307E2   3.888038678183213E-1   1.565518087327092E2  
 7.000000000000000E10    3.245483416680909E-1   1.412134035106930E2   4.858272666955108E-3   1.557146561297922E2   5.095998540508636E-3   1.596945449794369E2   1.531626457410960E-1   1.120538376211849E2  
 7.005000000000000E10    3.075776653056268E-1   8.126217070692354E1   5.287426341066593E-3   1.018004924595385E2   5.278084239740852E-3   1.055828297133125E2   1.522482759491291E-1  -6.397130269296761E1  
 7.010000000000000E10    3.423446077652926E-1   2.495798263405408E1   4.505703608915009E-3   5.058985133343199E1   4.499541548244773E-3   5.693211168350494E1   3.934576876554102E-1  -1.091864189713573E2  
 7.015000000000000E10    4.032763399322629E-1  -2.167965450389460E1   3.800771757196910E-3   5.183147564059872   3.753438831080057E-3   1.181119401117417E1   5.525384497942311E-1  -1.404211951358184E2  
 7.020000000000000E10    4.624774419528140E-1  -6.025843912645473E1   3.282837272826973E-3  -3.427039130963854E1   3.317541059798214E-3  -2.902490083400733E1   6.421708437413518E-1  -1.665203827161074E2  
 7.025000000000000E10    5.081313877156540E-1  -9.430199188982759E1   2.818756325982118E-3  -7.305794478891248E1   2.736492897804137E-3  -6.591619720857005E1   6.861791714982771E-1   1.702279542475426E2  
 7.030000000000000E10    5.394910696449399E-1  -1.257159593996976E2   2.665668813089937E-3  -1.053785411045206E2   2.784389844292800E-3  -9.935612088555848E1   7.008859506917190E-1   1.483646201258204E2  
 7.035000000000000E10    5.526506319073760E-1  -1.557295601302614E2   2.691993360170701E-3  -1.338802741248252E2   2.628593979594482E-3  -1.328955937401211E2   6.916888892500439E-1   1.268056323899627E2  
 7.040000000000000E10    5.446426188808676E-1   1.740365105708206E2   2.918304652146785E-3  -1.724543741535274E2   2.983143907887348E-3  -1.670663477511082E2   6.573588131937099E-1   1.042707581526789E2  
 7.045000000000000E10    5.139257347463014E-1   1.420517116110165E2   3.169426293820127E-3   1.495972196044173E2   3.231061782889590E-3   1.574624005373698E2   5.880786012262954E-1   7.980615054741190E1  
 7.050000000000000E10    4.521829291544959E-1   1.060503536326780E2   4.003814383424585E-3   1.097916833427452E2   3.876835702212172E-3   1.135040433922906E2   4.671058435058549E-1   5.128035609432587E1  
 7.055000000000000E10    3.633793790348104E-1   6.225264193753939E1   4.588005990953535E-3   6.118688580309427E1   4.551612291480067E-3   6.740486263178752E1   2.767674426993461E-1   1.396541370775932E1  
 7.060000000000000E10    2.794780460382419E-1   3.836868855415449   4.912858730075878E-3   1.027778482338977E1   5.007222901455875E-3   1.531541440183506E1   8.066169060350312E-2  -8.767766531743848E1  
 7.065000000000000E10    2.734201962873943E-1  -6.687049083283345E1   4.701218455457620E-3  -4.155905420338606E1   4.691479388929601E-3  -3.649430239613577E1   2.655357505151338E-1   1.616294285582905E2  
 7.070000000000000E10    3.510060033647759E-1  -1.246328951355963E2   4.039684227728706E-3  -9.061750390760665E1   4.070654725936788E-3  -8.534778701601070E1   4.560936450508643E-1   1.231382579908282E2  
 7.075000000000000E10    4.386910165846666E-1  -1.669549582205468E2   3.415872951541872E-3  -1.321849781300308E2   3.349904255434496E-3  -1.260113022829759E2   5.762366676903376E-1   9.354110791793353E1  
 7.080000000000000E10    5.055748051911402E-1   1.588416026421666E2   2.834033977515988E-3  -1.698166300976274E2   2.929707790344544E-3  -1.620254011813092E2   6.431105652095017E-1   6.761753161875767E1  
 7.085000000000000E10    5.490845644609179E-1   1.287930496021934E2   2.489559689675308E-3   1.499099428086565E2   2.721271025782175E-3   1.588285238328902E2   6.702560015408009E-1   4.376652967453154E1  
 7.090000000000000E10    5.703246023799694E-1   1.005858185064991E2   2.638522100408505E-3   1.168363236922387E2   2.637574972390570E-3   1.268998426031736E2   6.723046034218839E-1   2.027050637930664E1  
 7.095000000000000E10    5.711010880291092E-1   7.253698791253412E1   2.673020122126231E-3   8.615190690607579E1   2.774684447225702E-3   9.219573765189669E1   6.490976264354822E-1  -3.633615789386898  
 7.100000000000000E10    5.524797192593673E-1   4.340966263366052E1   2.835945813213856E-3   4.782260202737306E1   3.056915331967119E-3   5.901039224394291E1   5.979408829812731E-1  -2.949275909125806E1  
 7.105000000000000E10    5.075019692275339E-1   1.132133228939816E1   3.325326251278034E-3   1.131118951855035E1   3.272782298723853E-3   1.770638568453263E1   5.102926202697297E-1  -5.829759642223081E1  
 7.110000000000000E10    4.360755315381381E-1  -2.618161590368852E1   3.885117032024070E-3  -2.883423674266652E1   3.923863583575725E-3  -2.594727845808886E1   3.736639789887520E-1  -9.337310943220260E1  
 7.115000000000000E10    3.477692601938642E-1  -7.266020767040197E1   4.466140809363262E-3  -7.769390837251405E1   4.445232122928292E-3  -7.310633894970854E1   1.993692002342523E-1  -1.462771015966692E2  
 7.120000000000000E10    2.829971346368787E-1  -1.338929562828908E2   4.455069438106518E-3  -1.290741449345578E2   4.452993505916222E-3  -1.236801983167478E2   1.535241287882844E-1   9.870155698015900E1  
 7.125000000000000E10    2.979623803637551E-1   1.592417852798917E2   4.528355700327095E-3  -1.789074838091042E2   4.104283706738823E-3  -1.742379272993414E2   3.218322143745505E-1   3.064015272187394E1  
 7.130000000000000E10    3.721198657059401E-1   1.058006634529799E2   3.554460922582528E-3   1.326640199547929E2   3.661718566896875E-3   1.386291404264332E2   4.713109968982797E-1  -8.085979709461570  
 7.135000000000000E10    4.491449746466140E-1   6.443087683237820E1   3.204015314957965E-3   9.575328478293618E1   3.271340923339224E-3   9.792021981466063E1   5.693025669125439E-1  -3.904453303393892E1  
 7.140000000000000E10    5.061592959746141E-1   2.971548032186700E1   2.899404711506588E-3   5.451093434018600E1   2.754762866716002E-3   6.064743817123652E1   6.270300093716476E-1  -6.608950118295988E1  
 7.145000000000000E10    5.453361242534429E-1  -1.387593916403612   2.523984972602120E-3   2.271732288271090E1   2.533099886533140E-3   2.468697113810678E1   6.543678694102331E-1  -9.124340592850412E1  
 7.150000000000000E10    5.649060612997422E-1  -3.072557043715472E1   2.632576587323931E-3  -1.574077657515567E1   2.566075611806664E-3  -1.084305380723954E1   6.545088234051586E-1  -1.154929924886118E2  
 7.155000000000000E10    5.689789320785144E-1  -5.947085352532423E1   2.769349525081063E-3  -5.203801674172878E1   2.759969627904353E-3  -4.353325032811512E1   6.288084874809879E-1  -1.399056663771339E2  
 7.160000000000000E10    5.536638772815211E-1  -8.904975998824382E1   2.850533041489926E-3  -8.492363112059540E1   2.809848814280763E-3  -7.742496105626150E1   5.722513632018397E-1  -1.658611163223148E2  
 7.165000000000000E10    5.196667846704206E-1  -1.206546120609271E2   3.365177624365971E-3  -1.237044199982135E2   3.196027437708894E-3  -1.204120766685273E2   4.688209563920600E-1   1.647905337701863E2  
 7.170000000000000E10    4.590882830109903E-1  -1.558457383451483E2   3.813091521904725E-3  -1.674839166389023E2   3.807787189516528E-3  -1.613135177032615E2   3.075175255233542E-1   1.280784220691247E2  
 7.175000000000000E10    3.776283001570315E-1   1.617730650512610E2   4.090994373516482E-3   1.430493702851143E2   4.154420105272265E-3   1.508897686984890E2   1.190466124855733E-1   5.605927971666116E1  
 7.180000000000000E10    2.950514634841590E-1   1.066579977223950E2   4.229639377416822E-3   9.643059315124104E1   4.212218136162715E-3   1.013452688654926E2   2.115698492806710E-1  -6.898111244446692E1  
