#  HZ   S   MA   R     50.00 
! Rohde & Schwarz ZVA67 4Ports - Version 4.11 - 1305.7002k04 SN: 101051
! Date: 2023-03-28 15:31:20
! Measurements: S11 S12 S13 S21 S22 S23 S31 S32 S33 
! 
 1.000000000000000E8     1.177936888235252E-2  -1.767400218939899E1   9.863859126671820E-1  -3.349543701219587E1   5.253465939795411E-2   5.190085124792167E1  
                         9.865893496934283E-1  -3.351919726466715E1   1.719393731683586E-2  -3.760445676210527E1   2.133526575218245E-3   5.208681738337790E1  
                         5.246504811941835E-2   5.204021464804356E1   2.143117432336419E-3   5.169472538988126E1   2.956894427303058E-3  -5.184803135017314E1  
                        
 1.200000000000000E8     1.286433543160840E-2  -5.430293263897941E1   9.844763325181510E-1  -4.025325205058562E1   6.290396958717069E-2   4.436764175043602E1  
                         9.855845897125984E-1  -4.017889529031918E1   1.751478613080874E-2  -5.527898139618549E1   2.587737439194706E-3   3.971676116375781E1  
                         6.292489862638477E-2   4.446340971963038E1   2.614113490774638E-3   3.876663685858532E1   2.542131164628814E-3  -4.372253866307494E1  
                        
 1.400000000000000E8     1.196451283315643E-2  -5.929086111809635E1   9.841338653307880E-1  -4.697304793017474E1   7.301646666561903E-2   3.678577661324647E1  
                         9.842340024966648E-1  -4.691918714901536E1   1.489515152810878E-2  -4.499037652029841E1   2.982444573520876E-3   3.867561158603464E1  
                         7.308642342730148E-2   3.684825145589587E1   2.910895614236304E-3   3.746257130413696E1   2.097942205987982E-3  -3.471082732878551E1  
                        
 1.600000000000000E8     7.355259678013141E-3  -8.340379676702266E1   9.820437959040936E-1  -5.369651766281814E1   8.310170176829822E-2   2.928129865308910E1  
                         9.820595558198964E-1  -5.360906920096678E1   1.431205862805643E-2  -4.852784849974879E1   3.328203105941429E-3   2.866002306965090E1  
                         8.311569927831847E-2   2.923839060612620E1   3.353036086511217E-3   3.016858741125387E1   1.427339755781921E-3  -4.028539336983377E1  
                        
 1.800000000000000E8     4.843033940099328E-3  -5.950551511870310E1   9.814981547990658E-1  -6.039142260799162E1   9.304501321167549E-2   2.168690858735254E1  
                         9.803203887702088E-1  -6.028182058780779E1   1.473812763174890E-2  -7.494376744589205E1   3.679411899031279E-3   1.676393288721478E1  
                         9.312495279620722E-2   2.163137702208479E1   3.705978651862540E-3   1.695579891815811E1   8.471425283527080E-4  -6.448521049887822E1  
                        
 2.000000000000000E8     8.086378955223104E-3  -8.319854980695367E1   9.794373856098088E-1  -6.702014177849708E1   1.028513101093320E-1   1.413697998336050E1  
                         9.782934783153272E-1  -6.695873312390789E1   1.351818657633945E-2  -9.603889861579064E1   3.996938380103465E-3   5.005782073056198  
                         1.029187767927339E-1   1.410382589323438E1   4.033279342924559E-3   5.574319146226848   2.196696754728314E-4   6.448990064865128  
                        
 2.200000000000000E8     9.697597238727021E-3  -1.201801273019038E2   9.773177559127586E-1  -7.377274649624958E1   1.125871481123571E-1   6.520643239011318  
                         9.757918113659518E-1  -7.369399553726453E1   1.014329393605158E-2  -1.054379692808942E2   4.281544186199465E-3  -6.546313635128944E-1  
                         1.126169436011046E-1   6.472944299610171   4.179609341092641E-3  -1.128432822464566   1.069193468098904E-3   1.102181187762484E2  
                        
 2.400000000000000E8     7.066169013986367E-3  -1.608560656841758E2   9.743207330333739E-1  -8.041480443170249E1   1.219567135581527E-1  -1.058264784298392  
                         9.726861766718850E-1  -8.034098080380778E1   1.179800007667920E-2  -9.716440705892254E1   4.750490080200671E-3  -7.022067288997097  
                         1.220182151733052E-1  -1.088371965034248   4.693717441997846E-3  -6.723965834214826   2.092973576846801E-3   9.881448704362103E1  
                        
 2.600000000000000E8     3.520469893699782E-3  -1.784948395928090E2   9.723345553673622E-1  -8.712064679841198E1   1.313503744242972E-1  -8.650685132877412  
                         9.708014439844729E-1  -8.707919789405963E1   1.450607593247209E-2  -1.216637755313568E2   5.236128174823456E-3  -1.885859195244349E1  
                         1.313831933811133E-1  -8.636519365363174   5.225686292041223E-3  -1.953315307667318E1   3.072215250402282E-3   1.003213990995487E2  
                        
 2.800000000000000E8     6.474713773019207E-3  -1.225669151501197E2   9.701442608781502E-1  -9.377889757283103E1   1.405620008415655E-1  -1.620679723005371E1  
                         9.685007468163500E-1  -9.363787791259011E1   1.092523510676809E-2  -1.301744015021517E2   5.407244610627980E-3  -2.310086856132358E1  
                         1.406269055093907E-1  -1.625806667557744E1   5.390488325123758E-3  -2.413258863969836E1   4.037929414127054E-3   9.541874654153419E1  
                        
 3.000000000000000E8     1.031077294580340E-2  -1.548350022925858E2   9.681793817359056E-1  -1.004734713078674E2   1.494970252536858E-1  -2.382251967513095E1  
                         9.663436893631645E-1  -1.003751732699901E2   9.592752653012446E-3  -1.175393134151742E2   5.841317290035611E-3  -2.882738704746062E1  
                         1.496781187378337E-1  -2.387369733975238E1   5.819581451095414E-3  -2.882036989597893E1   5.346920733268025E-3   9.446093134745703E1  
                        
 3.200000000000000E8     1.050869209331978E-2   1.719845894460965E2   9.655067154040120E-1  -1.070438927875480E2   1.582207680245116E-1  -3.136597135250076E1  
                         9.632910567618365E-1  -1.069365684350574E2   1.428256329069506E-2  -1.285409717357742E2   6.621541800075329E-3  -3.852417695455105E1  
                         1.583371266080241E-1  -3.136046518386589E1   6.600891789289651E-3  -3.830636540150843E1   6.034699580424867E-3   9.403170257952023E1  
                        
 3.400000000000000E8     6.650921274034919E-3   1.354726373268836E2   9.633228792870854E-1  -1.137496976236717E2   1.667090574066087E-1  -3.894937309418103E1  
                         9.609955787278369E-1  -1.136043568633665E2   1.590585982047530E-2  -1.647461595997336E2   6.739405959645319E-3  -5.319362796534352E1  
                         1.668607499803717E-1  -3.895677883299514E1   6.724613919526572E-3  -5.305372329185092E1   6.444332681677223E-3   8.754808093211176E1  
                        
 3.600000000000000E8     5.623447785975431E-3   1.632484724006778E2   9.599213071479308E-1  -1.203586158905269E2   1.749687591514220E-1  -4.653423545387987E1  
                         9.576809507796091E-1  -1.202302679616078E2   1.346047005789346E-2   1.783193121834639E2   6.846746586949203E-3  -6.062838761559340E1  
                         1.751377902288562E-1  -4.657487731863083E1   6.786112682394560E-3  -6.051347205575137E1   7.057347000410040E-3   8.179129557544594E1  
                        
 3.800000000000000E8     1.245115958729308E-2   1.486072806654401E2   9.565496947000176E-1  -1.269811308324705E2   1.829052151020755E-1  -5.413509943831531E1  
                         9.538407158269545E-1  -1.269110066441493E2   1.312125955143519E-2  -1.747050170392504E2   7.241500273421766E-3  -6.569382770872359E1  
                         1.831123991897891E-1  -5.417245876220821E1   7.429035159889092E-3  -6.467079389823203E1   7.825153789611038E-3   7.752282028263684E1  
                        
 4.000000000000000E8     1.637830965239255E-2   1.148588172022564E2   9.542810464878841E-1  -1.336915695213450E2   1.907519841974740E-1  -6.172314118441465E1  
                         9.518604702859791E-1  -1.335816385210216E2   1.688714137712773E-2   1.667022834062698E2   7.797290091865418E-3  -7.620629322906707E1  
                         1.909633170236220E-1  -6.177994237591285E1   7.890079930281560E-3  -7.641054596567344E1   8.681034204625841E-3   7.253301374478731E1  
                        
 4.200000000000000E8     1.436137761014557E-2   7.754839174380227E1   9.496303571308670E-1  -1.402158057969589E2   1.980866162797718E-1  -6.928389163620072E1  
                         9.469062900702410E-1  -1.401271315887989E2   1.291495488837269E-2   1.443763409896390E2   7.623941024143367E-3  -8.316468453413931E1  
                         1.982333757400136E-1  -6.928043312943817E1   7.553567941988418E-3  -8.349848193567958E1   9.232198793117302E-3   7.055612299157362E1  
                        
 4.400000000000000E8     5.832993407417615E-3   7.369286860342989E1   9.501479818131392E-1  -1.469279478661207E2   2.056704935408293E-1  -7.688152667928613E1  
                         9.476808661856714E-1  -1.468052290698871E2   1.214016316066261E-2   1.645178504211723E2   8.424997881110966E-3  -8.686866352431538E1  
                         2.058972678489708E-1  -7.694939950162309E1   8.310330359778377E-3  -8.736477800312537E1   9.853079120689015E-3   6.609359950684204E1  
                        
 4.600000000000000E8     1.152700595403268E-2   1.223602346812250E2   9.430390036152876E-1  -1.535331180938702E2   2.122717454011563E-1  -8.449278330987143E1  
                         9.399465830195366E-1  -1.534470344931025E2   2.076355094170225E-2   1.599774360933746E2   9.638008216102573E-3  -9.884646125878386E1  
                         2.125431705206191E-1  -8.455559109600748E1   9.454662519632293E-3  -9.838812057204306E1   1.035910774808462E-2   6.262642809682397E1  
                        
 4.800000000000000E8     1.925832613272436E-2   9.207309343486737E1   9.443615873114641E-1  -1.601094062756474E2   2.194039510549403E-1  -9.210617310989535E1  
                         9.410177595772731E-1  -1.600283087729992E2   2.570909178544409E-2   1.286930963683926E2   9.508089420861884E-3  -1.140471688363624E2  
                         2.195563211853251E-1  -9.216435614837467E1   9.535081870172985E-3  -1.140421625036451E2   1.097194967453938E-2   5.922438075547545E1  
                        
 5.000000000000000E8     2.157878634677170E-2   5.711656416799465E1   9.383430372197795E-1  -1.667902462364380E2   2.256649152297377E-1  -9.973458156213366E1  
                         9.348376434694481E-1  -1.666853789135909E2   2.139379695408060E-2   1.020313670391804E2   8.658677592708292E-3  -1.223060315200223E2  
                         2.258681516666205E-1  -9.975471637503196E1   8.672093649757854E-3  -1.221400384592326E2   1.207203176301017E-2   5.589298944950424E1  
                        
 5.200000000000000E8     1.628998202284012E-2   3.939916670838738E1   9.371654579507122E-1  -1.733186958970090E2   2.321717443021952E-1  -1.073175868069316E2  
                         9.337555856464803E-1  -1.732171316836363E2   1.584001213287096E-2   1.073215041487151E2   9.091856388450162E-3  -1.237610554894205E2  
                         2.323817924242115E-1  -1.073290384500527E2   9.109362893127753E-3  -1.239268870894844E2   1.296068155437371E-2   5.517768550854154E1  
                        
 5.400000000000000E8     1.613538049241336E-2   5.142396498450646E1   9.342001052963092E-1  -1.799063109245026E2   2.380644443010251E-1  -1.149325845868627E2  
                         9.296285860562538E-1  -1.798228024474912E2   2.161147106953568E-2   1.034459149982837E2   1.000343076458064E-2  -1.348979024803147E2  
                         2.384001894109741E-1  -1.149579707640737E2   1.003935008017012E-2  -1.345748918083075E2   1.463366694874682E-2   5.345320748274084E1  
                        
 5.600000000000000E8     2.262451261134499E-2   4.625856501380893E1   9.319330497370666E-1   1.734621550580697E2   2.438606828698101E-1  -1.225880949330469E2  
                         9.279810487913929E-1   1.735850742611943E2   2.138027016602877E-2   7.712941474023870E1   9.756174224031883E-3  -1.453282927941369E2  
                         2.440999820062719E-1  -1.225907626935836E2   9.845086640432035E-3  -1.450556412986507E2   1.724351489541361E-2   5.158964107560846E1  
                        
 5.800000000000000E8     2.530478819866704E-2   2.574446714375889E1   9.285829253582172E-1   1.669437703276528E2   2.491471587171006E-1  -1.301583400844539E2  
                         9.248155213991586E-1   1.670620153463294E2   1.145871276375487E-2   5.688057078234605E1   9.796101180147513E-3  -1.481598911284888E2  
                         2.493750391819362E-1  -1.301799831956807E2   9.832036764995635E-3  -1.490982193649361E2   2.175046999008131E-2   4.468564103167389E1  
                        
 6.000000000000000E8     1.783394057459895E-2   1.403428410561151E1   9.279372139531799E-1   1.603237966242919E2   2.544961543370715E-1  -1.378337371404238E2  
                         9.242349868674824E-1   1.604040467406549E2   1.251631793878514E-2   1.090741114868091E2   1.175616817893055E-2  -1.590554283453283E2  
                         2.547652839998713E-1  -1.378100004292292E2   1.166220979768867E-2  -1.595733593697323E2   2.627997187228928E-2   3.125131465711649E1  
                        
 6.200000000000000E8     1.653896079283799E-2   4.491129495584309E1   9.217971973941159E-1   1.537948332239388E2   2.590730718295518E-1  -1.454477405116607E2  
                         9.186654286522389E-1   1.539196849623817E2   2.445907451579628E-2   8.644264838089097E1   1.232504068241083E-2   1.788366876277804E2  
                         2.593777198897077E-1  -1.454736315612812E2   1.222180636286166E-2   1.793264902018475E2   2.897141532732958E-2   1.304129124914843E1  
                        
 6.400000000000000E8     2.733635729852747E-2   3.318091305488997E1   9.226516045372960E-1   1.471580909846390E2   2.638445766660499E-1  -1.531484796748611E2  
                         9.195209917690789E-1   1.472805307292078E2   2.393808780787885E-2   4.739718287963277E1   9.842113110526586E-3   1.588422598755866E2  
                         2.642069938636773E-1  -1.531640367884955E2   9.914839657794470E-3   1.591046124401491E2   2.817167863420237E-2  -3.263505478197112  
                        
 6.600000000000000E8     3.199761682838949E-2   1.107604692257350   9.152956289428895E-1   1.406922171239568E2   2.677588731357279E-1  -1.607530587761849E2  
                         9.122068193880260E-1   1.407882029674461E2   1.188139762579389E-2   2.760269114298193E1   7.369474851492487E-3   1.602133424890984E2  
                         2.681316362521557E-1  -1.607327310665365E2   7.422316228154052E-3   1.595527968940448E2   2.635475341040300E-2  -1.564039445027002E1  
                        
 6.800000000000000E8     2.421029777214844E-2  -2.856721096288377E1   9.165265519657672E-1   1.340441401977276E2   2.724031742599320E-1  -1.684522158705516E2  
                         9.131647422602762E-1   1.341898449841758E2   1.544546182009125E-2   6.415697735672273E1   8.342609999716462E-3   1.580744251390203E2  
                         2.726424185917633E-1  -1.684716225461634E2   8.245600764938053E-3   1.573700891477815E2   2.448070509034538E-2  -2.672692020456470E1  
                        
 7.000000000000000E8     1.181451017878826E-2  -2.968552150218090E1   9.111446516921645E-1   1.275367759131586E2   2.761011369229387E-1  -1.761360816148869E2  
                         9.071642318488369E-1   1.276642996961526E2   2.322769930462418E-2   3.628304824224055E1   7.936565368706463E-3   1.400941777948110E2  
                         2.763456676979406E-1  -1.761579262177906E2   7.972674835157755E-3   1.400490280401037E2   2.307966248829410E-2  -3.516937342070800E1  
                        
 7.200000000000000E8     1.918402028461098E-2   2.350901707665201   9.117544096274581E-1   1.209038510006567E2   2.799354098045347E-1   1.760954348464763E2  
                         9.070313448181242E-1   1.210250859239155E2   1.556993564142106E-2  -1.018069734416925   5.413396031265679E-3   1.382730769688705E2  
                         2.801916872403331E-1   1.760842384824148E2   5.597642968035355E-3   1.371010718843385E2   2.197961954033434E-2  -4.331163430345067E1  
                        
 7.400000000000000E8     2.726121612252671E-2  -2.197171206184242E1   9.074288429168450E-1   1.145081884159502E2   2.830629103801410E-1   1.684400107778043E2  
                         9.032707683733605E-1   1.145817772970998E2   6.317442519926275E-3   6.418292015709584E1   6.412868978051565E-3   1.534387444677354E2  
                         2.833981893351467E-1   1.684484358519634E2   6.425360838224183E-3   1.517249709097885E2   2.108429727761631E-2  -5.146565165525172E1  
                        
 7.600000000000000E8     2.104440503399195E-2  -5.163461598521804E1   9.075084049597069E-1   1.078615131407288E2   2.865575989764635E-1   1.606403762456631E2  
                         9.031135161102152E-1   1.079311867217204E2   1.909123709733637E-2   5.237200217794519E1   7.960177929052471E-3   1.353589253814365E2  
                         2.868612389555237E-1   1.606578847225479E2   7.824644001937048E-3   1.349034406754176E2   2.000021117233182E-2  -5.978707128880875E1  
                        
 7.800000000000000E8     8.755311523116498E-3  -3.884734092275352E1   9.036043929126957E-1   1.013995746435963E2   2.893805098328346E-1   1.529348628783273E2  
                         8.993544941974085E-1   1.015072584940944E2   2.169285439194609E-2   7.283179951909971   6.493418933980045E-3   1.111020635933235E2  
                         2.896948214999465E-1   1.529102780243928E2   6.502459037663126E-3   1.115601693317749E2   1.916836574377476E-2  -6.842926656406523E1  
                        
 8.000000000000000E8     1.835393389468666E-2  -1.489926344772212E1   9.026541121287808E-1   9.475980852848552E1   2.922676978655579E-1   1.450954691037761E2  
                         8.992887847820152E-1   9.485801208558324E1   1.141382150726969E-2  -3.273485211325408E1   4.188016392005776E-3   1.180460872966644E2  
                         2.926154705342600E-1   1.450815094989098E2   4.266892610005572E-3   1.177792333949806E2   1.883094319937442E-2  -7.717306716626395E1  
                        
 8.200000000000000E8     2.785546225654502E-2  -5.407616785443835E1   9.006955842498184E-1   8.833939452775472E1   2.946860841052927E-1   1.373651331895721E2  
                         8.975499532502635E-1   8.841610693367439E1   6.048776132338263E-3   7.375890931322264   5.245786462169473E-3   1.250996236611361E2  
                         2.950286037396179E-1   1.373433926299854E2   5.186078710539607E-3   1.250032294563129E2   1.865741802723958E-2  -8.678969252528323E1  
                        
 8.400000000000000E8     2.722097921561352E-2  -1.002345936177214E2   8.997747190302862E-1   8.172778193343889E1   2.970647638609009E-1   1.294969901200047E2  
                         8.964805865757523E-1   8.179267518819459E1   1.222043409760827E-2  -1.720667531820811E1   4.891514460131409E-3   1.083344663512479E2  
                         2.974692298567551E-1   1.294855012734121E2   4.852444984703950E-3   1.085535824553491E2   1.842469496138593E-2  -9.586483113627459E1  
                        
 8.600000000000000E8     1.679143864294773E-2  -1.434050258580723E2   8.997480707833484E-1   7.527706215053168E1   2.992368407755260E-1   1.216953194380958E2  
                         8.952381502997099E-1   7.531259638031303E1   1.016640847009251E-2  -7.140347544786322E1   3.419791337934167E-3   1.216495255380305E2  
                         2.995642884368932E-1   1.217039065498765E2   3.414330457522248E-3   1.201041371321336E2   1.842446276793465E-2  -1.060262250279240E2  
                        
