#  HZ   S   MA   R     50.00 
! Rohde & Schwarz ZVA67 4Ports - Version 4.11 - 1305.7002k04 SN: 101051
! Date: 2023-03-28 15:18:18
! Measurements: S11 S12 S13 S21 S22 S23 S31 S32 S33 
! 
 1.000000000000000E8     3.251578175170112E-1   1.216565263206086E2   1.219287450110860E-1  -7.334232595599961E1   6.545305673481795E-1  -4.178890979434857  
                         1.224631333803555E-1  -7.339670339628293E1   2.753483136559711E-1   1.233567595298251E2   6.837770341498632E-1  -6.896678752946301  
                         6.541300355339637E-1  -4.055716366667599   6.828000070887540E-1  -6.928503667245364   1.806461917416027E-1   3.731573404052978E1  
                        
 1.200000000000000E8     2.883824107448928E-1   1.189558987561187E2   9.935151319592038E-2  -8.088152224947321E1   6.580072908652466E-1  -7.537036776026787  
                         9.998438190577338E-2  -8.045103222368347E1   2.468608887540471E-1   1.214751239439298E2   6.832466737013541E-1  -9.830379295416973  
                         6.584603572632667E-1  -7.446161304933020   6.831920136247193E-1  -9.907707129070436   1.722140495701694E-1   2.941172032054833E1  
                        
 1.400000000000000E8     2.609668226072138E-1   1.170132484819808E2   8.265583438280619E-2  -8.799287888437345E1   6.587208324952720E-1  -1.080633995810052E1  
                         8.221617763539194E-2  -8.771925165287986E1   2.238252963744120E-1   1.198752631320841E2   6.815372540244772E-1  -1.274596870598933E1  
                         6.595297775139812E-1  -1.069631385452912E1   6.812076095914548E-1  -1.283288198672371E1   1.667460218155585E-1   2.489547535867315E1  
                        
 1.600000000000000E8     2.383671647843856E-1   1.151884632000669E2   6.824027823196535E-2  -9.436587384250477E1   6.602408123572414E-1  -1.369249045574282E1  
                         6.800028584956842E-2  -9.360969774957482E1   2.080360936782226E-1   1.185561613414356E2   6.808619266343852E-1  -1.547196143084902E1  
                         6.602899262980339E-1  -1.369038346948894E1   6.804850431208509E-1  -1.552663272484935E1   1.612569128125487E-1   2.017066236252698E1  
                        
 1.800000000000000E8     2.212177806980664E-1   1.135628994775386E2   5.708882595694266E-2  -1.013519565476630E2   6.607152455644303E-1  -1.648329785877161E1  
                         5.650442343698892E-2  -1.006851215309231E2   1.946028686927274E-1   1.176567763387047E2   6.805999913935600E-1  -1.812686154023345E1  
                         6.611505315737707E-1  -1.652168052261190E1   6.799714405548536E-1  -1.820002425595916E1   1.574737054869581E-1   1.603661710675202E1  
                        
 2.000000000000000E8     2.063482394240064E-1   1.120500771318239E2   4.629889913340211E-2  -1.068118223913119E2   6.615736214291181E-1  -1.917800731587650E1  
                         4.646093099092156E-2  -1.068436576032833E2   1.833913293657215E-1   1.160142643445022E2   6.796932619850605E-1  -2.062498339776745E1  
                         6.618546562404474E-1  -1.917328378713217E1   6.799197430736361E-1  -2.071271538346053E1   1.580435968679443E-1   1.195360869763141E1  
                        
 2.200000000000000E8     1.932642375319789E-1   1.103609413856536E2   3.804001774950995E-2  -1.129062842589700E2   6.617300869052777E-1  -2.185090428949566E1  
                         3.820029558787540E-2  -1.124861632921803E2   1.734946700728847E-1   1.148178456557542E2   6.788119408101182E-1  -2.315938482856215E1  
                         6.619694568146318E-1  -2.185474953105751E1   6.793576222276686E-1  -2.325347306927387E1   1.569398287965066E-1   8.804063865477009  
                        
 2.400000000000000E8     1.829159548041115E-1   1.087486540409276E2   2.998865104318048E-2  -1.209080967179712E2   6.615203991889476E-1  -2.446529959899648E1  
                         3.043395940126708E-2  -1.214510088619029E2   1.652583980962542E-1   1.133457500146136E2   6.777660841646556E-1  -2.562391774927952E1  
                         6.616532654033724E-1  -2.445366873033011E1   6.781169188406021E-1  -2.569736133971170E1   1.559691855075053E-1   6.226073520639095  
                        
 2.600000000000000E8     1.743004054110441E-1   1.068637735578264E2   2.290603796758012E-2  -1.314464069531157E2   6.618607131080871E-1  -2.700157926022592E1  
                         2.276876057329922E-2  -1.318892039163836E2   1.585492975069765E-1   1.116870538284730E2   6.772321049995874E-1  -2.811993467290738E1  
                         6.619258246356746E-1  -2.691258230945725E1   6.773630292761567E-1  -2.812543539463574E1   1.550844225320673E-1   3.533231754205249  
                        
 2.800000000000000E8     1.659973393206879E-1   1.051290683402166E2   1.685191366073611E-2  -1.451173382712440E2   6.619907850777907E-1  -2.956217823118089E1  
                         1.730612854728591E-2  -1.455022992738622E2   1.522202147638992E-1   1.100191808643632E2   6.762858999686611E-1  -3.054086936922535E1  
                         6.618728995353886E-1  -2.954591871808660E1   6.766458917572952E-1  -3.061136201868287E1   1.552934512925327E-1   1.796441393695509  
                        
 3.000000000000000E8     1.573836524848472E-1   1.037109796049183E2   1.419367202232970E-2  -1.622762220169968E2   6.619519900921419E-1  -3.207205444032562E1  
                         1.439863300986827E-2  -1.626808970729636E2   1.458317228208892E-1   1.089625839938106E2   6.755446854640991E-1  -3.297050123259873E1  
                         6.621044709481870E-1  -3.204611646915297E1   6.765890326601839E-1  -3.302414115836790E1   1.552946655684536E-1  -4.831905879997359E-1  
                        
 3.200000000000000E8     1.517024064349098E-1   1.017914930676059E2   1.202064709392508E-2   1.641041505412413E2   6.622594786405248E-1  -3.454067712457213E1  
                         1.198147469882640E-2   1.633454322183629E2   1.420936904923795E-1   1.069796919816882E2   6.750051122341942E-1  -3.537359861152899E1  
                         6.622028669736054E-1  -3.444478876284396E1   6.755980990435706E-1  -3.539177506706297E1   1.546564749381032E-1  -2.943191720663522  
                        
 3.400000000000000E8     1.452366168602184E-1   9.974681026704457E1   1.225119878938678E-2   1.339352108764979E2   6.616136767720410E-1  -3.698257286303552E1  
                         1.209238789078618E-2   1.342929730694398E2   1.369320472963593E-1   1.048907106910862E2   6.739710283111098E-1  -3.777326540717073E1  
                         6.619313110712873E-1  -3.690582280571294E1   6.745855571495855E-1  -3.783177069137639E1   1.542270780021748E-1  -5.499170390296338  
                        
 3.600000000000000E8     1.384800437421825E-1   9.790182103602018E1   1.431714347572611E-2   1.158172637616683E2   6.608688015774530E-1  -3.946923508265886E1  
                         1.430248043036099E-2   1.159018023232512E2   1.313783376674865E-1   1.035613906877623E2   6.727941354232325E-1  -4.014104280892066E1  
                         6.609251033034332E-1  -3.941740370355702E1   6.735004188163613E-1  -4.020824175624396E1   1.550255879073870E-1  -7.193787203678997  
                        
 3.800000000000000E8     1.334502230351871E-1   9.600835764802983E1   1.899764303210169E-2   1.011031668404558E2   6.602475602485552E-1  -4.190748733908814E1  
                         1.897571693631226E-2   1.001244547417232E2   1.288837089880301E-1   1.017899630495811E2   6.718728785479999E-1  -4.252368274598268E1  
                         6.601797603146085E-1  -4.186120647779141E1   6.724020170920271E-1  -4.262249582047137E1   1.560654671105648E-1  -9.063097317060199  
                        
 4.000000000000000E8     1.279254224744591E-1   9.375701258118157E1   2.304048848328872E-2   8.900957664197334E1   6.594903175142838E-1  -4.435782467325736E1  
                         2.284210356913733E-2   8.859156039121834E1   1.247156002898881E-1   9.958653788749024E1   6.699963092510263E-1  -4.495053882314086E1  
                         6.594078547228989E-1  -4.430613413217589E1   6.708389209226374E-1  -4.501705370382928E1   1.571525188219631E-1  -1.150502334771094E1  
                        
 4.200000000000000E8     1.223170142357437E-1   9.192664264436031E1   2.604627385244970E-2   8.306603909731317E1   6.592945395011853E-1  -4.680592529790302E1  
                         2.608494404203867E-2   8.346164485852067E1   1.204456548230373E-1   9.849444050218978E1   6.699280757594892E-1  -4.734106841455910E1  
                         6.590087623063956E-1  -4.668088635612144E1   6.706118838224311E-1  -4.733951426568782E1   1.547794494750448E-1  -1.368950736059507E1  
                        
 4.400000000000000E8     1.187364874479211E-1   8.960821405572975E1   3.174826757061593E-2   7.747521498377654E1   6.582952696600352E-1  -4.921170509755598E1  
                         3.177055896729326E-2   7.797644405248900E1   1.189925531328377E-1   9.633131051379864E1   6.683193758603508E-1  -4.967447989900536E1  
                         6.580962167967719E-1  -4.918551345043846E1   6.689757942707877E-1  -4.975405448239137E1   1.532717130042785E-1  -1.409415421602575E1  
                        
 4.600000000000000E8     1.143650620075384E-1   8.632635955179464E1   3.623556821252317E-2   6.907145236117530E1   6.584686002791396E-1  -5.160541788025522E1  
                         3.631834247689943E-2   6.911007411452151E1   1.150746454480559E-1   9.335944474745020E1   6.683010534162316E-1  -5.202599797519691E1  
                         6.582922139353118E-1  -5.158647174940889E1   6.692419906148300E-1  -5.209970210435144E1   1.567492303800733E-1  -1.594668611742381E1  
                        
 4.800000000000000E8     1.084723016170907E-1   8.384064218592796E1   3.817668936037888E-2   6.384022020201997E1   6.566632898349779E-1  -5.407469443357768E1  
                         3.789185421750101E-2   6.398044860552047E1   1.092921639330801E-1   9.166616096119088E1   6.652614002281103E-1  -5.445624756168891E1  
                         6.563902719558542E-1  -5.405856925346261E1   6.664097018080136E-1  -5.452356777663236E1   1.596995613056035E-1  -1.845294349326975E1  
                        
 5.000000000000000E8     1.054520750874964E-1   8.246094720611747E1   4.194790251752587E-2   6.313590301587138E1   6.570992189417667E-1  -5.648322622963867E1  
                         4.199616997587347E-2   6.363261321252766E1   1.072510551903671E-1   9.099760842651469E1   6.656841815276452E-1  -5.680046165149783E1  
                         6.568178814755795E-1  -5.642941520183127E1   6.665370885762102E-1  -5.687156333087674E1   1.578479621861965E-1  -2.101238867867138E1  
                        
 5.200000000000000E8     1.030237738900887E-1   7.946499335032436E1   4.759893748408408E-2   5.863375037333842E1   6.560634587533034E-1  -5.890832621450938E1  
                         4.763321567617358E-2   5.857410944194194E1   1.054891561724158E-1   8.800803023068862E1   6.634842950565398E-1  -5.920622494558502E1  
                         6.557387144242381E-1  -5.883273682648852E1   6.646084728363106E-1  -5.926883854506478E1   1.555614488739021E-1  -2.207150585634675E1  
                        
 5.400000000000000E8     9.792688003210844E-2   7.687026266511498E1   4.974522004694374E-2   5.405362974452417E1   6.555805074842185E-1  -6.128958732224312E1  
                         4.962267779080150E-2   5.416034570303114E1   1.003670245540089E-1   8.606403085177703E1   6.621227864984042E-1  -6.157623943691650E1  
                         6.554446295688724E-1  -6.124314976914199E1   6.635437524232968E-1  -6.165315960054109E1   1.575829017263372E-1  -2.321828197305102E1  
                        
 5.600000000000000E8     9.526520945297647E-2   7.508848328745880E1   5.390256276589902E-2   5.223780753795342E1   6.558646678846281E-1  -6.373260702626166E1  
                         5.400345228930808E-2   5.253934833115119E1   9.863377509260582E-2   8.449782283531539E1   6.622881186431572E-1  -6.396688399960497E1  
                         6.555901163630056E-1  -6.364273519496779E1   6.635475771879479E-1  -6.401139454750393E1   1.583058368793186E-1  -2.563279055167552E1  
                        
 5.800000000000000E8     9.249440200293178E-2   7.133794864016721E1   5.922897571800857E-2   4.736855385056905E1   6.540634630945247E-1  -6.611569645494615E1  
                         5.925881956403602E-2   4.719246001445695E1   9.598217398878274E-2   8.056588432921966E1   6.599421583902974E-1  -6.632827476356221E1  
                         6.538068465324619E-1  -6.604119593822315E1   6.612713960069083E-1  -6.640574550272025E1   1.560915643395393E-1  -2.792567848437153E1  
                        
 6.000000000000000E8     8.645599267950453E-2   6.852896447313950E1   6.036461446559246E-2   4.260117153271463E1   6.539939355172559E-1  -6.848260519307674E1  
                         6.022916538528989E-2   4.271623456755646E1   8.956646336345103E-2   7.823100339686137E1   6.595527358441016E-1  -6.871632983357988E1  
                         6.539815957110841E-1  -6.836394429759618E1   6.608630875291806E-1  -6.870254431140376E1   1.538647482088967E-1  -2.827887650444567E1  
                        
 6.200000000000000E8     8.271056857582888E-2   6.795281526125237E1   6.214794635291546E-2   4.259559533133348E1   6.524511195092897E-1  -7.094240489410630E1  
                         6.196054302101054E-2   4.295635169055718E1   8.741364287010631E-2   7.865493385190794E1   6.572976072953645E-1  -7.111772352333017E1  
                         6.522642468052711E-1  -7.086736444409904E1   6.586162252181114E-1  -7.118640046095119E1   1.580095547977003E-1  -2.880373844939525E1  
                        
 6.400000000000000E8     8.160333235155455E-2   6.463822858822992E1   6.840858835103628E-2   4.015429949306543E1   6.531688137463904E-1  -7.333028066312652E1  
                         6.843246226434345E-2   4.011195926350213E1   8.766674764915244E-2   7.506653410347865E1   6.585802543468837E-1  -7.349100969988302E1  
                         6.533313722747666E-1  -7.326619040818800E1   6.596326060297575E-1  -7.356752621250723E1   1.612026660702021E-1  -3.174449448793508E1  
                        
 6.600000000000000E8     7.714301209918936E-2   6.011000237437725E1   7.162626176490516E-2   3.500444435341812E1   6.502312213847948E-1  -7.576999560840891E1  
                         7.160886625083762E-2   3.497694823437964E1   8.301903106718313E-2   7.094108759717382E1   6.554513397469248E-1  -7.592183513964987E1  
                         6.504084101554833E-1  -7.563351332394329E1   6.564592942208763E-1  -7.591818367694280E1   1.588754713226359E-1  -3.465672942494195E1  
                        
 6.800000000000000E8     7.206387388497461E-2   5.868197270725146E1   7.206664152753738E-2   3.331290966084031E1   6.500043579815862E-1  -7.817090500033785E1  
                         7.204465307885125E-2   3.343434857561221E1   7.915121423862113E-2   7.055649483621251E1   6.545632378145782E-1  -7.830504506146913E1  
                         6.495302331847178E-1  -7.811288871309606E1   6.555759591491108E-1  -7.839689255140108E1   1.559957524380053E-1  -3.581593978229490E1  
                        
 7.000000000000000E8     7.089397844744798E-2   5.505464268892033E1   7.737403112658302E-2   3.113037598497503E1   6.498048451985523E-1  -8.059729494672051E1  
                         7.763252653503062E-2   3.121193872038641E1   7.914756538074036E-2   6.740957308169458E1   6.531311666833013E-1  -8.071958769423483E1  
                         6.490955324461180E-1  -8.053429992847383E1   6.543357450489967E-1  -8.079830520034510E1   1.570464787702812E-1  -3.643918625071379E1  
                        
 7.200000000000000E8     6.629384117687799E-2   4.978029092216335E1   8.002600626839478E-2   2.623516459199612E1   6.487815519077725E-1  -8.302024456334530E1  
                         7.995341751532832E-2   2.623082731816142E1   7.410280299810418E-2   6.296959277349991E1   6.515406251967886E-1  -8.313240411922506E1  
                         6.482699412515444E-1  -8.295396083549792E1   6.528627020924459E-1  -8.320034265545370E1   1.589163635261500E-1  -3.818950729544649E1  
                        
 7.400000000000000E8     6.087792096474133E-2   4.855449234740114E1   7.933286146047147E-2   2.475032501280287E1   6.478670214499966E-1  -8.542621551478219E1  
                         7.912405243353041E-2   2.495387797928309E1   6.944165784699700E-2   6.391156808980610E1   6.502888192650412E-1  -8.555427738532829E1  
                         6.474436320533868E-1  -8.530502748381549E1   6.517897547458947E-1  -8.554214360213217E1   1.582908553524419E-1  -4.005826807828608E1  
                        
 7.600000000000000E8     6.099577053093978E-2   4.633923670586307E1   8.472232553357836E-2   2.416571974228526E1   6.472192526568177E-1  -8.786691948201055E1  
                         8.484547000079162E-2   2.435135427835365E1   7.103148039242831E-2   6.211691731127215E1   6.495164001207896E-1  -8.799853379810863E1  
                         6.467261701166698E-1  -8.774576871549681E1   6.508401805595604E-1  -8.798956922296617E1   1.575029518394249E-1  -4.136020592124353E1  
                        
 7.800000000000000E8     5.872693156133923E-2   3.973291677278962E1   8.934621774424781E-2   1.961882403366429E1   6.470770365300258E-1  -9.028276985538011E1  
                         8.943120490342303E-2   1.970150472658951E1   6.769603806107899E-2   5.619469659085586E1   6.487133825152629E-1  -9.040547839923886E1  
                         6.465556027867171E-1  -9.021306744501651E1   6.498775571187976E-1  -9.045523591956474E1   1.583131991178861E-1  -4.268561283996075E1  
                        
 8.000000000000000E8     5.333284313531053E-2   3.567155410161426E1   8.935049661703656E-2   1.655076964459250E1   6.460708819670937E-1  -9.271898614775823E1  
                         8.930318847314536E-2   1.657306460395647E1   6.154107694685426E-2   5.438375156727627E1   6.468248497326569E-1  -9.285591669121246E1  
                         6.457547488952985E-1  -9.265069659273543E1   6.479926132629928E-1  -9.289838651285672E1   1.599273218196483E-1  -4.448217148237370E1  
                        
 8.200000000000000E8     5.106912580369775E-2   3.319504253789150E1   9.225254215292558E-2   1.521399662110665E1   6.456127708842462E-1  -9.512909710087777E1  
                         9.231330122006103E-2   1.527286699617744E1   6.003856462776512E-2   5.250581211143830E1   6.462441123958999E-1  -9.528736920723463E1  
                         6.452398257850760E-1  -9.506601867248233E1   6.474523341653352E-1  -9.532963496087372E1   1.617539743678375E-1  -4.684565870312257E1  
                        
 8.400000000000000E8     4.815607651684138E-2   2.673745890491981E1   9.546233427193247E-2   1.170449634240299E1   6.445410477907577E-1  -9.758868233545614E1  
                         9.536991027009535E-2   1.174559768276738E1   5.682313260921186E-2   4.702213891143357E1   6.451822515294883E-1  -9.772791515207824E1  
                         6.442935633585737E-1  -9.751216949034429E1   6.464550988108317E-1  -9.777690359506245E1   1.613522029040489E-1  -4.951804370476708E1  
                        
 8.600000000000000E8     4.246793099246854E-2   2.316138248956639E1   9.480425669723878E-2   9.548800107929568   6.437410684142214E-1  -1.000327859405298E2  
                         9.457478699818860E-2   9.589849040693810   5.191557046879836E-2   4.564367797163820E1   6.434359743409933E-1  -1.001913612904056E2  
                         6.432762905098648E-1  -9.989667644369116E1   6.450431575831075E-1  -1.001494333015699E2   1.574344153026893E-1  -5.146989222278016E1  
                        
