#  HZ   S   MA   R     50.00 
! Rohde & Schwarz ZVA67 4Ports - Version 4.11 - 1305.7002k04 SN: 101051
! Date: 2023-03-28 15:23:07
! Measurements: S11 S21 S12 S22 
! 
 1.000000000000000E8     2.925035414239562E-2  -1.799689580402074E2   9.732464993636688E-1  -1.103458736890999E2   9.729373373992684E-1  -1.103024661968196E2   2.970387910109755E-2   1.738406116963184E2  
 1.200000000000000E8     3.047703122208446E-2   1.353666409814004E2   9.720601674028048E-1  -1.322395759019306E2   9.707517532979071E-1  -1.323136130135610E2   3.153317567838407E-2   1.309284860238118E2  
 1.400000000000000E8     2.871168074675703E-2   1.022518198026640E2   9.699098050560160E-1  -1.542249784566199E2   9.696381951878282E-1  -1.542805449601117E2   2.895911022164406E-2   1.036306382378964E2  
 1.600000000000000E8     2.063279406528693E-2   6.667634842042959E1   9.680083247903515E-1  -1.762251272753545E2   9.679463287780737E-1  -1.763143833074256E2   2.839526300891853E-2   7.268082915639349E1  
 1.800000000000000E8     1.798073559446861E-2   3.593555838966756E1   9.666612555553036E-1   1.618653541814810E2   9.677341490265731E-1   1.617649408784614E2   2.410044896270732E-2   2.757419621200457E1  
 2.000000000000000E8     1.656726726460522E-2  -1.412554724241555E1   9.645353187127603E-1   1.398777022139553E2   9.656433697569903E-1   1.398137583537667E2   1.785588020239554E-2  -2.295272061427976E1  
 2.200000000000000E8     1.570474135612602E-2  -8.738041100658398E1   9.625508863218535E-1   1.178576319368789E2   9.640866156977370E-1   1.177828338520863E2   1.212837399131043E-2  -7.997222627843802E1  
 2.400000000000000E8     1.735316198153349E-2  -1.527857185623776E2   9.593665742882941E-1   9.591695951905199E1   9.610538744251254E-1   9.584514947537267E1   1.580530536309873E-2  -1.290746503705543E2  
 2.600000000000000E8     2.018908399733304E-2   1.730920289989020E2   9.569444010851382E-1   7.390465131987563E1   9.586530559547076E-1   7.386217625299128E1   2.561917560708553E-2   1.794063901506805E2  
 2.800000000000000E8     2.854830974997314E-2   1.541739602315466E2   9.559523269001963E-1   5.204486062238001E1   9.576792354392804E-1   5.190256253541308E1   2.858325882752420E-2   1.430316935598720E2  
 3.000000000000000E8     3.531568587996032E-2   1.189565531800213E2   9.523777065379572E-1   3.008334072293748E1   9.544877852015790E-1   2.998582656581396E1   3.073243011179729E-2   1.173406513064343E2  
 3.200000000000000E8     3.381236311707815E-2   8.396835130845219E1   9.521008639334803E-1   8.195960945395566   9.543997429522849E-1   8.089345774113603   3.807287600546685E-2   8.846033513891112E1  
 3.400000000000000E8     2.771246962039735E-2   5.782638874247621E1   9.494563473365308E-1  -1.367343505922774E1   9.517287041769985E-1  -1.381226622882711E1   3.930993098341924E-2   4.839895734123508E1  
 3.600000000000000E8     2.814276778588346E-2   3.388542915258502E1   9.475612898384176E-1  -3.565759370705627E1   9.500709571215817E-1  -3.579570305596275E1   3.256126614224507E-2   1.584519748092425E1  
 3.800000000000000E8     2.417836100044256E-2  -1.149468888330767E1   9.452155755167917E-1  -5.761504148243081E1   9.479122362781438E-1  -5.768941977345907E1   2.784734294830333E-2  -9.211092947224476  
 4.000000000000000E8     1.390833293918615E-2  -8.045934806903340E1   9.438470290719812E-1  -7.957746183074657E1   9.465306229054704E-1  -7.969062679073740E1   2.219229056806830E-2  -5.920732876686746E1  
 4.200000000000000E8     9.611500245422662E-3  -1.786903785260163E2   9.397833247431602E-1  -1.015913015034644E2   9.425708768722535E-1  -1.016722675625184E2   1.311655782317383E-2  -1.280713560740177E2  
 4.400000000000000E8     1.077087784944963E-2   1.661354748194253E2   9.406575259786854E-1  -1.234680287103648E2   9.433949142644141E-1  -1.235889135844381E2   1.461841217757124E-2  -1.694507018968877E2  
 4.600000000000000E8     2.648302925217027E-2   1.447705643020743E2   9.338485527479501E-1  -1.454947819135837E2   9.371933802719259E-1  -1.455828819059177E2   2.819985029038551E-2   1.534909492758418E2  
 4.800000000000000E8     3.822234776623627E-2   1.005780612073183E2   9.356411788640079E-1  -1.673854741784310E2   9.392602082574346E-1  -1.674679409799267E2   4.099055904232204E-2   1.055546911988825E2  
 5.000000000000000E8     3.712494223532397E-2   5.973062726531784E1   9.294730030371792E-1   1.707069874965487E2   9.332324177206398E-1   1.706044906499234E2   3.917113768522867E-2   6.341970622880020E1  
 5.200000000000000E8     3.064144910771010E-2   4.155706232803068E1   9.298747675955280E-1   1.487907448170283E2   9.335505435640055E-1   1.486906632978215E2   3.303663090951409E-2   4.186203321614315E1  
 5.400000000000000E8     3.229042724115522E-2   2.259537676230813E1   9.274778749933984E-1   1.268945811767243E2   9.323557425150899E-1   1.268138616405450E2   3.458965420155644E-2   1.161950036485206E1  
 5.600000000000000E8     2.540970533105523E-2  -1.274334185614620E1   9.258526660986106E-1   1.049642749143171E2   9.300256030278528E-1   1.048442648049380E2   2.521305826758371E-2  -3.656410384864672E1  
 5.800000000000000E8     6.880702229034832E-3  -6.788919910185227E1   9.257205913809160E-1   8.295935759811519E1   9.299445335813195E-1   8.284078966989060E1   8.463870519502729E-3  -8.540486237963451E1  
 6.000000000000000E8     8.008916634925445E-3   1.039391320483071E2   9.216318748937028E-1   6.113900770262266E1   9.256606889053678E-1   6.107138357371444E1   5.950525725846407E-3  -7.983160185455552E1  
 6.200000000000000E8     1.278641737535186E-2   1.278574030837142E2   9.209483448498022E-1   3.904845100720705E1   9.243927375403654E-1   3.892182745667283E1   1.944399931921678E-2  -1.789666688269152E2  
 6.400000000000000E8     3.699154355494241E-2   1.111422267923912E2   9.195234915092116E-1   1.726544740389775E1   9.229946991377519E-1   1.715002121196848E1   3.664189471290551E-2   1.127799833498685E2  
 6.600000000000000E8     5.313136257262507E-2   6.966942588684108E1   9.137245869448243E-1  -4.750395152442776   9.172426214705999E-1  -4.840099504051782   3.646404505200693E-2   6.779955283621520E1  
 6.800000000000000E8     4.665964181331544E-2   3.383187123816514E1   9.141582490046697E-1  -2.656191862987386E1   9.180190156532833E-1  -2.670011932760037E1   3.721767949730739E-2   5.691903035654615E1  
 7.000000000000000E8     3.650563121983164E-2   2.435983982411468E1   9.092097920130871E-1  -4.846702324558429E1   9.137032706787486E-1  -4.858602782899132E1   4.914586807613725E-2   2.686796981186089E1  
 7.200000000000000E8     4.585260839763714E-2   8.063590148457472   9.093057483588047E-1  -7.046923568901447E1   9.145578273044842E-1  -7.058542703125693E1   3.901143876589130E-2  -1.589193575437100E1  
 7.400000000000000E8     3.946403173004713E-2  -3.082151604262829E1   9.086965359099236E-1  -9.226729960254926E1   9.134884948797469E-1  -9.232909113662014E1   2.153368154960686E-2  -2.219652868156195E1  
 7.600000000000000E8     1.404964820319707E-2  -6.085276303125308E1   9.048194922114107E-1  -1.142963274287146E2   9.097648748645041E-1  -1.143548152689083E2   2.601702083697037E-2  -4.106472530834025E1  
 7.800000000000000E8     7.807076372764763E-3  -7.133141369352926   9.070795727152302E-1  -1.361974055729053E2   9.119379869297793E-1  -1.362949716878832E2   2.157423636529332E-2  -1.204410469322026E2  
 8.000000000000000E8     5.362774344991932E-3   1.680411386034848E2   9.028074599218577E-1  -1.581091225815506E2   9.066828781672295E-1  -1.581975308672755E2   2.037230864017620E-2   1.378644414885393E2  
 8.200000000000000E8     3.491945183418468E-2   9.900625633829664E1   9.029981501611620E-1   1.798572609921536E2   9.067750104435901E-1   1.797909993587975E2   2.120260605379432E-2   9.223901400337797E1  
 8.400000000000000E8     4.942353406277318E-2   4.796023281565142E1   9.017117086794844E-1   1.580496030897522E2   9.056584138541307E-1   1.579949852154356E2   3.372056749945613E-2   7.320933811154107E1  
 8.600000000000000E8     3.796017310340934E-2   9.015526441100699   8.962270102286305E-1   1.361429391369798E2   9.013689810493105E-1   1.361272566913634E2   4.446616083948397E-2   3.189594664476924E1  
 8.800000000000000E8     2.909277140178465E-2   1.612212710598110E1   8.978430789141708E-1   1.141812457092069E2   9.036929935816873E-1   1.141211115073672E2   3.520955317416097E-2   1.724645619783693  
 9.000000000000000E8     4.465555174707335E-2  -2.838328993513940   8.913570487576584E-1   9.232169617881304E1   8.969147103469245E-1   9.224743554034468E1   3.468917300570109E-2   2.108564436613623  
 9.200000000000000E8     4.018352068772119E-2  -5.114060978237585E1   8.942015464872657E-1   7.030547101146242E1   8.998481176291094E-1   7.026556436916800E1   4.123580012582088E-2  -3.029201267958534E1  
 9.400000000000000E8     1.414444998485931E-2  -1.022723694405248E2   8.924714063022051E-1   4.842889174529430E1   8.978256254921652E-1   4.839539715916740E1   2.132085125086241E-2  -7.904951782597212E1  
 9.600000000000000E8     5.635685031383995E-3   1.615395266895703E1   8.896702580093618E-1   2.639061417804017E1   8.948724519068785E-1   2.634954936761455E1   4.760733640725752E-3   1.548812664431654E1  
 9.800000000000000E8     2.676166394601982E-3   1.123428933527353E2   8.894746479854121E-1   4.505866011198616   8.952585826220297E-1   4.476999413710288   2.344831169277284E-3   2.176596320873309E1  
 1.000000000000000E9     2.727654221352584E-2   7.822323994944200E1   8.879017938912079E-1  -1.742317919138837E1   8.928999481571487E-1  -1.742772316749336E1   2.377897315147561E-2   8.056067608555227E1  
 1.020000000000000E9     4.003021581717220E-2   2.935845412188839E1   8.866469363644641E-1  -3.941817633517944E1   8.911321177450206E-1  -3.945394138821729E1   3.463656477458234E-2   3.070430927709883E1  
 1.040000000000000E9     3.230531186189246E-2   2.286626258913512   8.875260968642299E-1  -6.122518062032975E1   8.920662941119596E-1  -6.122896613652339E1   2.359424864163260E-2   1.646161744565196E1  
 1.060000000000000E9     3.632997049344001E-2   6.198091443444818   8.796748245415560E-1  -8.319036612111587E1   8.838488966924347E-1  -8.321735936094785E1   3.920508773733575E-2   1.963065393690006E1  
 1.080000000000000E9     5.098883118263971E-2  -2.675842915906234E1   8.858234563205498E-1  -1.050719111968501E2   8.899587058484457E-1  -1.050914727264239E2   4.913459158853217E-2  -2.825248599823553E1  
 1.100000000000000E9     4.064155524641042E-2  -7.510621582088075E1   8.787437577507311E-1  -1.269190839131880E2   8.827669843639604E-1  -1.269350468553875E2   2.739310181953775E-2  -7.727367774475032E1  
 1.120000000000000E9     1.022567531500934E-2  -1.089786971999560E2   8.835513478983347E-1  -1.489801652484197E2   8.879740058219399E-1  -1.490027147200795E2   1.453726763813511E-2  -3.575582516725746E1  
 1.140000000000000E9     1.360264660436470E-2  -3.730387963045056E1   8.815797521578346E-1  -1.707154260972996E2   8.859807476556972E-1  -1.707409976828698E2   2.087932941198040E-2  -7.609517329731627E1  
 1.160000000000000E9     8.443307916319332E-3  -1.318495405047735E2   8.799288736255736E-1   1.672073642411151E2   8.840565329072216E-1   1.671870783212059E2   7.618935802894303E-3   1.356703884742184E2  
 1.180000000000000E9     2.322273957107586E-2   7.565865189031005E1   8.822429396727936E-1   1.453421458204147E2   8.863187412050106E-1   1.453592150844040E2   2.035839256692727E-2   2.673589196420242E1  
 1.200000000000000E9     3.536778573776046E-2   1.413517316038551E1   8.787491820069303E-1   1.234941789394569E2   8.821352071948297E-1   1.235229070773191E2   1.322266914726342E-2   2.665117419253771E1  
 1.220000000000000E9     2.403775245911387E-2  -1.541652898347846E1   8.769880310172115E-1   1.014700853911987E2   8.818014667139490E-1   1.014740625028279E2   3.874321256959076E-2   3.108263348327719E1  
 1.240000000000000E9     3.124605454757365E-2  -2.831209176544543E-1   8.779922163798164E-1   7.974024878149029E1   8.819458600779350E-1   7.971617678201253E1   4.934656953809125E-2  -1.754813070689469E1  
 1.260000000000000E9     4.683596305699556E-2  -3.905748843562858E1   8.742259374562593E-1   5.767474552356796E1   8.783549080215075E-1   5.766958200446847E1   3.015467902234088E-2  -4.940979931078216E1  
 1.280000000000000E9     3.350223127876501E-2  -9.325333853491867E1   8.772980607096029E-1   3.587846733907441E1   8.821592895090317E-1   3.587474331315553E1   3.035432484274606E-2  -3.885853819619111E1  
 1.300000000000000E9     3.137614320346787E-3  -1.545728337492448E2   8.726755266034739E-1   1.397651853321955E1   8.779416132873816E-1   1.397691545754264E1   3.225337569189656E-2  -7.780468058264198E1  
 1.320000000000000E9     1.572531148945137E-2  -4.481429320953719E1   8.745981962601861E-1  -8.028569618376489   8.795885979364994E-1  -8.030665947778109   1.088578939781521E-2  -1.024574094774676E2  
 1.340000000000000E9     1.330993995639958E-2  -1.515577811093829E2   8.763138576270798E-1  -2.978635605179962E1   8.808160343351360E-1  -2.978014065855573E1   1.688584757434105E-2  -6.443534509173134E1  
 1.360000000000000E9     2.624155300914420E-2   8.309182731713158E1   8.714490055649176E-1  -5.195726516757033E1   8.750403537746924E-1  -5.192554618691190E1   1.281802373881089E-2  -1.470032472906410E2  
 1.380000000000000E9     3.485129852487434E-2   1.011425402703975E1   8.769801646678006E-1  -7.365052071693552E1   8.810360290970766E-1  -7.360830630989591E1   2.129657046961810E-2   4.355896910407473E1  
 1.400000000000000E9     2.389735463215212E-2  -3.780508914407236E1   8.708019277200331E-1  -9.574424048698057E1   8.750628295586351E-1  -9.569010281637117E1   3.503849124235678E-2  -2.595877228837322E1  
 1.420000000000000E9     1.849192078226875E-2  -2.085067049132850E1   8.745528176424896E-1  -1.175891296177027E2   8.790953632063573E-1  -1.174954501616965E2   1.872206520424229E-2  -6.110429593335146E1  
 1.440000000000000E9     3.200613915147345E-2  -5.036743060771465E1   8.729707026120964E-1  -1.394755472022370E2   8.775271807296836E-1  -1.393807371064274E2   2.442967628676310E-2  -3.362183924574328E1  
 1.460000000000000E9     2.614192707598212E-2  -9.992539832249490E1   8.660652130823977E-1  -1.614882048174870E2   8.755944403939460E-1  -1.614310718097909E2   2.994760863162314E-2  -7.390453424874909E1  
 1.480000000000000E9     7.221874762255763E-3  -1.107877476906618E2   8.673986898620473E-1   1.766643251786344E2   8.762427870077791E-1   1.767262596047495E2   1.193794844610791E-2  -9.395967574590247E1  
 1.500000000000000E9     1.271448470800697E-2  -8.365880902325124E1   8.660763932605882E-1   1.547650396894294E2   8.739078337001164E-1   1.548128759807869E2   2.055147813041561E-2  -6.608543569137294E1  
 1.520000000000000E9     1.081798979742293E-2   1.777716143767881E2   8.680463799364410E-1   1.327858214520498E2   8.760554069433263E-1   1.328262272835302E2   1.712365432557259E-2  -1.258146616038017E2  
 1.540000000000000E9     1.982902899883245E-2   5.140251121783102E1   8.662919030556573E-1   1.110130814253697E2   8.749600843510200E-1   1.110702380330210E2   6.776426022932101E-3   2.898434611599542E1  
 1.560000000000000E9     2.525530188222364E-2  -2.080569840705289E1   8.662790860092053E-1   8.894380146430561E1   8.749210698539441E-1   8.900918322504366E1   1.937314407976419E-2  -5.684007068702887E1  
 1.580000000000000E9     1.339519639228945E-2  -6.113151075269818E1   8.675559229221769E-1   6.712646787157067E1   8.756623018452024E-1   6.718633252367441E1   6.223015464745295E-3  -9.379580313911784E1  
 1.600000000000000E9     1.744507144584866E-2  -2.872509765572390E1   8.667609061576197E-1   4.523446878980265E1   8.745795764259160E-1   4.527174964388296E1   2.043859469990760E-2  -3.385435212924125E1  
 1.620000000000000E9     2.819345330514234E-2  -7.522100252467524E1   8.687607974951770E-1   2.323032407932147E1   8.762098644589775E-1   2.325901831560254E1   2.531690588321260E-2  -8.992929031867287E1  
 1.640000000000000E9     2.034760856249855E-2  -1.392898571683734E2   8.660766667419724E-1   1.458780354162585   8.738527539746915E-1   1.500225419829737   6.679760162972186E-3  -9.905917000484840E1  
 1.660000000000000E9     1.206177966061882E-3   4.947576865116410E1   8.666598033943420E-1  -2.058704363487730E1   8.744537812341117E-1  -2.056699487933633E1   2.432366199759912E-2  -6.645574250594781E1  
 1.680000000000000E9     1.383641639112426E-2  -9.429089853041009E1   8.706275895506005E-1  -4.241119047315463E1   8.782467791810752E-1  -4.239597314250056E1   2.317656897022629E-2  -1.198241769111142E2  
 1.700000000000000E9     1.454642775898488E-2   1.663404140942638E2   8.652169365306687E-1  -6.432739872821317E1   8.743076711376112E-1  -6.432655687378252E1   5.043565513260627E-3  -8.471211005850184E1  
 1.720000000000000E9     1.737515044359474E-2   4.336404415384153E1   8.702574341336437E-1  -8.626405667564966E1   8.789522379023039E-1  -8.624914252366177E1   1.920562228569573E-2  -9.630231509748649E1  
 1.740000000000000E9     2.200223433737181E-2  -4.585940722384512E1   8.681126540316091E-1  -1.080752312030710E2   8.764647902728084E-1  -1.080473984797138E2   8.996322785809412E-3  -1.625932166827991E2  
 1.760000000000000E9     1.084882462021638E-2  -1.150849349696649E2   8.684178717701622E-1  -1.301137349783318E2   8.755283961343867E-1  -1.300601077946283E2   1.282171978853149E-2  -4.459905720514814E1  
 1.780000000000000E9     1.096295064442543E-2  -2.016129451565851E1   8.715570406737411E-1  -1.518470091605304E2   8.777523197944241E-1  -1.517713824622714E2   1.751564916430698E-2  -1.192812657408709E2  
 1.800000000000000E9     2.441652098495793E-2  -8.040228931995520E1   8.675488188916747E-1  -1.738182187984852E2   8.736800506321363E-1  -1.737329606660968E2   3.164285146496392E-3   1.004699529258999E2  
 1.820000000000000E9     1.797789479613283E-2  -1.459620553153931E2   8.722194665651658E-1   1.642720657836947E2   8.789059047692031E-1   1.643540118677068E2   1.847144483972925E-2  -7.147775440120344E1  
 1.840000000000000E9     2.383364949113257E-3   6.242145984376059E1   8.689466910389411E-1   1.424515571413601E2   8.757667809066440E-1   1.425583122810934E2   1.899070977961586E-2  -1.471780243487506E2  
 1.860000000000000E9     1.232607337489207E-2  -8.605419364433445E1   8.715387165308833E-1   1.203797453918494E2   8.791643960795225E-1   1.204947082198334E2   2.833875896979827E-3  -3.467213599373427E1  
 1.880000000000000E9     1.039961770246946E-2  -1.735368826264288E2   8.719417067766659E-1   9.860445713474631E1   8.793987195940768E-1   9.871240860457051E1   2.435947167396142E-2  -1.076837923497496E2  
 1.900000000000000E9     6.820871890607107E-3   4.162201922741250E1   8.701907180891826E-1   7.660068749588818E1   8.777243222196732E-1   7.667889576586718E1   2.222286656445069E-2  -1.779566140638692E2  
 1.920000000000000E9     9.539082257959812E-3  -8.324718438227325E1   8.752289223755778E-1   5.478046362136478E1   8.825895906370190E-1   5.482218971246325E1   1.810456332528225E-3   4.859519000066064E1  
 1.940000000000000E9     9.612365569974366E-3  -1.742307490696626E2   8.713918916337032E-1   3.283637048588140E1   8.786669056964485E-1   3.288547262429139E1   1.403391268981098E-2  -1.259084721138577E2  
 1.960000000000000E9     1.367262839173334E-3   4.059499575214313E1   8.747477898413911E-1   1.093116681152637E1   8.816344508281861E-1   1.096800971869972E1   7.767848596687561E-3   1.324037062482449E2  
 1.980000000000000E9     1.021267180207575E-2  -1.304584294142925E2   8.761143597478863E-1  -1.093945265799676E1   8.825222781891507E-1  -1.089235950433110E1   9.701383616603785E-3  -3.573535535791893E1  
 2.000000000000000E9     1.199560505225988E-2   1.600658529983151E2   8.752776202073545E-1  -3.284667699087701E1   8.816079067867350E-1  -3.280879933902270E1   8.318329019335539E-3  -1.133674261791800E2  
