#  HZ   S   MA   R     50.00 
! Rohde & Schwarz ZVA67 4Ports - Version 4.11 - 1305.7002k04 SN: 101051
! Date: 2023-04-26 09:46:39
! Measurements: S11 S21 S12 S22 
! 
 2.000000000000000E7     1.000842341046480  -6.120837825018267E-1   1.744035011611377E-4   3.605091452175314E1   2.555109595076652E-5  -1.208090359009984E2   1.008123426128049  -1.214960443811427  
 4.000000000000000E7     1.001824300958391  -1.492044361441365   3.759851821982452E-5   1.558951936819778E2   5.905383526951043E-5   1.774276181631915E1   1.003193535050227  -1.516957747232317  
 6.000000000000000E7     1.000298170102141  -2.117852008138753   8.341303548814978E-5   1.452952247310797E2   2.188119813393459E-5  -4.717825662288932E1   9.990826469312893E-1  -2.354210933567671  
 8.000000000000000E7     1.015353831559156  -2.167914394986806   3.831025654243488E-5   1.672189273272927E2   3.438133065410432E-5   1.395971669663316E2   9.911705378488853E-1  -2.673305877891006  
 1.000000000000000E8     1.002031916466013  -4.084723437761238   3.769953090136484E-5   5.471651196113481E1   3.601771366913026E-5   2.991483939964148E1   1.003465511428836  -3.679179736860285  
 1.200000000000000E8     1.007927901461806  -4.367262979012171   4.616010037552573E-5   7.736417221849808E1   2.977129578364745E-5   6.252641242796182E1   1.004354730564049  -4.570458436791829  
 1.400000000000000E8     1.002486623197861  -5.135955937464607   5.095305624467469E-5   5.493235428378868E1   2.742495660472192E-5   7.761991450453155E1   1.002272616001745  -5.204694123312176  
 1.600000000000000E8     9.988185205947330E-1  -5.856736556050035   2.133501887203474E-5   3.123769673520703E1   1.872702189921705E-5   9.126651551988510E1   1.000897911540302  -6.049820796865119  
 1.800000000000000E8     9.999256217249393E-1  -6.814687250031739   4.836956014347565E-5   1.043806117491088E2   6.737308577362828E-5   8.953694538448664E1   1.004009537338068  -6.768455616093126  
 2.000000000000000E8     1.001665742838567  -7.481746618255331   5.550797850738490E-5   7.369048414695168E1   5.052241413181643E-5   8.797993712388632E1   1.004180699830930  -7.693556694755252  
 2.200000000000000E8     1.003662178316923  -8.227523085114271   4.874365653946809E-5   5.543693792538377E1   7.016466407779800E-5   8.123985569760413E1   1.003120359566391  -8.366700446767943  
 2.400000000000000E8     1.003218072512694  -9.067581548041833   6.333942530540873E-5   9.556348619431702E1   4.566931543280311E-5   6.252310959290725E1   1.002745949707291  -9.122438134760893  
 2.600000000000000E8     1.003076296625578  -9.753459302424160   6.369233742503305E-5   8.073515406406786E1   6.481121988348181E-5   8.988406915211604E1   1.000864602267599  -9.975105248317382  
 2.800000000000000E8     1.003324003216920  -1.058743850062026E1   7.518762403782468E-5   9.399108525412423E1   8.364260953437088E-5   7.778575285684551E1   9.995044039743033E-1  -1.070263091741812E1  
 3.000000000000000E8     1.003753098366724  -1.140804475963607E1   8.464042082919235E-5   8.200157974879184E1   9.200260929140408E-5   7.760898586005736E1   1.000855777499245  -1.152859423544129E1  
 3.200000000000000E8     1.003097447796592  -1.220298834649218E1   7.022762293173284E-5   7.504992693059280E1   1.014694287308396E-4   7.701685339612891E1   9.998734653488736E-1  -1.229261419488956E1  
 3.400000000000000E8     1.001802114245026  -1.295329709704283E1   1.024555769192763E-4   7.304661934415933E1   7.553507941018745E-5   6.738984815041225E1   1.000043069679971  -1.316166161795794E1  
 3.600000000000000E8     1.002810257406095  -1.378681486655205E1   1.132271769064197E-4   7.238877577232069E1   1.108323441273876E-4   7.824740062149733E1   1.001165847199992  -1.383124945481134E1  
 3.800000000000000E8     1.001407166239676  -1.458168074673653E1   1.220597888143599E-4   7.680244719745355E1   9.690956480634071E-5   7.849764155746341E1   9.990890291395900E-1  -1.456719807587212E1  
 4.000000000000000E8     9.990110046946336E-1  -1.534071198523193E1   1.094515587214852E-4   7.117444737386002E1   1.124119717480126E-4   7.988155016257804E1   9.995345621089230E-1  -1.539433092156765E1  
 4.200000000000000E8     9.990928511510013E-1  -1.618171567087318E1   1.266178882376423E-4   7.676141368638993E1   1.271127966402535E-4   6.991370743297991E1   9.997918420689322E-1  -1.617148445074156E1  
 4.400000000000000E8     9.995522556517493E-1  -1.696326524590634E1   1.338480648884108E-4   6.424586420582703E1   1.162938453197181E-4   7.190140460867367E1   1.000122366771718  -1.707429431319778E1  
 4.600000000000000E8     9.983655544045841E-1  -1.772521968218808E1   1.198125008863849E-4   7.865719353030144E1   1.270918730585782E-4   6.988157186826155E1   9.997774808840475E-1  -1.777007326849419E1  
 4.800000000000000E8     9.978774229655043E-1  -1.854502185283309E1   1.295811424681730E-4   7.070124743720682E1   1.335832390175131E-4   7.260922743715695E1   9.974070095139604E-1  -1.861942465959100E1  
 5.000000000000000E8     9.989094558913709E-1  -1.935438063141326E1   1.393704981924420E-4   7.378084619205482E1   1.399073882781744E-4   6.963451477969343E1   9.966183045525768E-1  -1.943830036505665E1  
 5.200000000000000E8     9.978244523445021E-1  -2.012363471940421E1   1.472639719754362E-4   7.101831409904564E1   1.409679199517245E-4   7.222758072804081E1   9.976686724182485E-1  -2.014411060511261E1  
 5.400000000000000E8     9.969437982725125E-1  -2.092524312360967E1   1.500942741135998E-4   7.157014626325613E1   1.543943859692550E-4   7.526814423359301E1   9.961044401413927E-1  -2.098930913477818E1  
 5.600000000000000E8     9.963487652305926E-1  -2.180459130547425E1   1.597944095432054E-4   7.390936200941724E1   1.631077756120557E-4   6.913239435930113E1   9.969507017524550E-1  -2.175876901567661E1  
 5.800000000000000E8     9.955508470296369E-1  -2.246999697584592E1   1.641768485860348E-4   6.416696501338531E1   1.542939701208366E-4   6.955961137867992E1   9.954475761697478E-1  -2.258442753148569E1  
 6.000000000000000E8     9.943444941417791E-1  -2.333716808441740E1   1.650016532036753E-4   6.984992740445829E1   1.661011534866418E-4   6.363322908523862E1   9.965943629878347E-1  -2.338544598725730E1  
 6.200000000000000E8     9.949986575887027E-1  -2.416763066331455E1   1.678784371178300E-4   6.717304767545032E1   1.841431399984856E-4   6.795548252682804E1   9.968397449176613E-1  -2.419672651233906E1  
 6.400000000000000E8     9.935773855729068E-1  -2.507611920201249E1   1.890576816364699E-4   6.314928202240724E1   1.840812686356948E-4   6.187372043116073E1   9.955707194764835E-1  -2.496844673306804E1  
 6.600000000000000E8     9.935752427927529E-1  -2.580718212229937E1   2.008826680467840E-4   6.312103168279308E1   1.938171411137475E-4   6.342570676675160E1   9.940166770061047E-1  -2.582416317025917E1  
 6.800000000000000E8     9.947487726808580E-1  -2.671136608577168E1   1.929585684876768E-4   6.373363896663489E1   2.093138837623226E-4   6.351107489534687E1   9.935357887754841E-1  -2.661398684082566E1  
 7.000000000000000E8     9.940430109772319E-1  -2.749402466708657E1   2.091439413890956E-4   6.336897836026867E1   2.123223444992189E-4   6.458102326306592E1   9.951129326745537E-1  -2.746813617817833E1  
 7.200000000000000E8     9.928564160041508E-1  -2.829825152393631E1   2.075130382955464E-4   6.384820509242822E1   2.113507368961984E-4   6.086879463535007E1   9.933951420854427E-1  -2.826315580745430E1  
 7.400000000000000E8     9.923014795734194E-1  -2.912164080855705E1   2.261359490755593E-4   6.042077575013906E1   2.228945451455991E-4   6.488833405319076E1   9.910560689891241E-1  -2.906626292798059E1  
 7.600000000000000E8     9.915196269144512E-1  -2.994369778423628E1   2.350211932138405E-4   5.931691839494953E1   2.182680166706413E-4   6.054685134474235E1   9.884256906189466E-1  -2.994514572292779E1  
 7.800000000000000E8     9.900798223880138E-1  -3.085489429973530E1   2.218496868575084E-4   5.890384615696016E1   2.310911783791006E-4   6.001081845076792E1   9.897746104925924E-1  -3.080864495025847E1  
 8.000000000000000E8     9.888750265057076E-1  -3.174392903253548E1   2.416660778286189E-4   5.648008623290938E1   2.342807348671735E-4   5.906732528065106E1   9.917438491536728E-1  -3.162401564041453E1  
 8.200000000000000E8     9.886849180579582E-1  -3.256134815502372E1   2.474972498825692E-4   5.673829824060385E1   2.494941820683750E-4   5.801917248489553E1   9.907521624991216E-1  -3.251873301368921E1  
 8.400000000000000E8     9.897578967770465E-1  -3.341813346851445E1   2.556842625968225E-4   5.686911589934962E1   2.495770830244508E-4   5.729183446692396E1   9.894943538307338E-1  -3.335585054060496E1  
 8.600000000000000E8     9.902548604607828E-1  -3.421061812939352E1   2.559786213390530E-4   5.732089707903285E1   2.588997098058626E-4   5.810330609725809E1   9.904371597604685E-1  -3.408865043778101E1  
 8.800000000000000E8     9.893526221318136E-1  -3.511518931648888E1   2.654832869136351E-4   5.469053265761278E1   2.638065440140946E-4   5.652033202645590E1   9.923442976924004E-1  -3.491588083836081E1  
 9.000000000000000E8     9.889102550879781E-1  -3.592052093642771E1   2.837641514492492E-4   5.394213544103173E1   2.789201192160308E-4   5.443212638356224E1   9.924427159451226E-1  -3.575640391922964E1  
 9.200000000000000E8     9.878421450392729E-1  -3.682433064846671E1   2.826527703977624E-4   5.330147063528455E1   2.761022340338071E-4   5.361227180084565E1   9.895750530919489E-1  -3.660591594538241E1  
 9.400000000000000E8     9.864377428720889E-1  -3.769463021805544E1   2.919589043620139E-4   5.289679388776604E1   2.865267210159453E-4   5.112835685108490E1   9.858640933905818E-1  -3.748664704156220E1  
 9.600000000000000E8     9.852662890771293E-1  -3.857211916484711E1   2.999891949751565E-4   4.868508821785832E1   2.978764979197377E-4   5.192963760934817E1   9.852629928162527E-1  -3.828382833970206E1  
 9.800000000000000E8     9.860477499630956E-1  -3.951189295928839E1   3.095998824202487E-4   5.020409662892956E1   3.106931585542671E-4   5.245050416246618E1   9.859880577184701E-1  -3.917265721455629E1  
 1.000000000000000E9     9.859771536461708E-1  -4.031089469428419E1   3.178458710979866E-4   5.066968492864391E1   3.086364081478939E-4   4.834385052436136E1   9.852453692447251E-1  -3.994584596231057E1  
 1.020000000000000E9     9.850313495214497E-1  -4.120281469123069E1   3.200935668380746E-4   4.913665517972897E1   3.274515999685846E-4   4.897348625293535E1   9.835929782417355E-1  -4.088098821162312E1  
 1.040000000000000E9     9.859812947069711E-1  -4.203861879618430E1   3.315060213406293E-4   4.756205731043747E1   3.281769057197523E-4   4.850552075452256E1   9.832441456877618E-1  -4.169472465950877E1  
 1.060000000000000E9     9.867918672324028E-1  -4.285668213978084E1   3.520248942539460E-4   4.738648109483790E1   3.448406369041253E-4   4.896778817034866E1   9.849319721925746E-1  -4.247323713183752E1  
 1.080000000000000E9     9.868124664688849E-1  -4.372196780378642E1   3.522997845765926E-4   4.565216490681224E1   3.533472847070563E-4   4.635456052970421E1   9.845888350758391E-1  -4.332798325531365E1  
 1.100000000000000E9     9.840543259123209E-1  -4.464772349989144E1   3.611939121249366E-4   4.615199744922126E1   3.634649952672321E-4   4.623293049630745E1   9.831620256169842E-1  -4.417160747600588E1  
 1.120000000000000E9     9.837237420337323E-1  -4.550111276747207E1   3.631349200940326E-4   4.496170097218240E1   3.709462535607998E-4   4.412594991387819E1   9.823926635150302E-1  -4.503257743219218E1  
 1.140000000000000E9     9.841912644381202E-1  -4.638360861645295E1   3.797730778347656E-4   4.296386905874309E1   3.800875182662179E-4   4.328017493069358E1   9.843231996552125E-1  -4.589961903896682E1  
 1.160000000000000E9     9.839753207255405E-1  -4.722584088045593E1   3.903187315347258E-4   4.353767647549746E1   3.855617886487458E-4   4.226791965091471E1   9.862485851033993E-1  -4.673101006229796E1  
 1.180000000000000E9     9.829301464478335E-1  -4.808690070549453E1   4.041576083693006E-4   4.117927175557702E1   4.003681773791470E-4   4.282943124704982E1   9.857665357322120E-1  -4.751479192074802E1  
 1.200000000000000E9     9.837954893731308E-1  -4.891042447412256E1   4.114988734071247E-4   4.089685197882814E1   4.132738327345026E-4   4.054554434835429E1   9.842431015708045E-1  -4.833258304288363E1  
 1.220000000000000E9     9.852057033511668E-1  -4.980062110828533E1   4.223434262481723E-4   3.930948065020099E1   4.229444155516817E-4   4.037902219297465E1   9.832330114227152E-1  -4.922085603810670E1  
 1.240000000000000E9     9.849600206222962E-1  -5.065970524300446E1   4.303453209799999E-4   3.984007358508434E1   4.210099506050264E-4   3.924588523055678E1   9.841797102264926E-1  -5.002361681823231E1  
 1.260000000000000E9     9.840705116218544E-1  -5.155057378124616E1   4.412260559859193E-4   3.936643751668742E1   4.502204637872798E-4   3.796527883970271E1   9.836320598992187E-1  -5.088176366901711E1  
 1.280000000000000E9     9.854003058228396E-1  -5.241986046563940E1   4.532565545699138E-4   3.723014090314176E1   4.527420160881595E-4   3.792389156105651E1   9.810658100787777E-1  -5.178428558394645E1  
 1.300000000000000E9     9.854636947226992E-1  -5.327824788388686E1   4.676820416384822E-4   3.644948417157542E1   4.776585314247770E-4   3.530467241054893E1   9.781334691730170E-1  -5.263241502675246E1  
 1.320000000000000E9     9.839429681872385E-1  -5.419110348640493E1   4.782888793269549E-4   3.600675433243207E1   4.818334055282513E-4   3.614578245587956E1   9.806453227848914E-1  -5.352298753303215E1  
 1.340000000000000E9     9.834996813146881E-1  -5.501516549555874E1   4.880523668130833E-4   3.364947901913391E1   4.968669831668591E-4   3.579030615669125E1   9.843789852479616E-1  -5.429124233321198E1  
 1.360000000000000E9     9.858178306306993E-1  -5.589319967532595E1   5.079731411629020E-4   3.250549246268130E1   5.072454130417888E-4   3.345518705255579E1   9.860734731664735E-1  -5.514358856030267E1  
 1.380000000000000E9     9.870516606202239E-1  -5.673873082404348E1   5.176735937961189E-4   3.467041445349772E1   5.246488040110792E-4   3.318833842690848E1   9.854927825135459E-1  -5.598361605482795E1  
 1.400000000000000E9     9.861576794865644E-1  -5.761119572757637E1   5.287151196882615E-4   3.264340207840458E1   5.316149908274043E-4   3.175630605018757E1   9.849439285632732E-1  -5.680276202929252E1  
 1.420000000000000E9     9.850462037368377E-1  -5.846967497254602E1   5.503322706029060E-4   3.183185730324694E1   5.481683380170507E-4   3.137108995644042E1   9.858298599058649E-1  -5.764625980698055E1  
 1.440000000000000E9     9.866418177210660E-1  -5.927778254298917E1   5.624453605496120E-4   3.090053261465072E1   5.662816712600438E-4   2.981909825522817E1   9.867486374837292E-1  -5.850103056710898E1  
 1.460000000000000E9     9.875309210219797E-1  -6.018709435156337E1   5.782052312091246E-4   2.955896778015594E1   5.778314020347033E-4   2.981905910597083E1   9.839930150409824E-1  -5.934546325893690E1  
 1.480000000000000E9     9.861909737739905E-1  -6.107108317507729E1   5.909771792125052E-4   2.863488395104764E1   5.925140354936089E-4   2.857995796169605E1   9.823084572963368E-1  -6.019224433139331E1  
 1.500000000000000E9     9.859920450598524E-1  -6.190299761259615E1   6.031683477260903E-4   2.785200774506242E1   6.086882627228248E-4   2.766181779446697E1   9.840901054887018E-1  -6.099006625034233E1  
 1.520000000000000E9     9.880575005171952E-1  -6.276318718281658E1   6.193581928831204E-4   2.671461409461580E1   6.172109996722611E-4   2.737778828230870E1   9.851235258141774E-1  -6.179924783119328E1  
 1.540000000000000E9     9.891614726299995E-1  -6.358814428640893E1   6.465736120415766E-4   2.593956453899047E1   6.350032526072783E-4   2.616991560049660E1   9.863192753173262E-1  -6.260813342182208E1  
 1.560000000000000E9     9.874839470541781E-1  -6.445474363662179E1   6.552470622899463E-4   2.529732531816031E1   6.499090830070512E-4   2.577211240122469E1   9.846818865070715E-1  -6.341613631095787E1  
 1.580000000000000E9     9.874121134410330E-1  -6.524099922874875E1   6.767452582790986E-4   2.410091385405941E1   6.704585013351952E-4   2.447468055406338E1   9.841241849529215E-1  -6.429241366766350E1  
 1.600000000000000E9     9.887256130741762E-1  -6.606158442104929E1   6.910827001851154E-4   2.260766560015397E1   6.940435719086685E-4   2.354523528663304E1   9.869217447243835E-1  -6.509983782569829E1  
 1.620000000000000E9     9.886541118399078E-1  -6.687618960054118E1   7.077100423001041E-4   2.219136011751422E1   7.214955022754047E-4   2.261084412281885E1   9.886173186082674E-1  -6.595455227806423E1  
 1.640000000000000E9     9.867934371067700E-1  -6.771089990704293E1   7.373198265749249E-4   2.211007352948717E1   7.410286341235843E-4   2.153242873587791E1   9.875787697699893E-1  -6.676870734697023E1  
 1.660000000000000E9     9.879746349284820E-1  -6.857297867725104E1   7.499698193960937E-4   2.042568450937815E1   7.586995348730046E-4   2.098801539822487E1   9.868881675825285E-1  -6.764937160649100E1  
 1.680000000000000E9     9.902191816939502E-1  -6.939543830995999E1   7.739644642088629E-4   2.047679578707396E1   7.647288723740299E-4   1.992711729453837E1   9.889517833931711E-1  -6.847782280593150E1  
 1.700000000000000E9     9.910576340292626E-1  -7.018167244477782E1   7.931540162674717E-4   1.910242315332231E1   7.954435573468800E-4   1.964207266073827E1   9.916033183925542E-1  -6.925275939352589E1  
 1.720000000000000E9     9.903610728612087E-1  -7.101399197720707E1   8.195325169004991E-4   1.855445912269918E1   8.167168548455577E-4   1.831895339508306E1   9.922096826898433E-1  -7.001983042290351E1  
 1.740000000000000E9     9.913422351222681E-1  -7.182694432479360E1   8.409626295863684E-4   1.774315882794092E1   8.401251465448067E-4   1.760509037526837E1   9.893919863625691E-1  -7.082720351290850E1  
 1.760000000000000E9     9.921771404096225E-1  -7.262054518740102E1   8.711883039807738E-4   1.612345881963987E1   8.697548263186605E-4   1.676474610663572E1   9.865269445153583E-1  -7.162533394276717E1  
 1.780000000000000E9     9.907080789403516E-1  -7.343505807736793E1   8.916659798788446E-4   1.590706097361569E1   8.928397865962757E-4   1.603266619292866E1   9.887563498327012E-1  -7.239333536355130E1  
 1.800000000000000E9     9.887463394027336E-1  -7.424103242242342E1   9.146130767068567E-4   1.520930877899872E1   9.144021022341071E-4   1.547130070388943E1   9.907040811547998E-1  -7.320379556771479E1  
 1.820000000000000E9     9.924145190053071E-1  -7.505032233481362E1   9.390977465383471E-4   1.466131320225905E1   9.454597660212361E-4   1.417315321609960E1   9.903735588695726E-1  -7.404221815378888E1  
 1.840000000000000E9     9.946748022743557E-1  -7.588656119290698E1   9.642512852439674E-4   1.287525345270969E1   9.792781710159519E-4   1.365729853689549E1   9.880235536365126E-1  -7.495389650899436E1  
 1.860000000000000E9     9.946077242658813E-1  -7.666102262830276E1   9.923676943412003E-4   1.253522571188628E1   9.924587770118484E-4   1.270798102198025E1   9.896839857840605E-1  -7.574253488327989E1  
 1.880000000000000E9     9.929767096581749E-1  -7.746138528261598E1   1.029099296784798E-3   1.169515554742805E1   1.034953115649046E-3   1.156863976877552E1   9.936723384277358E-1  -7.656077721765152E1  
 1.900000000000000E9     9.958554489522327E-1  -7.822271034793093E1   1.051899258870712E-3   1.071718155585718E1   1.057409692475258E-3   1.118596964976331E1   9.950674732203895E-1  -7.735863844678067E1  
 1.920000000000000E9     9.967724323368059E-1  -7.901159534936123E1   1.089071975717087E-3   9.900282635133920   1.083856046345855E-3   9.940387683694624   9.950165452833140E-1  -7.816365158953231E1  
 1.940000000000000E9     9.964603796754952E-1  -7.982728849320353E1   1.121703055659169E-3   9.427081041828371   1.124983158703823E-3   9.384682955178704   9.930804118261153E-1  -7.899222071622948E1  
