#  HZ   S   MA   R     50.00 
! Rohde & Schwarz ZVA67 4Ports - Version 4.11 - 1305.7002k04 SN: 101051
! Date: 2023-04-26 10:14:04
! Measurements: S11 S21 S12 S22 
! 
 2.000000000000000E7     3.267482014950945E-3   1.032614361399893E1   9.909460825528115E-1  -3.813298641843081   9.919979239659265E-1  -4.186505682793007   3.919109003601654E-2   4.781100038816766E1  
 4.000000000000000E7     2.701971925683583E-3   2.209114754362801E1   9.915463634884215E-1  -7.041896100731377   9.934308017886816E-1  -6.553537931442280   2.627275136246942E-2   7.876624961641347  
 6.000000000000000E7     1.577233147734215E-2  -1.519697884919343E1   9.848933697367187E-1  -1.025831693373881E1   9.850241610215189E-1  -1.018244907944439E1   1.980431963684750E-2   3.625110321578051  
 8.000000000000000E7     2.266075926259556E-2   6.521265355606364E1   9.906727077437790E-1  -1.360535530491272E1   9.895989639704387E-1  -1.373447203864294E1   2.435267960882512E-2  -1.243275233042114E1  
 1.000000000000000E8     1.694862908649046E-2  -4.430699941556433E1   9.842609022141121E-1  -1.653679980827691E1   9.853759181501401E-1  -1.683012310408608E1   2.401362821157489E-2  -4.099036490548109E1  
 1.200000000000000E8     2.358421611232703E-2  -5.000941104039994E1   9.875848243036011E-1  -1.988028596109158E1   9.848776226130361E-1  -1.989323659637202E1   2.011785301749958E-2  -3.141996739865596E1  
 1.400000000000000E8     1.657657285683183E-2  -4.372000820479590E1   9.840232057019481E-1  -2.331328323192697E1   9.859396018977007E-1  -2.313942562414409E1   2.370470221134074E-2  -4.820747958833272E1  
 1.600000000000000E8     1.529333404520534E-2  -6.452265107322363E1   9.838968644395680E-1  -2.650863690327305E1   9.834352402824034E-1  -2.652169291483410E1   1.992470951747007E-2  -5.621488505979681E1  
 1.800000000000000E8     2.136253912986548E-2  -7.741228108030143E1   9.848390102913499E-1  -2.965910869191784E1   9.848599864906575E-1  -2.983244087181254E1   2.273016750497837E-2  -5.966058400035360E1  
 2.000000000000000E8     2.428171653705840E-2  -8.157281963226807E1   9.830273872349935E-1  -3.304717303181145E1   9.849861722487503E-1  -3.311115142475548E1   2.558637879655785E-2  -7.011063376465152E1  
 2.200000000000000E8     2.442686910873766E-2  -8.824286541567898E1   9.848870842755414E-1  -3.641361924596367E1   9.836114794495273E-1  -3.638991504743635E1   2.591880244557714E-2  -7.158123538655963E1  
 2.400000000000000E8     2.573783108603433E-2  -8.984153571770193E1   9.837201931774250E-1  -3.959438424251820E1   9.842367263978840E-1  -3.970412358102355E1   2.901569631951212E-2  -8.163979553039810E1  
 2.600000000000000E8     2.684789729079713E-2  -9.559549854318468E1   9.820632684311075E-1  -4.291493245590768E1   9.832966041503349E-1  -4.302150677214141E1   2.752656785299057E-2  -8.321880915282141E1  
 2.800000000000000E8     2.465994129920075E-2  -1.001971057095076E2   9.820510615353415E-1  -4.619263859920849E1   9.813028142777043E-1  -4.630903372232712E1   3.093632821399737E-2  -9.275228601112755E1  
 3.000000000000000E8     2.953717534336979E-2  -1.016207664797295E2   9.814594762998546E-1  -4.948427476892552E1   9.824017366802481E-1  -4.956597112554363E1   3.227269412577446E-2  -9.974939653860653E1  
 3.200000000000000E8     2.904001908768286E-2  -1.080728338818020E2   9.809617539340515E-1  -5.286494953218982E1   9.819107006825311E-1  -5.297738556575164E1   3.083874622112773E-2  -9.922840539550623E1  
 3.400000000000000E8     2.992751813159049E-2  -1.155552582578825E2   9.805976832467663E-1  -5.610679179459228E1   9.809776757027278E-1  -5.618111049008442E1   3.379149301533491E-2  -1.051496698178234E2  
 3.600000000000000E8     3.313196891027212E-2  -1.143938620839043E2   9.802936243147811E-1  -5.939558610794517E1   9.802918312969574E-1  -5.939692659281317E1   3.510113605699185E-2  -1.120331779479118E2  
 3.800000000000000E8     3.312352445551003E-2  -1.184197099170623E2   9.787753542477443E-1  -6.266434920426575E1   9.794899349128984E-1  -6.271585821937660E1   3.447320930543312E-2  -1.160748250938618E2  
 4.000000000000000E8     3.735593842383413E-2  -1.239843537397262E2   9.789769513651151E-1  -6.593409246550102E1   9.788134447876669E-1  -6.603419412856438E1   3.311433351182708E-2  -1.211583202036835E2  
 4.200000000000000E8     3.730217257432474E-2  -1.280977278699183E2   9.785632961006892E-1  -6.926266444364009E1   9.787457651623058E-1  -6.931476771759161E1   3.524801934454470E-2  -1.259491397721811E2  
 4.400000000000000E8     3.813517812911625E-2  -1.344094880698050E2   9.775527651321481E-1  -7.253698834321652E1   9.777563475796469E-1  -7.253782490006537E1   3.573836072141992E-2  -1.315371088843156E2  
 4.600000000000000E8     3.863284944321452E-2  -1.350131167741134E2   9.770913357107209E-1  -7.575291650824481E1   9.778397516123137E-1  -7.583798345976399E1   3.571491581450294E-2  -1.328200646182805E2  
 4.800000000000000E8     3.891267660608724E-2  -1.383848673243045E2   9.761668146473039E-1  -7.904018492896771E1   9.766016500757212E-1  -7.912124049043051E1   3.662505379424291E-2  -1.371404292781523E2  
 5.000000000000000E8     3.813003635189946E-2  -1.431989779693923E2   9.757314716527958E-1  -8.229882151777801E1   9.769949150094703E-1  -8.239330555004540E1   3.894693824902343E-2  -1.426942239484040E2  
 5.200000000000000E8     3.832065193977965E-2  -1.452072104999872E2   9.752592867111726E-1  -8.557771647772179E1   9.757588196119593E-1  -8.568110548483163E1   3.764786051718927E-2  -1.438803613432237E2  
 5.400000000000000E8     3.856769783015759E-2  -1.498665953469219E2   9.745776406548878E-1  -8.882765827116317E1   9.743074403841422E-1  -8.893771521568156E1   3.882322334675381E-2  -1.486400058949971E2  
 5.600000000000000E8     4.041756221299740E-2  -1.530910100844867E2   9.741218009629169E-1  -9.210026497451472E1   9.746482789905077E-1  -9.220437647028720E1   3.903795746322349E-2  -1.536099065457947E2  
 5.800000000000000E8     3.959094681549477E-2  -1.577853357134151E2   9.735371877808570E-1  -9.535602925135629E1   9.740523090656281E-1  -9.543009779440251E1   3.721869658258722E-2  -1.551102111124767E2  
 6.000000000000000E8     4.090703801240268E-2  -1.626271867305257E2   9.722693377793238E-1  -9.860274981777017E1   9.735291257146305E-1  -9.869052884502293E1   3.581635319457185E-2  -1.588436232814693E2  
 6.200000000000000E8     3.935531646888350E-2  -1.647331662068292E2   9.727916902842096E-1  -1.018677478555534E2   9.736806078334095E-1  -1.019581203111122E2   3.671702705249679E-2  -1.613703440936026E2  
 6.400000000000000E8     3.883354125283513E-2  -1.668750927960622E2   9.713419119795368E-1  -1.051205520023648E2   9.728296264099997E-1  -1.052768636770596E2   3.748177745737646E-2  -1.665420778415013E2  
 6.600000000000000E8     3.881680990259533E-2  -1.703039836947985E2   9.712314842485135E-1  -1.084177315979915E2   9.721503290381456E-1  -1.085016175220303E2   3.543321193799195E-2  -1.708915315885086E2  
 6.800000000000000E8     3.782655880621259E-2  -1.761382038909733E2   9.706526340133297E-1  -1.116915537265061E2   9.711508230565979E-1  -1.117828249402623E2   3.505157308352033E-2  -1.752436414983672E2  
 7.000000000000000E8     3.530015103290532E-2   1.799719026728992E2   9.701632386457704E-1  -1.149346761848937E2   9.713942962423294E-1  -1.150637669799479E2   3.601085551592669E-2  -1.775817847003382E2  
 7.200000000000000E8     3.463576287557106E-2   1.786801274128497E2   9.694634926414123E-1  -1.181967356564476E2   9.704366673773183E-1  -1.182865051965899E2   3.528380460862395E-2   1.783560984629685E2  
 7.400000000000000E8     3.460218409151270E-2   1.747098173626618E2   9.692876747079970E-1  -1.214185733209742E2   9.704123692396307E-1  -1.215495795635621E2   3.341786080937725E-2   1.737929839604830E2  
 7.600000000000000E8     3.291968499042448E-2   1.698434338614032E2   9.685741372606247E-1  -1.246980810415356E2   9.691872408833513E-1  -1.248140971847843E2   3.148487519973237E-2   1.737731425790753E2  
 7.800000000000000E8     3.138801897106086E-2   1.672614970614026E2   9.688419961794750E-1  -1.279440980325342E2   9.694510333686734E-1  -1.280492101090915E2   3.107781754422763E-2   1.728922153665450E2  
 8.000000000000000E8     3.122315774412854E-2   1.657864833077690E2   9.680292184403398E-1  -1.312163093547107E2   9.686696281906951E-1  -1.313264605480725E2   2.962573414309064E-2   1.684875315951618E2  
 8.200000000000000E8     3.035297076447969E-2   1.626048147785133E2   9.677786277434463E-1  -1.344810436015185E2   9.687562458328116E-1  -1.345931799499609E2   2.793303641707747E-2   1.667861121365620E2  
 8.400000000000000E8     2.809162844926567E-2   1.578254761363051E2   9.670489985585549E-1  -1.377279895341313E2   9.682893765909710E-1  -1.378723362051472E2   2.679241034944028E-2   1.666239084612643E2  
 8.600000000000000E8     2.620746951658429E-2   1.533855595758320E2   9.670971435471096E-1  -1.409905468596148E2   9.679271324149117E-1  -1.411103905802499E2   2.610636530224159E-2   1.602633842993351E2  
 8.800000000000000E8     2.225013590487892E-2   1.525727995816451E2   9.662925123553785E-1  -1.442443658161233E2   9.668127296668284E-1  -1.443956754252970E2   2.277765570622534E-2   1.580662234394282E2  
 9.000000000000000E8     2.119218994006757E-2   1.524559668028185E2   9.657261771647832E-1  -1.475140407778053E2   9.671666420738185E-1  -1.476683024983069E2   2.015960235345140E-2   1.591112026319664E2  
 9.200000000000000E8     1.948783585327580E-2   1.510958328466240E2   9.650546645959872E-1  -1.507586755744487E2   9.664439875635498E-1  -1.509263416758737E2   1.793797493225144E-2   1.575600527964064E2  
 9.400000000000000E8     1.684243616803219E-2   1.456827143244152E2   9.649410672620592E-1  -1.540226388745429E2   9.663828188439673E-1  -1.541755443050604E2   1.657277682392800E-2   1.531052151583549E2  
 9.600000000000000E8     1.405371988352951E-2   1.455307795102109E2   9.643556933977882E-1  -1.572744224270503E2   9.660236334326892E-1  -1.574581013715339E2   1.501077099558442E-2   1.509443324497686E2  
 9.800000000000000E8     1.129585026970695E-2   1.514656594406547E2   9.641673918640462E-1  -1.605695489567625E2   9.656058081922269E-1  -1.607009452025328E2   1.226940961205818E-2   1.555572407398036E2  
 1.000000000000000E9     1.052883727285780E-2   1.555180774315887E2   9.637013858297304E-1  -1.637961818084795E2   9.646918089737480E-1  -1.639545912439286E2   1.235779156263851E-2   1.615959036129412E2  
 1.020000000000000E9     7.107557108559657E-3   1.563407583586843E2   9.633712228951333E-1  -1.670776113681025E2   9.646454451509802E-1  -1.672351461601982E2   1.101045906143671E-2   1.605421080225442E2  
 1.040000000000000E9     4.141854573167593E-3  -1.746603268539987E2   9.627463706404363E-1  -1.703057211470741E2   9.639293911998006E-1  -1.705006516132152E2   9.794200687300326E-3   1.730430965170967E2  
 1.060000000000000E9     5.151596345773398E-3  -1.575041477399059E2   9.629182376723436E-1  -1.735721424056303E2   9.640105352181274E-1  -1.737561962100616E2   1.162279193102371E-2  -1.662905375828028E2  
 1.080000000000000E9     6.763394435994750E-3  -1.482408783300296E2   9.616537567528701E-1  -1.768569819852968E2   9.631820848205471E-1  -1.770069975283101E2   1.249502116366691E-2  -1.614865738412142E2  
 1.100000000000000E9     7.303401401949436E-3  -1.328223277682091E2   9.621328075362894E-1   1.798757869391313E2   9.636452458144877E-1   1.797384604051506E2   1.155351947581295E-2  -1.490779666773973E2  
 1.120000000000000E9     7.189718596314834E-3  -1.102984543146790E2   9.615649825902748E-1   1.766290100486443E2   9.631121721340596E-1   1.764454556268401E2   1.304539264723821E-2  -1.326907630884778E2  
 1.140000000000000E9     1.223709251102654E-2  -1.034253270625182E2   9.616730505909729E-1   1.733736543755399E2   9.633120404002411E-1   1.731997044709388E2   1.702495686683771E-2  -1.276574403611758E2  
 1.160000000000000E9     1.563389757315453E-2  -1.077188266579048E2   9.613095406250597E-1   1.700727711720014E2   9.625523337548140E-1   1.699186490174576E2   1.808777358592370E-2  -1.306770310267109E2  
 1.180000000000000E9     1.787572085575114E-2  -1.101010920631467E2   9.612846835677741E-1   1.668280994746646E2   9.626526651013433E-1   1.666644927804515E2   1.915372100667675E-2  -1.257519565578163E2  
 1.200000000000000E9     2.032341420000515E-2  -1.033610653984173E2   9.606729874040210E-1   1.635546645500566E2   9.622458778089600E-1   1.634181269049512E2   2.305423935354055E-2  -1.255619350170724E2  
 1.220000000000000E9     2.515531100643597E-2  -1.056726187319287E2   9.607576557040652E-1   1.602822938836541E2   9.622205081664802E-1   1.601091072690604E2   2.569558468400931E-2  -1.332870778039876E2  
 1.240000000000000E9     2.979271652155284E-2  -1.113072154272870E2   9.596694265763005E-1   1.569971750684247E2   9.615380489664119E-1   1.568363662800741E2   2.632050519574873E-2  -1.377112541845125E2  
 1.260000000000000E9     3.125750432934982E-2  -1.164084022252107E2   9.598966404706445E-1   1.537191813353554E2   9.615303549084445E-1   1.535680886423797E2   2.902641819970062E-2  -1.332238236623705E2  
 1.280000000000000E9     3.288292271652348E-2  -1.157734762092899E2   9.594775236478034E-1   1.504260863669267E2   9.608512295147155E-1   1.502680574023218E2   3.293838738053825E-2  -1.348812247745545E2  
 1.300000000000000E9     3.599168247445179E-2  -1.155070093659376E2   9.591812630690640E-1   1.471869252148278E2   9.610605053550840E-1   1.470018602834336E2   3.624443665143594E-2  -1.386009747635769E2  
 1.320000000000000E9     4.109516702031645E-2  -1.195312346722300E2   9.588250415100897E-1   1.438983470073723E2   9.604350634194452E-1   1.436839114275927E2   3.869051020869294E-2  -1.397379650112402E2  
 1.340000000000000E9     4.382093410295267E-2  -1.248295276671284E2   9.591343254536265E-1   1.406171154459718E2   9.606196857204696E-1   1.404570278140151E2   4.178373160954548E-2  -1.406227378611117E2  
 1.360000000000000E9     4.450263203299892E-2  -1.279401920296189E2   9.586186838533540E-1   1.372997862603481E2   9.596644160216326E-1   1.371215432522159E2   4.552591904302044E-2  -1.442255990561699E2  
 1.380000000000000E9     4.768501831854583E-2  -1.284722801440275E2   9.584279253159150E-1   1.340310339223474E2   9.594340267753339E-1   1.338598270706999E2   4.570644489376807E-2  -1.484370499684060E2  
 1.400000000000000E9     5.173964729978504E-2  -1.297907847983206E2   9.578915567599564E-1   1.307440417499403E2   9.592283949319224E-1   1.305404433718461E2   4.681362626839332E-2  -1.499363498019343E2  
 1.420000000000000E9     5.700804055482527E-2  -1.346993435730615E2   9.577016552170926E-1   1.274461840542308E2   9.585550362700039E-1   1.272891276516937E2   5.004191767825725E-2  -1.504368576667601E2  
 1.440000000000000E9     5.889455990004301E-2  -1.386283300729762E2   9.572172767253322E-1   1.241592077470486E2   9.586700869428168E-1   1.239648957614808E2   5.306289056317244E-2  -1.534992666812146E2  
 1.460000000000000E9     6.050562957290386E-2  -1.406191745697690E2   9.561280168564691E-1   1.208328010070034E2   9.573576180031665E-1   1.206554168158297E2   5.517441047482644E-2  -1.578167924316718E2  
 1.480000000000000E9     6.433448007016504E-2  -1.434635709985750E2   9.553036038375264E-1   1.175229439378280E2   9.567979411665606E-1   1.173390280135058E2   5.754850916976503E-2  -1.596767093634658E2  
 1.500000000000000E9     6.727599395649103E-2  -1.466038190988905E2   9.546640555617501E-1   1.142255624216515E2   9.564216340183996E-1   1.140467116428405E2   6.116197671066982E-2  -1.626901454254842E2  
 1.520000000000000E9     6.809611600772844E-2  -1.514950406026463E2   9.536621382754232E-1   1.109204455988026E2   9.552823470584726E-1   1.107246550517931E2   6.454239010199669E-2  -1.666916161670408E2  
 1.540000000000000E9     6.851602935356344E-2  -1.543382997967677E2   9.532763453734252E-1   1.076174008673767E2   9.547375163101226E-1   1.074360107030986E2   6.601959622440247E-2  -1.698738956816722E2  
 1.560000000000000E9     7.160551451442979E-2  -1.563895740569508E2   9.519144548382296E-1   1.042858162473190E2   9.541131157365158E-1   1.040765944313764E2   6.862710540846788E-2  -1.724651007823267E2  
 1.580000000000000E9     7.619005999911567E-2  -1.599408133751403E2   9.515308178073884E-1   1.009618586274361E2   9.526282501296830E-1   1.007635659768276E2   7.224944954850719E-2  -1.753573017669133E2  
 1.600000000000000E9     7.949690390120148E-2  -1.634741216375094E2   9.505769025073136E-1   9.760763357497633E1   9.520962205396277E-1   9.739565578127639E1   7.515129575689786E-2  -1.798882862346017E2  
 1.620000000000000E9     8.288083169799475E-2  -1.671124987312361E2   9.492505960409757E-1   9.420197608798009E1   9.506430045335336E-1   9.402155701450276E1   7.717519752414129E-2   1.771139829312834E2  
 1.640000000000000E9     8.579505073143226E-2  -1.695413246326574E2   9.473883097232400E-1   9.072124453868793E1   9.489400710477114E-1   9.054284282886955E1   8.208067057280782E-2   1.739202440869119E2  
 1.660000000000000E9     9.326454353767782E-2  -1.741350450234671E2   9.451113277656672E-1   8.719227325390553E1   9.465118393868713E-1   8.699560369484591E1   8.829451383782352E-2   1.690843032565732E2  
 1.680000000000000E9     1.007256877020176E-1   1.783077854748046E2   9.388737339419315E-1   8.344419048109519E1   9.402631992900742E-1   8.323383598246178E1   9.466966548901143E-2   1.622401976496840E2  
 1.700000000000000E9     1.123208366985100E-1   1.666744332165965E2   9.213431115682016E-1   7.946018986460648E1   9.229047967046735E-1   7.922750522162512E1   1.031367400261363E-1   1.514154359844002E2  
 1.720000000000000E9     1.176370349629608E-1   1.370810844269445E2   8.706550302294600E-1   7.717428353112423E1   8.719544677215650E-1   7.695147894487771E1   9.531821864879633E-2   1.269708136225868E2  
 1.740000000000000E9     4.031556961518976E-2   1.128991245858339E2   8.870794225654686E-1   7.832740873958498E1   8.880359186251308E-1   7.814355642713467E1   6.614294335182182E-2   1.283208360228398E2  
 1.760000000000000E9     4.453256542599215E-2   1.700831312004301E2   9.297271221557389E-1   7.491348856770772E1   9.311388769828788E-1   7.472670998597307E1   5.505519689029721E-2   1.334716220719643E2  
 1.780000000000000E9     5.744928238244108E-2   1.708095744239554E2   9.411129894948351E-1   7.094989821506263E1   9.422000329730865E-1   7.071506953068456E1   5.676687659143412E-2   1.411857938248153E2  
 1.800000000000000E9     6.261822100469974E-2   1.688932028820226E2   9.449353731483572E-1   6.719523161707595E1   9.461154277802629E-1   6.700180248027012E1   6.195952338694350E-2   1.427688927814260E2  
 1.820000000000000E9     6.545904644193840E-2   1.671019197156834E2   9.462787335448158E-1   6.369738319405659E1   9.473134358630552E-1   6.351620146374813E1   6.599209940732315E-2   1.398276641888442E2  
 1.840000000000000E9     6.899494945619089E-2   1.636141686705031E2   9.473233871522309E-1   6.022828020071613E1   9.481184374105739E-1   6.003852502919278E1   6.671631426907525E-2   1.376390737254742E2  
 1.860000000000000E9     7.160827641142267E-2   1.598528189234884E2   9.466338677861371E-1   5.686579682712637E1   9.484599884994455E-1   5.664988992035138E1   6.742065907079101E-2   1.365782025364839E2  
 1.880000000000000E9     7.158406556175812E-2   1.555002735242240E2   9.474923150533229E-1   5.349604735959514E1   9.492302714080354E-1   5.328619243297588E1   7.027394302710445E-2   1.343911931680683E2  
 1.900000000000000E9     6.982604095352504E-2   1.525879345314969E2   9.475328114730113E-1   5.016502726236144E1   9.488709092773261E-1   4.995963389036595E1   7.021960922880328E-2   1.302018174390983E2  
 1.920000000000000E9     7.195258162911011E-2   1.498346297555633E2   9.480279979707251E-1   4.685188950727779E1   9.494775995547111E-1   4.664907728490707E1   6.812818834996892E-2   1.257032364652826E2  
