#  HZ   S   MA   R     50.00 
! Rohde & Schwarz ZVA67 4Ports - Version 4.11 - 1305.7002k04 SN: 101051
! Date: 2023-04-26 10:46:17
! Measurements: S11 S21 S12 S22 
! 
 8.200000000000000E9     3.015874266518581E-1  -1.190993229503564E2   9.306367901510432E-1   1.526469354839590E2   9.312890051029866E-1   1.524837660440813E2   3.004275627237640E-1  -1.200095324776665E2  
 8.210000000000000E9     3.057226375257910E-1  -1.190699978122854E2   9.306364651357182E-1   1.521984160112864E2   9.313847370601334E-1   1.520183050794418E2   3.046168430300403E-1  -1.199118410900722E2  
 8.220000000000000E9     3.087414078536996E-1  -1.194108216126543E2   9.294903026548163E-1   1.518233826035291E2   9.300208400147286E-1   1.516610376611096E2   3.079229720586967E-1  -1.202523038143060E2  
 8.230000000000000E9     3.120615931145928E-1  -1.197458620136820E2   9.282494532644250E-1   1.514432343622699E2   9.288011400298669E-1   1.512937053781789E2   3.112630084955581E-1  -1.205876678181570E2  
 8.240000000000000E9     3.153966004848552E-1  -1.200634863497306E2   9.272135424623682E-1   1.510825039067660E2   9.279548478181673E-1   1.509244296584809E2   3.146288995331182E-1  -1.209031458538246E2  
 8.250000000000000E9     3.186463884611366E-1  -1.204045524315831E2   9.260725597965664E-1   1.507007387198254E2   9.268544388102380E-1   1.505591711740078E2   3.178662114932543E-1  -1.212528918410514E2  
 8.260000000000000E9     3.218154967514262E-1  -1.207716445455559E2   9.247448674927964E-1   1.503324468968375E2   9.254215665045481E-1   1.501713626596376E2   3.211049510884811E-1  -1.216402157656564E2  
 8.270000000000000E9     3.250018101519940E-1  -1.211125047112466E2   9.237592133279091E-1   1.499564924569200E2   9.245779130973858E-1   1.498122845808710E2   3.242830126417770E-1  -1.219639966914719E2  
 8.280000000000000E9     3.279339091481245E-1  -1.214741802710553E2   9.224735937061739E-1   1.495914179653647E2   9.230501917412035E-1   1.494358590503155E2   3.274941427336184E-1  -1.223425551235702E2  
 8.290000000000000E9     3.310594755316574E-1  -1.217918431357463E2   9.211209329533434E-1   1.492373245368866E2   9.220572962596921E-1   1.490689311115171E2   3.305508928304436E-1  -1.226988298028867E2  
 8.300000000000000E9     3.339812393936902E-1  -1.221276391747048E2   9.200016945047579E-1   1.488662691543748E2   9.208290053304111E-1   1.487040030402111E2   3.337166512814755E-1  -1.230164795522668E2  
 8.310000000000000E9     3.368549492285548E-1  -1.224705309738878E2   9.188049511941173E-1   1.485156972564708E2   9.194153582933207E-1   1.483483188130415E2   3.366933183713377E-1  -1.233649381434523E2  
 8.320000000000000E9     3.399271854165361E-1  -1.228145480222605E2   9.175027885273379E-1   1.481464755112807E2   9.183327827363608E-1   1.479846961654829E2   3.397081361227631E-1  -1.237215164185063E2  
 8.330000000000000E9     3.429104045634368E-1  -1.231629351705505E2   9.162639519275515E-1   1.477824237451894E2   9.170746383683310E-1   1.476198395471521E2   3.427175355255466E-1  -1.240848092604667E2  
 8.340000000000000E9     3.457688147651885E-1  -1.234732273670010E2   9.151650778144443E-1   1.474133594016580E2   9.158339558675223E-1   1.472630395762518E2   3.456387372973635E-1  -1.244120156324626E2  
 8.350000000000000E9     3.485850325397290E-1  -1.238090098417873E2   9.140469616875218E-1   1.470595094194172E2   9.145571867458811E-1   1.469111519018721E2   3.485358859759184E-1  -1.247556400361399E2  
 8.360000000000000E9     3.513847084116885E-1  -1.241466670343040E2   9.127223763072794E-1   1.467117895765261E2   9.133609242834291E-1   1.465501202835984E2   3.514665245416461E-1  -1.251140824630750E2  
 8.370000000000000E9     3.542590886784255E-1  -1.244629995083932E2   9.115635384128222E-1   1.463557055176711E2   9.123499644615609E-1   1.461902601445100E2   3.542343317044546E-1  -1.254623490109861E2  
 8.380000000000000E9     3.571190624710375E-1  -1.248200960966413E2   9.102787638613094E-1   1.460055225582913E2   9.112380136199856E-1   1.458166031774117E2   3.571133930145150E-1  -1.258129089065477E2  
 8.390000000000000E9     3.597611473984197E-1  -1.251129701361472E2   9.092226926451802E-1   1.456516288217660E2   9.098987559509691E-1   1.454851969787297E2   3.598066222785126E-1  -1.261300424470351E2  
 8.400000000000000E9     3.617192101932680E-1  -1.252917041732479E2   9.075338217989135E-1   1.452852189267379E2   9.081994991511795E-1   1.451065355967559E2   3.623997343554741E-1  -1.265316154246739E2  
 8.410000000000000E9     3.644973310498388E-1  -1.256146728629152E2   9.061027664357763E-1   1.449304166634064E2   9.069827975123548E-1   1.447773796846287E2   3.650111563917753E-1  -1.268661364785479E2  
 8.420000000000000E9     3.669693064795367E-1  -1.259106837847734E2   9.050732526500327E-1   1.445962011466339E2   9.056388039831007E-1   1.444193895714534E2   3.675173244916541E-1  -1.271991975565651E2  
 8.430000000000000E9     3.694974652680920E-1  -1.262269232559067E2   9.037570413765036E-1   1.442393199684940E2   9.045592266695767E-1   1.440848062771766E2   3.699812841904529E-1  -1.275334546171241E2  
 8.440000000000000E9     3.720028188262972E-1  -1.265503015572949E2   9.026390407647403E-1   1.438976877825047E2   9.032257715231069E-1   1.437258932204736E2   3.726711953470944E-1  -1.278717456607291E2  
 8.450000000000000E9     3.745155386367444E-1  -1.268603594863182E2   9.010992818473100E-1   1.435515028589198E2   9.019638417927366E-1   1.433838473107757E2   3.749682556774476E-1  -1.281938218217387E2  
 8.460000000000000E9     3.770046720235191E-1  -1.271642438351068E2   8.999522442315996E-1   1.432029122591907E2   9.006392153641791E-1   1.430553671181679E2   3.775335286260672E-1  -1.285476076976711E2  
 8.470000000000000E9     3.796271953899734E-1  -1.274840642312210E2   8.988183641536551E-1   1.428794999826554E2   8.994108764891652E-1   1.427015224596466E2   3.801056392093820E-1  -1.288692657934068E2  
 8.480000000000000E9     3.820351954107588E-1  -1.277792228917052E2   8.974887109464598E-1   1.425443871221810E2   8.980995265769322E-1   1.423727974155486E2   3.822783890171576E-1  -1.291840460247211E2  
 8.490000000000000E9     3.845838713208674E-1  -1.281024015951025E2   8.963717199447223E-1   1.421968825820978E2   8.968138668524632E-1   1.420309847817166E2   3.846165242311295E-1  -1.295169487527878E2  
 8.500000000000000E9     3.869922441269576E-1  -1.283960823851392E2   8.951692936419441E-1   1.418753176620422E2   8.958269235182190E-1   1.417060703203342E2   3.868914655807383E-1  -1.298190801666410E2  
 8.510000000000000E9     3.895049899977803E-1  -1.287116645805305E2   8.939079135498956E-1   1.415361157445244E2   8.943469891337149E-1   1.413674058043618E2   3.891725412742632E-1  -1.301445438801972E2  
 8.520000000000000E9     3.919318677257117E-1  -1.290339883953107E2   8.925776279418719E-1   1.411900125967875E2   8.932884101496849E-1   1.410267125646952E2   3.914214282405178E-1  -1.304753750607459E2  
 8.530000000000000E9     3.942587133583420E-1  -1.293430631865105E2   8.914054639373658E-1   1.408574580434001E2   8.919778657871467E-1   1.406851594467702E2   3.936558501415959E-1  -1.307858171626073E2  
 8.540000000000000E9     3.965829747331119E-1  -1.296510416184385E2   8.900267633656762E-1   1.405281891671699E2   8.908481528700915E-1   1.403438323925964E2   3.956239101086961E-1  -1.311007385976492E2  
 8.550000000000000E9     3.988682830948773E-1  -1.299674721519991E2   8.887943019136186E-1   1.401960435456040E2   8.895641928408642E-1   1.400058844079115E2   3.975582836300474E-1  -1.314288705235511E2  
 8.560000000000000E9     4.011457985305684E-1  -1.302647055879837E2   8.875204730059306E-1   1.398629852160302E2   8.880821889475087E-1   1.396832758696475E2   3.994916703758813E-1  -1.317218146982015E2  
 8.570000000000000E9     4.034572365211165E-1  -1.305658495436272E2   8.860623399534796E-1   1.395354783090313E2   8.868620823306630E-1   1.393486830690719E2   4.016002323084723E-1  -1.320148610936228E2  
 8.580000000000000E9     4.055689299743365E-1  -1.308875751338863E2   8.848935953643927E-1   1.392218453533250E2   8.857012585777785E-1   1.390435429720988E2   4.036286355646967E-1  -1.323145475203616E2  
 8.590000000000000E9     4.077806214739139E-1  -1.311722061483477E2   8.838202864076711E-1   1.389007228454351E2   8.843161320458673E-1   1.387236375852205E2   4.056413937169900E-1  -1.326097346451062E2  
 8.600000000000000E9     4.098439469490717E-1  -1.314955583487622E2   8.824865516712844E-1   1.385676787560489E2   8.832525813745177E-1   1.384003175859908E2   4.075283489587392E-1  -1.329037215172524E2  
 8.610000000000000E9     4.122049819422361E-1  -1.317763976324875E2   8.815415570713491E-1   1.382579411104016E2   8.818716619747321E-1   1.380814194560589E2   4.095596180019938E-1  -1.331737239440853E2  
 8.620000000000000E9     4.144027807699012E-1  -1.320816452260766E2   8.801681581496839E-1   1.379417873167716E2   8.807098018755777E-1   1.377666503857435E2   4.113997420508971E-1  -1.334906308868181E2  
 8.630000000000000E9     4.164155869999403E-1  -1.323847436217898E2   8.789353783730038E-1   1.376253602843590E2   8.794745772293907E-1   1.374545976469535E2   4.132975164088996E-1  -1.337937883335362E2  
 8.640000000000000E9     4.187708171728659E-1  -1.326766799961558E2   8.777569285669795E-1   1.373231503157350E2   8.783749848766030E-1   1.371338327941757E2   4.150323439596867E-1  -1.340516137368990E2  
 8.650000000000000E9     4.205962601979281E-1  -1.329689868360440E2   8.764232051566665E-1   1.370061424915120E2   8.771461824094688E-1   1.368259185506865E2   4.167529314892859E-1  -1.343432387183130E2  
 8.660000000000000E9     4.227121028730290E-1  -1.332630637597112E2   8.752629357722442E-1   1.366869100179089E2   8.758851650792707E-1   1.365103017814449E2   4.184825776103500E-1  -1.346370962947732E2  
 8.670000000000000E9     4.247494136555015E-1  -1.335627224833945E2   8.740750610833110E-1   1.363934529847164E2   8.745876649914778E-1   1.362147134740523E2   4.202160926337746E-1  -1.349056197834004E2  
 8.680000000000000E9     4.267138562502261E-1  -1.338639394706895E2   8.727642781110857E-1   1.360681810435611E2   8.732916610636173E-1   1.359020023885390E2   4.220524855894542E-1  -1.351626037852626E2  
 8.690000000000000E9     4.286778296816760E-1  -1.341726061336717E2   8.714136432872791E-1   1.357701261704696E2   8.720805208535204E-1   1.356018119631047E2   4.236539211380609E-1  -1.354407385736442E2  
 8.700000000000000E9     4.306255542419503E-1  -1.344677728711911E2   8.702576333001182E-1   1.354682449166537E2   8.707514910600912E-1   1.352907878370138E2   4.252226667978455E-1  -1.357346518223642E2  
 8.710000000000000E9     4.324969362522182E-1  -1.347636898482995E2   8.688438265765208E-1   1.351573596635575E2   8.694695981409596E-1   1.349929010488419E2   4.269881155510049E-1  -1.359821419468853E2  
 8.720000000000000E9     4.344604712274092E-1  -1.350518528488635E2   8.676697438969987E-1   1.348690147182267E2   8.682093457850835E-1   1.347084469438582E2   4.286909245245895E-1  -1.362280336969265E2  
 8.730000000000000E9     4.363628981803499E-1  -1.353324464339725E2   8.664222246443298E-1   1.345784307336759E2   8.667914263437205E-1   1.344100091948491E2   4.303123697240617E-1  -1.364875918408284E2  
 8.740000000000000E9     4.381232679701266E-1  -1.356448223000969E2   8.653211749802479E-1   1.342990691535003E2   8.658260752982964E-1   1.341185652845396E2   4.319575956981416E-1  -1.367408986109702E2  
 8.750000000000000E9     4.399651687171589E-1  -1.359394851364842E2   8.643819545608328E-1   1.340125238426662E2   8.650223615442125E-1   1.338378891439022E2   4.335855003657975E-1  -1.369840260297646E2  
 8.760000000000000E9     4.418682646299986E-1  -1.362448063090532E2   8.633014640349248E-1   1.337243523121801E2   8.639593505754981E-1   1.335594254897325E2   4.352624648519769E-1  -1.372210298234035E2  
 8.770000000000000E9     4.437201374977947E-1  -1.365469057028997E2   8.622913679008605E-1   1.334389213294459E2   8.625998282723622E-1   1.332520794785881E2   4.369016797157874E-1  -1.374650891602552E2  
 8.780000000000000E9     4.454300413646722E-1  -1.368601839039175E2   8.611698969134226E-1   1.331435285732482E2   8.616239583924346E-1   1.329830856777238E2   4.386156166755320E-1  -1.376971536707770E2  
 8.790000000000000E9     4.469727292575402E-1  -1.371734907828801E2   8.596456396553687E-1   1.328528481686178E2   8.603553974399902E-1   1.326827593260771E2   4.401518488002646E-1  -1.379396831462684E2  
 8.800000000000000E9     4.486208390414780E-1  -1.374009418539795E2   8.582378990591768E-1   1.324065099501019E2   8.600003791863533E-1   1.325636909092787E2   4.421710722915445E-1  -1.381831330679197E2  
 8.810000000000000E9     4.502115663626078E-1  -1.376962738810565E2   8.570555007906610E-1   1.321302645148506E2   8.587419909262790E-1   1.322673008102285E2   4.437274866053952E-1  -1.384148660118497E2  
 8.820000000000000E9     4.518958019911671E-1  -1.380091463910833E2   8.561035214880595E-1   1.318619832120438E2   8.576377147213511E-1   1.319688035456070E2   4.454834082562608E-1  -1.386828400801501E2  
 8.830000000000000E9     4.534161265499178E-1  -1.382788920593886E2   8.548791155156285E-1   1.316016234303751E2   8.565150020528037E-1   1.316966121714430E2   4.470757889368502E-1  -1.389049771166201E2  
 8.840000000000000E9     4.551384322113601E-1  -1.385784414423170E2   8.538543100699770E-1   1.313186537269160E2   8.554012941599553E-1   1.314318548270328E2   4.488981226053569E-1  -1.391399744990629E2  
 8.850000000000000E9     4.567773524438792E-1  -1.388636061306514E2   8.527227578085180E-1   1.310517892459268E2   8.544081741128060E-1   1.311684757205989E2   4.506452084065276E-1  -1.393628039582542E2  
 8.860000000000000E9     4.581473330626479E-1  -1.391483535313815E2   8.519492867099485E-1   1.308019115009996E2   8.534552459402476E-1   1.308826814229394E2   4.523800784686388E-1  -1.396053086556918E2  
 8.870000000000000E9     4.597993454181559E-1  -1.394266056493377E2   8.510365900952314E-1   1.305536845671645E2   8.526247559647205E-1   1.306249345648667E2   4.541296082325929E-1  -1.398346413157659E2  
 8.880000000000000E9     4.613868731569801E-1  -1.397209895982491E2   8.498778473228378E-1   1.302771976851216E2   8.518246941250229E-1   1.303561473668100E2   4.559849076609238E-1  -1.400880503175801E2  
 8.890000000000000E9     4.630322048648202E-1  -1.400001606445452E2   8.490875034621703E-1   1.300229375377823E2   8.509853497039887E-1   1.300962994870426E2   4.576947368368693E-1  -1.403158452156594E2  
 8.900000000000000E9     4.646670100699882E-1  -1.402798861640064E2   8.484784500681261E-1   1.297657850065295E2   8.502868957219422E-1   1.298299880866449E2   4.595874790590802E-1  -1.405838148176663E2  
 8.910000000000000E9     4.662625362468251E-1  -1.405596602840944E2   8.475822312773110E-1   1.295049768720627E2   8.494149038928103E-1   1.295480388094649E2   4.612319325825616E-1  -1.408480806090346E2  
 8.920000000000000E9     4.677519293697757E-1  -1.408339791183879E2   8.469406961805015E-1   1.292410119547998E2   8.486086079893237E-1   1.292887932721370E2   4.630694797743182E-1  -1.411128674627815E2  
 8.930000000000000E9     4.693727366451923E-1  -1.411129777693909E2   8.460909370940836E-1   1.289994875151046E2   8.480494790000469E-1   1.290233455061677E2   4.648763070168863E-1  -1.413626677409352E2  
 8.940000000000000E9     4.708223766942469E-1  -1.413855966896581E2   8.456084676025779E-1   1.287410225936510E2   8.473037007124723E-1   1.287782195494896E2   4.666522752145508E-1  -1.416292716420589E2  
 8.950000000000000E9     4.721480956938320E-1  -1.416811087063525E2   8.448851878380508E-1   1.284698602861902E2   8.466922895934053E-1   1.285154827853655E2   4.683482954028883E-1  -1.418978694218098E2  
 8.960000000000000E9     4.740101971341889E-1  -1.419600153368747E2   8.445111282973429E-1   1.282076647935877E2   8.462697412104966E-1   1.282583507991698E2   4.701219337308452E-1  -1.421572988510206E2  
 8.970000000000000E9     4.754052851584484E-1  -1.422299285201977E2   8.439401678666465E-1   1.279483466044159E2   8.458240095093002E-1   1.279924143358884E2   4.719159544704752E-1  -1.424059251340131E2  
 8.980000000000000E9     4.769063427870624E-1  -1.425313235591252E2   8.433063828760752E-1   1.276839335752052E2   8.453086418420975E-1   1.277157691235135E2   4.735056209629467E-1  -1.427139128734724E2  
 8.990000000000000E9     4.783040622457217E-1  -1.427968127791081E2   8.427392531384825E-1   1.274147499648741E2   8.447624955011875E-1   1.274438343556703E2   4.750394537316208E-1  -1.429960180623083E2  
 9.000000000000000E9     4.796931001485852E-1  -1.430698165489956E2   8.423227402404729E-1   1.271582413440242E2   8.441311953483441E-1   1.271694841008735E2   4.767868037995701E-1  -1.432653727625803E2  
 9.010000000000000E9     4.809430890893999E-1  -1.433609452454761E2   8.419284721307436E-1   1.268990906682982E2   8.438486058062096E-1   1.269027758537836E2   4.782172679608293E-1  -1.435462269029687E2  
 9.020000000000000E9     4.822201538087957E-1  -1.436233416564881E2   8.417716201787427E-1   1.266361811083792E2   8.433291765551635E-1   1.266469083952570E2   4.798808577461985E-1  -1.438173758584636E2  
 9.030000000000000E9     4.835541876201981E-1  -1.439030696721405E2   8.414458450036864E-1   1.263679678582412E2   8.429555709865881E-1   1.263789906857587E2   4.813379900554375E-1  -1.441107215322722E2  
 9.040000000000000E9     4.849259128530505E-1  -1.441810133241407E2   8.409822398306842E-1   1.261048142179173E2   8.427213766593417E-1   1.260873287190693E2   4.828435761739108E-1  -1.444175115883579E2  
 9.050000000000000E9     4.861119961691985E-1  -1.444463761732279E2   8.409498571315852E-1   1.258283505743633E2   8.426346990665806E-1   1.258106228269934E2   4.841948166913075E-1  -1.446965632490287E2  
 9.060000000000000E9     4.874951028188003E-1  -1.447145829490422E2   8.406395491736829E-1   1.255537103954042E2   8.421958824034230E-1   1.255391124456290E2   4.856152943032047E-1  -1.450111395628243E2  
 9.070000000000000E9     4.888200422025261E-1  -1.449824370288488E2   8.403587906900278E-1   1.252651153039397E2   8.419707439770442E-1   1.252526240372403E2   4.869450642011834E-1  -1.453057156253651E2  
 9.080000000000000E9     4.900751859041281E-1  -1.452409782288000E2   8.397786650626590E-1   1.249849126954693E2   8.417504265887019E-1   1.249566486869221E2   4.879803074486536E-1  -1.456172432496826E2  
 9.090000000000000E9     4.911538578935048E-1  -1.455302538875345E2   8.395256576795540E-1   1.246906117147639E2   8.414538841462386E-1   1.246659921881053E2   4.891294990454015E-1  -1.459433553412519E2  
 9.100000000000000E9     4.922654967856114E-1  -1.457477164258975E2   8.392408187383871E-1   1.244098431896130E2   8.410744041667420E-1   1.243833464040661E2   4.901446224365150E-1  -1.462347574993721E2  
 9.110000000000000E9     4.934238433338470E-1  -1.460073424693157E2   8.390537689795538E-1   1.241079560219794E2   8.408384542925844E-1   1.240746130351280E2   4.910179106982329E-1  -1.465483718880505E2  
 9.120000000000000E9     4.943087912366105E-1  -1.462458128155049E2   8.386227969168568E-1   1.238071919971912E2   8.403123089296458E-1   1.237567781106984E2   4.916615951254756E-1  -1.468751981976972E2  
 9.130000000000000E9     4.951622452817254E-1  -1.464801028002284E2   8.384153174406417E-1   1.234658537132705E2   8.402381076561624E-1   1.234319072936994E2   4.921156764413592E-1  -1.472324173279586E2  
 9.140000000000000E9     4.960331160067374E-1  -1.466754405970588E2   8.378974837829154E-1   1.231335390063254E2   8.394296991751804E-1   1.231104316616354E2   4.920312287158830E-1  -1.475095925186694E2  
 9.150000000000000E9     4.967266250716769E-1  -1.468868462899928E2   8.371607454682986E-1   1.227939333433915E2   8.388876372700046E-1   1.227607032279645E2   4.916821821126207E-1  -1.478062290026739E2  
