!Agilent Technologies,E5071C,MY46105125,A.08.12
!Date: Tue Sep 16 09:40:38 2014
!Data & Calibration Information:
!Freq	S11:SOLT1(ON)
# Hz S RI R 50
2000000000	-3.065664e-001	8.975041e-001
2001250000	-3.038140e-001	8.970182e-001
2002500000	-3.012887e-001	8.966462e-001
2003750000	-2.987320e-001	8.968059e-001
2005000000	-2.962268e-001	8.958114e-001
2006250000	-2.935226e-001	8.955705e-001
2007500000	-2.908621e-001	8.947494e-001
2008750000	-2.886896e-001	8.940539e-001
2010000000	-2.857155e-001	8.923294e-001
2011250000	-2.832551e-001	8.919671e-001
2012500000	-2.806209e-001	8.912316e-001
2013750000	-2.785633e-001	8.897530e-001
2015000000	-2.770017e-001	8.891772e-001
2016250000	-2.742616e-001	8.879629e-001
2017500000	-2.721182e-001	8.875495e-001
2018750000	-2.694952e-001	8.871248e-001
2020000000	-2.673124e-001	8.861972e-001
2021250000	-2.648186e-001	8.854973e-001
2022500000	-2.618364e-001	8.848357e-001
2023750000	-2.594511e-001	8.837468e-001
2025000000	-2.568671e-001	8.831269e-001
2026250000	-2.537068e-001	8.819564e-001
2027500000	-2.515363e-001	8.818341e-001
2028750000	-2.488869e-001	8.805066e-001
2030000000	-2.455089e-001	8.797504e-001
2031250000	-2.425828e-001	8.787065e-001
2032500000	-2.399170e-001	8.780951e-001
2033750000	-2.365074e-001	8.765629e-001
2035000000	-2.338571e-001	8.748566e-001
2036250000	-2.303614e-001	8.730518e-001
2037500000	-2.279882e-001	8.716060e-001
2038750000	-2.246576e-001	8.704031e-001
2040000000	-2.219567e-001	8.681886e-001
2041250000	-2.198485e-001	8.671276e-001
2042500000	-2.164582e-001	8.654612e-001
2043750000	-2.134297e-001	8.632367e-001
2045000000	-2.110786e-001	8.617727e-001
2046250000	-2.079881e-001	8.601811e-001
2047500000	-2.047509e-001	8.589557e-001
2048750000	-2.021566e-001	8.572238e-001
2050000000	-1.985664e-001	8.554096e-001
2051250000	-1.969009e-001	8.535507e-001
2052500000	-1.935627e-001	8.526086e-001
2053750000	-1.898478e-001	8.506883e-001
2055000000	-1.872052e-001	8.482868e-001
2056250000	-1.842917e-001	8.463011e-001
2057500000	-1.808740e-001	8.439806e-001
2058750000	-1.782661e-001	8.421049e-001
2060000000	-1.748892e-001	8.394729e-001
2061250000	-1.722383e-001	8.369014e-001
2062500000	-1.697024e-001	8.343580e-001
2063750000	-1.671884e-001	8.319349e-001
2065000000	-1.641321e-001	8.302657e-001
2066250000	-1.616835e-001	8.274273e-001
2067500000	-1.584456e-001	8.251774e-001
2068750000	-1.557401e-001	8.228204e-001
2070000000	-1.531923e-001	8.206008e-001
2071250000	-1.508118e-001	8.177536e-001
2072500000	-1.487033e-001	8.150880e-001
2073750000	-1.459378e-001	8.129736e-001
2075000000	-1.438652e-001	8.107099e-001
2076250000	-1.414520e-001	8.083760e-001
2077500000	-1.383473e-001	8.058973e-001
2078750000	-1.359380e-001	8.040119e-001
2080000000	-1.329448e-001	8.013655e-001
2081250000	-1.300359e-001	7.984239e-001
2082500000	-1.271845e-001	7.956140e-001
2083750000	-1.245951e-001	7.924519e-001
2085000000	-1.222342e-001	7.894412e-001
2086250000	-1.196749e-001	7.866116e-001
2087500000	-1.167759e-001	7.838019e-001
2088750000	-1.147687e-001	7.808965e-001
2090000000	-1.124677e-001	7.776863e-001
2091250000	-1.100801e-001	7.743677e-001
2092500000	-1.078362e-001	7.714117e-001
2093750000	-1.053144e-001	7.682562e-001
2095000000	-1.025811e-001	7.647853e-001
2096250000	-1.009912e-001	7.615056e-001
2097500000	-9.898293e-002	7.580014e-001
2098750000	-9.694740e-002	7.544941e-001
2100000000	-9.427396e-002	7.513506e-001
2101250000	-9.254896e-002	7.481416e-001
2102500000	-8.959907e-002	7.443500e-001
2103750000	-8.712073e-002	7.408081e-001
2105000000	-8.442453e-002	7.367142e-001
2106250000	-8.235522e-002	7.322069e-001
2107500000	-8.061744e-002	7.280580e-001
2108750000	-7.810847e-002	7.234079e-001
2110000000	-7.655062e-002	7.189213e-001
2111250000	-7.512714e-002	7.139214e-001
2112500000	-7.316423e-002	7.090740e-001
2113750000	-7.173815e-002	7.044424e-001
2115000000	-7.048415e-002	6.994705e-001
2116250000	-6.878087e-002	6.937336e-001
2117500000	-6.804402e-002	6.881758e-001
2118750000	-6.709288e-002	6.823251e-001
2120000000	-6.715200e-002	6.770284e-001
2121250000	-6.754246e-002	6.716316e-001
2122500000	-6.753287e-002	6.670068e-001
2123750000	-6.773526e-002	6.621254e-001
2125000000	-6.841975e-002	6.564438e-001
2126250000	-6.743466e-002	6.514114e-001
2127500000	-6.775779e-002	6.462682e-001
2128750000	-6.800590e-002	6.406143e-001
2130000000	-6.867990e-002	6.353327e-001
2131250000	-6.995559e-002	6.298586e-001
2132500000	-7.065523e-002	6.254367e-001
2133750000	-7.158587e-002	6.202089e-001
2135000000	-7.242578e-002	6.159739e-001
2136250000	-7.312713e-002	6.106168e-001
2137500000	-7.400575e-002	6.062565e-001
2138750000	-7.460323e-002	6.008165e-001
2140000000	-7.585854e-002	5.954257e-001
2141250000	-7.684863e-002	5.904400e-001
2142500000	-7.860850e-002	5.853843e-001
2143750000	-8.040338e-002	5.802940e-001
2145000000	-8.190698e-002	5.755805e-001
2146250000	-8.358823e-002	5.706955e-001
2147500000	-8.498660e-002	5.665922e-001
2148750000	-8.608633e-002	5.618468e-001
2150000000	-8.803610e-002	5.566487e-001
2151250000	-8.916691e-002	5.513864e-001
2152500000	-9.088778e-002	5.463590e-001
2153750000	-9.321859e-002	5.410949e-001
2155000000	-9.513568e-002	5.354626e-001
2156250000	-9.749894e-002	5.301497e-001
2157500000	-9.995888e-002	5.246989e-001
2158750000	-1.023084e-001	5.196206e-001
2160000000	-1.049992e-001	5.139686e-001
2161250000	-1.077332e-001	5.087575e-001
2162500000	-1.109788e-001	5.032981e-001
2163750000	-1.143122e-001	4.975284e-001
2165000000	-1.189736e-001	4.920453e-001
2166250000	-1.231823e-001	4.870629e-001
2167500000	-1.280936e-001	4.821254e-001
2168750000	-1.327071e-001	4.777583e-001
2170000000	-1.370845e-001	4.743712e-001
2171250000	-1.420225e-001	4.709280e-001
2172500000	-1.456363e-001	4.673113e-001
2173750000	-1.502610e-001	4.634075e-001
2175000000	-1.549049e-001	4.596405e-001
2176250000	-1.588395e-001	4.556089e-001
2177500000	-1.634051e-001	4.521183e-001
2178750000	-1.689824e-001	4.481715e-001
2180000000	-1.736438e-001	4.448537e-001
2181250000	-1.793407e-001	4.419319e-001
2182500000	-1.844459e-001	4.391332e-001
2183750000	-1.906621e-001	4.358095e-001
2185000000	-1.957287e-001	4.332928e-001
2186250000	-2.019765e-001	4.311321e-001
2187500000	-2.076204e-001	4.285068e-001
2188750000	-2.135850e-001	4.265545e-001
2190000000	-2.192582e-001	4.246152e-001
2191250000	-2.253345e-001	4.233100e-001
2192500000	-2.319832e-001	4.219553e-001
2193750000	-2.378674e-001	4.215989e-001
2195000000	-2.439084e-001	4.203560e-001
2196250000	-2.501863e-001	4.197918e-001
2197500000	-2.566577e-001	4.196851e-001
2198750000	-2.629542e-001	4.198811e-001
2200000000	-2.688600e-001	4.208436e-001
2201250000	-2.742426e-001	4.216602e-001
2202500000	-2.798772e-001	4.219197e-001
2203750000	-2.846249e-001	4.224427e-001
2205000000	-2.908926e-001	4.233432e-001
2206250000	-2.959113e-001	4.245699e-001
2207500000	-3.019027e-001	4.252111e-001
2208750000	-3.075268e-001	4.263576e-001
2210000000	-3.121573e-001	4.288342e-001
2211250000	-3.180705e-001	4.304618e-001
2212500000	-3.225776e-001	4.327928e-001
2213750000	-3.269811e-001	4.355466e-001
2215000000	-3.306181e-001	4.379982e-001
2216250000	-3.342601e-001	4.405089e-001
2217500000	-3.375174e-001	4.422422e-001
2218750000	-3.408406e-001	4.434340e-001
2220000000	-3.449305e-001	4.448161e-001
2221250000	-3.483559e-001	4.461307e-001
2222500000	-3.520225e-001	4.475741e-001
2223750000	-3.559656e-001	4.493640e-001
2225000000	-3.601083e-001	4.507598e-001
2226250000	-3.633022e-001	4.514772e-001
2227500000	-3.672203e-001	4.531770e-001
2228750000	-3.716767e-001	4.547748e-001
2230000000	-3.758548e-001	4.572396e-001
2231250000	-3.798338e-001	4.589660e-001
2232500000	-3.838823e-001	4.610470e-001
2233750000	-3.872498e-001	4.631293e-001
2235000000	-3.904309e-001	4.649055e-001
2236250000	-3.948802e-001	4.667717e-001
2237500000	-3.985288e-001	4.681727e-001
2238750000	-4.027005e-001	4.700105e-001
2240000000	-4.072558e-001	4.728145e-001
2241250000	-4.118721e-001	4.751428e-001
2242500000	-4.160374e-001	4.781151e-001
2243750000	-4.193948e-001	4.811854e-001
2245000000	-4.234047e-001	4.846382e-001
2246250000	-4.268645e-001	4.882660e-001
2247500000	-4.303415e-001	4.914090e-001
2248750000	-4.333380e-001	4.950879e-001
2250000000	-4.361517e-001	4.984697e-001
2251250000	-4.391682e-001	5.020234e-001
2252500000	-4.418998e-001	5.055656e-001
2253750000	-4.446735e-001	5.095933e-001
2255000000	-4.478014e-001	5.128618e-001
2256250000	-4.492663e-001	5.170772e-001
2257500000	-4.516734e-001	5.214353e-001
2258750000	-4.540339e-001	5.252950e-001
2260000000	-4.551603e-001	5.288962e-001
2261250000	-4.570093e-001	5.327347e-001
2262500000	-4.581652e-001	5.367227e-001
2263750000	-4.597232e-001	5.404315e-001
2265000000	-4.601148e-001	5.446566e-001
2266250000	-4.617214e-001	5.485985e-001
2267500000	-4.628459e-001	5.514519e-001
2268750000	-4.637252e-001	5.560601e-001
2270000000	-4.635332e-001	5.598548e-001
2271250000	-4.636700e-001	5.635991e-001
2272500000	-4.636551e-001	5.667768e-001
2273750000	-4.636583e-001	5.699996e-001
2275000000	-4.630278e-001	5.726028e-001
2276250000	-4.634412e-001	5.759280e-001
2277500000	-4.627895e-001	5.780110e-001
2278750000	-4.621877e-001	5.806679e-001
2280000000	-4.624212e-001	5.828760e-001
2281250000	-4.626602e-001	5.856013e-001
2282500000	-4.625431e-001	5.873924e-001
2283750000	-4.628652e-001	5.885612e-001
2285000000	-4.628673e-001	5.911624e-001
2286250000	-4.637048e-001	5.926647e-001
2287500000	-4.645951e-001	5.945962e-001
2288750000	-4.654328e-001	5.969969e-001
2290000000	-4.657867e-001	5.997224e-001
2291250000	-4.661282e-001	6.024993e-001
2292500000	-4.663778e-001	6.045417e-001
2293750000	-4.675607e-001	6.071734e-001
2295000000	-4.682703e-001	6.100376e-001
2296250000	-4.675800e-001	6.118425e-001
2297500000	-4.684771e-001	6.142753e-001
2298750000	-4.692567e-001	6.172727e-001
2300000000	-4.697587e-001	6.201428e-001
2301250000	-4.697172e-001	6.227581e-001
2302500000	-4.700189e-001	6.252549e-001
2303750000	-4.711442e-001	6.278730e-001
2305000000	-4.710830e-001	6.305139e-001
2306250000	-4.716641e-001	6.339281e-001
2307500000	-4.709056e-001	6.367680e-001
2308750000	-4.714933e-001	6.396949e-001
2310000000	-4.711225e-001	6.433580e-001
2311250000	-4.709495e-001	6.452991e-001
2312500000	-4.711128e-001	6.487273e-001
2313750000	-4.707995e-001	6.515903e-001
2315000000	-4.705663e-001	6.544787e-001
2316250000	-4.704908e-001	6.576908e-001
2317500000	-4.699560e-001	6.610806e-001
2318750000	-4.691723e-001	6.641327e-001
2320000000	-4.682995e-001	6.673446e-001
2321250000	-4.675845e-001	6.702958e-001
2322500000	-4.663022e-001	6.731810e-001
2323750000	-4.653970e-001	6.760043e-001
2325000000	-4.639607e-001	6.786749e-001
2326250000	-4.630586e-001	6.811315e-001
2327500000	-4.617393e-001	6.834070e-001
2328750000	-4.606177e-001	6.856072e-001
2330000000	-4.593249e-001	6.880151e-001
2331250000	-4.584845e-001	6.896432e-001
2332500000	-4.569637e-001	6.917540e-001
2333750000	-4.563332e-001	6.933212e-001
2335000000	-4.548128e-001	6.955401e-001
2336250000	-4.541222e-001	6.970758e-001
2337500000	-4.537293e-001	6.992097e-001
2338750000	-4.530549e-001	7.009558e-001
2340000000	-4.519132e-001	7.027062e-001
2341250000	-4.512662e-001	7.048024e-001
2342500000	-4.506836e-001	7.069250e-001
2343750000	-4.501889e-001	7.091456e-001
2345000000	-4.489990e-001	7.104955e-001
2346250000	-4.479041e-001	7.126327e-001
2347500000	-4.472588e-001	7.139153e-001
2348750000	-4.460236e-001	7.160107e-001
2350000000	-4.450347e-001	7.174667e-001
2351250000	-4.436254e-001	7.187780e-001
2352500000	-4.428870e-001	7.196077e-001
2353750000	-4.421908e-001	7.211966e-001
2355000000	-4.416692e-001	7.226532e-001
2356250000	-4.403880e-001	7.238922e-001
2357500000	-4.395688e-001	7.250330e-001
2358750000	-4.389718e-001	7.263659e-001
2360000000	-4.383524e-001	7.273481e-001
2361250000	-4.379878e-001	7.288554e-001
2362500000	-4.373652e-001	7.300909e-001
2363750000	-4.375705e-001	7.318124e-001
2365000000	-4.371210e-001	7.339295e-001
2366250000	-4.365806e-001	7.354830e-001
2367500000	-4.355043e-001	7.377327e-001
2368750000	-4.344708e-001	7.391691e-001
2370000000	-4.343977e-001	7.413073e-001
2371250000	-4.339667e-001	7.426423e-001
2372500000	-4.326067e-001	7.443450e-001
2373750000	-4.316776e-001	7.458153e-001
2375000000	-4.310466e-001	7.477075e-001
2376250000	-4.302074e-001	7.498913e-001
2377500000	-4.288245e-001	7.519203e-001
2378750000	-4.277084e-001	7.540759e-001
2380000000	-4.266154e-001	7.550913e-001
2381250000	-4.253161e-001	7.568006e-001
2382500000	-4.246539e-001	7.587838e-001
2383750000	-4.232854e-001	7.596507e-001
2385000000	-4.213574e-001	7.620988e-001
2386250000	-4.203051e-001	7.640530e-001
2387500000	-4.190112e-001	7.654782e-001
2388750000	-4.174877e-001	7.671593e-001
2390000000	-4.161544e-001	7.687865e-001
2391250000	-4.136064e-001	7.700641e-001
2392500000	-4.120383e-001	7.717928e-001
2393750000	-4.099763e-001	7.729671e-001
2395000000	-4.085824e-001	7.727060e-001
2396250000	-4.068040e-001	7.742481e-001
2397500000	-4.056906e-001	7.749537e-001
2398750000	-4.046307e-001	7.764958e-001
2400000000	-4.031771e-001	7.771996e-001
2401250000	-4.017022e-001	7.785775e-001
2402500000	-3.997319e-001	7.788017e-001
2403750000	-3.981751e-001	7.790669e-001
2405000000	-3.972945e-001	7.805659e-001
2406250000	-3.956940e-001	7.807712e-001
2407500000	-3.952167e-001	7.819506e-001
2408750000	-3.940526e-001	7.827457e-001
2410000000	-3.932278e-001	7.833885e-001
2411250000	-3.920009e-001	7.847785e-001
2412500000	-3.907715e-001	7.856394e-001
2413750000	-3.890581e-001	7.865261e-001
2415000000	-3.881602e-001	7.880019e-001
2416250000	-3.873997e-001	7.890107e-001
2417500000	-3.859282e-001	7.898066e-001
2418750000	-3.853110e-001	7.911913e-001
2420000000	-3.838054e-001	7.921223e-001
2421250000	-3.823474e-001	7.931085e-001
2422500000	-3.813324e-001	7.945659e-001
2423750000	-3.798064e-001	7.955299e-001
2425000000	-3.786609e-001	7.965760e-001
2426250000	-3.770433e-001	7.974994e-001
2427500000	-3.762006e-001	7.977224e-001
2428750000	-3.753146e-001	7.985981e-001
2430000000	-3.740947e-001	7.998016e-001
2431250000	-3.733086e-001	8.006158e-001
2432500000	-3.724217e-001	8.017589e-001
2433750000	-3.712367e-001	8.029464e-001
2435000000	-3.699708e-001	8.038631e-001
2436250000	-3.691579e-001	8.051881e-001
2437500000	-3.679515e-001	8.059091e-001
2438750000	-3.662936e-001	8.069059e-001
2440000000	-3.655123e-001	8.079466e-001
2441250000	-3.642539e-001	8.092482e-001
2442500000	-3.632523e-001	8.101159e-001
2443750000	-3.620516e-001	8.108572e-001
2445000000	-3.605506e-001	8.125698e-001
2446250000	-3.597993e-001	8.136614e-001
2447500000	-3.584671e-001	8.147305e-001
2448750000	-3.570394e-001	8.155936e-001
2450000000	-3.565692e-001	8.170039e-001
2451250000	-3.544396e-001	8.178683e-001
2452500000	-3.536879e-001	8.187345e-001
2453750000	-3.524591e-001	8.196388e-001
2455000000	-3.509412e-001	8.208505e-001
2456250000	-3.493022e-001	8.219909e-001
2457500000	-3.484116e-001	8.231590e-001
2458750000	-3.467069e-001	8.236483e-001
2460000000	-3.450346e-001	8.250824e-001
2461250000	-3.432978e-001	8.254383e-001
2462500000	-3.420696e-001	8.257148e-001
2463750000	-3.405646e-001	8.266181e-001
2465000000	-3.393532e-001	8.271807e-001
2466250000	-3.380098e-001	8.280212e-001
2467500000	-3.360943e-001	8.283600e-001
2468750000	-3.344076e-001	8.285297e-001
2470000000	-3.334251e-001	8.289357e-001
2471250000	-3.318140e-001	8.296124e-001
2472500000	-3.307054e-001	8.299488e-001
2473750000	-3.297565e-001	8.308338e-001
2475000000	-3.280320e-001	8.303365e-001
2476250000	-3.271321e-001	8.309882e-001
2477500000	-3.256703e-001	8.314549e-001
2478750000	-3.244273e-001	8.313687e-001
2480000000	-3.237821e-001	8.317916e-001
2481250000	-3.223397e-001	8.320369e-001
2482500000	-3.211582e-001	8.327140e-001
2483750000	-3.201173e-001	8.334965e-001
2485000000	-3.191327e-001	8.339777e-001
2486250000	-3.177586e-001	8.334116e-001
2487500000	-3.173239e-001	8.342805e-001
2488750000	-3.165403e-001	8.340517e-001
2490000000	-3.157491e-001	8.343695e-001
2491250000	-3.147728e-001	8.353606e-001
2492500000	-3.139016e-001	8.359506e-001
2493750000	-3.127684e-001	8.370395e-001
2495000000	-3.115519e-001	8.377241e-001
2496250000	-3.099049e-001	8.379971e-001
2497500000	-3.095840e-001	8.389449e-001
2498750000	-3.078684e-001	8.389911e-001
2500000000	-3.068991e-001	8.396399e-001
2501250000	-3.058807e-001	8.406107e-001
2502500000	-3.045471e-001	8.411500e-001
2503750000	-3.035209e-001	8.422131e-001
2505000000	-3.017756e-001	8.428783e-001
2506250000	-3.005112e-001	8.436081e-001
2507500000	-2.992425e-001	8.446446e-001
2508750000	-2.973074e-001	8.446932e-001
2510000000	-2.952029e-001	8.452367e-001
2511250000	-2.942293e-001	8.454510e-001
2512500000	-2.931788e-001	8.458478e-001
2513750000	-2.915368e-001	8.466658e-001
2515000000	-2.899795e-001	8.472083e-001
2516250000	-2.884178e-001	8.475337e-001
2517500000	-2.870040e-001	8.480026e-001
2518750000	-2.851396e-001	8.479294e-001
2520000000	-2.842539e-001	8.486167e-001
2521250000	-2.827076e-001	8.487999e-001
2522500000	-2.818662e-001	8.490157e-001
2523750000	-2.796453e-001	8.500276e-001
2525000000	-2.784220e-001	8.504952e-001
2526250000	-2.768652e-001	8.514934e-001
2527500000	-2.750996e-001	8.511841e-001
2528750000	-2.741678e-001	8.515025e-001
2530000000	-2.726728e-001	8.519177e-001
2531250000	-2.704337e-001	8.516543e-001
2532500000	-2.693449e-001	8.525069e-001
2533750000	-2.678071e-001	8.527966e-001
2535000000	-2.662371e-001	8.526429e-001
2536250000	-2.648625e-001	8.525213e-001
2537500000	-2.638801e-001	8.531515e-001
2538750000	-2.619091e-001	8.525678e-001
2540000000	-2.611236e-001	8.528243e-001
2541250000	-2.593255e-001	8.531153e-001
2542500000	-2.583139e-001	8.532678e-001
2543750000	-2.573199e-001	8.534143e-001
2545000000	-2.562270e-001	8.530895e-001
2546250000	-2.549285e-001	8.534049e-001
2547500000	-2.542248e-001	8.531880e-001
2548750000	-2.531634e-001	8.535538e-001
2550000000	-2.519342e-001	8.534883e-001
2551250000	-2.516511e-001	8.539474e-001
2552500000	-2.505286e-001	8.540938e-001
2553750000	-2.488584e-001	8.542420e-001
2555000000	-2.480219e-001	8.548058e-001
2556250000	-2.472357e-001	8.550338e-001
2557500000	-2.460148e-001	8.557036e-001
2558750000	-2.448120e-001	8.560714e-001
2560000000	-2.439534e-001	8.562188e-001
2561250000	-2.429219e-001	8.564525e-001
2562500000	-2.415795e-001	8.568148e-001
2563750000	-2.408366e-001	8.574579e-001
2565000000	-2.397470e-001	8.575762e-001
2566250000	-2.385569e-001	8.582431e-001
2567500000	-2.378309e-001	8.583077e-001
2568750000	-2.363394e-001	8.592249e-001
2570000000	-2.352542e-001	8.594507e-001
2571250000	-2.336714e-001	8.597168e-001
2572500000	-2.323174e-001	8.601024e-001
2573750000	-2.310136e-001	8.600395e-001
2575000000	-2.294729e-001	8.599159e-001
2576250000	-2.279952e-001	8.602282e-001
2577500000	-2.271263e-001	8.602164e-001
2578750000	-2.262554e-001	8.603277e-001
2580000000	-2.253899e-001	8.601667e-001
2581250000	-2.236888e-001	8.605489e-001
2582500000	-2.227067e-001	8.600306e-001
2583750000	-2.213263e-001	8.602767e-001
2585000000	-2.201450e-001	8.609267e-001
2586250000	-2.185756e-001	8.606590e-001
2587500000	-2.168992e-001	8.610631e-001
2588750000	-2.162135e-001	8.606630e-001
2590000000	-2.153741e-001	8.609159e-001
2591250000	-2.130953e-001	8.603013e-001
2592500000	-2.122116e-001	8.601024e-001
2593750000	-2.110164e-001	8.601615e-001
2595000000	-2.102325e-001	8.596814e-001
2596250000	-2.095234e-001	8.598317e-001
2597500000	-2.082019e-001	8.593900e-001
2598750000	-2.064262e-001	8.595312e-001
2600000000	-2.060944e-001	8.591095e-001
2601250000	-2.053688e-001	8.593592e-001
2602500000	-2.041605e-001	8.591605e-001
2603750000	-2.030093e-001	8.589712e-001
2605000000	-2.019432e-001	8.587234e-001
2606250000	-2.014321e-001	8.586320e-001
2607500000	-2.004572e-001	8.583617e-001
2608750000	-1.992025e-001	8.582815e-001
2610000000	-1.977496e-001	8.590825e-001
2611250000	-1.970129e-001	8.589020e-001
2612500000	-1.960073e-001	8.588916e-001
2613750000	-1.949246e-001	8.588562e-001
2615000000	-1.939968e-001	8.592230e-001
2616250000	-1.920865e-001	8.590325e-001
2617500000	-1.911213e-001	8.595106e-001
2618750000	-1.896316e-001	8.594689e-001
