#  HZ   S   MA   R     50.00 
! Rohde & Schwarz ZVA67 4Ports - Version 4.11 - 1305.7002k04 SN: 101051
! Date: 2023-05-31 14:24:37
! Measurements: S11 S21 S12 S22 
! 
 5.000000000000000E7     8.974699699958849E-3   3.333492389905583E1   1.001924781776487  -7.135708791897743   9.954261273228928E-1  -6.626695951018217   1.166075687683423E-2   8.960289784371083  
 1.000000000000000E8     6.144110987106109E-3  -2.032431834677679E1   9.968769256243402E-1  -1.361786908994331E1   9.951741245988253E-1  -1.388671251923582E1   6.315428566332488E-3  -1.832835137196738E1  
 1.500000000000000E8     1.228841699988813E-2  -1.275067641758852E1   9.976493240389365E-1  -2.024284319708428E1   9.959336135592198E-1  -2.055222648293679E1   1.138085759522022E-2  -2.808786294854628E1  
 2.000000000000000E8     9.464571712307388E-3  -2.080777834510833E1   9.946040579448239E-1  -2.711378669525974E1   9.996480952234710E-1  -2.761234680196905E1   1.095045231716852E-2  -2.455364549698724E1  
 2.500000000000000E8     1.323113893770710E-2  -2.395781959918575E1   9.950332444949561E-1  -3.404822495230940E1   9.955939019110871E-1  -3.435837158223526E1   1.510134045823604E-2  -3.035851858191890E1  
 3.000000000000000E8     1.611675863676117E-2  -3.376423672492698E1   9.946234790799994E-1  -4.096990047109275E1   9.934939071322873E-1  -4.119831569358496E1   1.866380139289764E-2  -3.675635416615338E1  
 3.500000000000000E8     1.846826600255388E-2  -4.202461157528389E1   9.940682895318187E-1  -4.772080885519227E1   9.932580748971729E-1  -4.801591306390686E1   1.964630135697661E-2  -4.117334809087947E1  
 4.000000000000000E8     2.123477041396698E-2  -4.777794573367143E1   9.933996051518099E-1  -5.450228045867759E1   9.933129786354126E-1  -5.490705826401897E1   2.417974900364768E-2  -4.550865812987878E1  
 4.500000000000000E8     2.127665658152521E-2  -5.127125275883508E1   9.922657838298619E-1  -6.135580539977372E1   9.926017342612097E-1  -6.168476462829955E1   2.679353576332675E-2  -5.133976377008301E1  
 5.000000000000000E8     2.252914032799821E-2  -6.152317976243273E1   9.923756175991305E-1  -6.822685043575783E1   9.927441376423637E-1  -6.850990623132147E1   2.751357657894349E-2  -6.390897781424428E1  
 5.500000000000000E8     1.916438376003556E-2  -7.103083487242195E1   9.910259939036286E-1  -7.500274891005032E1   9.920440287057699E-1  -7.532616395147325E1   2.876055581296943E-2  -7.216233786874953E1  
 6.000000000000000E8     1.764938102343066E-2  -8.796647654906975E1   9.918767648178978E-1  -8.190148809635002E1   9.918768705387675E-1  -8.226552592452933E1   3.110194104521060E-2  -8.368381883401453E1  
 6.500000000000000E8     1.540458372445605E-2  -9.264763232549342E1   9.909291823735478E-1  -8.860477715768791E1   9.912878266472089E-1  -8.905689091398386E1   3.397189717233137E-2  -9.721220167022537E1  
 7.000000000000000E8     1.334482559258573E-2  -1.222712164626354E2   9.901923306646007E-1  -9.546683718960168E1   9.906755482180718E-1  -9.589477815491635E1   3.419585889554040E-2  -1.118172235687409E2  
 7.500000000000000E8     8.379633739957490E-3  -1.490738244575813E2   9.902254580341972E-1  -1.023313731110247E2   9.895611093716595E-1  -1.027500421868283E2   3.447616505586942E-2  -1.259686105724700E2  
 8.000000000000000E8     1.067106189742330E-2   1.614727919842297E2   9.900367165177959E-1  -1.091298106367303E2   9.891106966450888E-1  -1.095430310851072E2   3.395515937557855E-2  -1.425022233705843E2  
 8.500000000000000E8     1.199328464677695E-2   1.332662931122488E2   9.896514524037571E-1  -1.160053790883205E2   9.889572216687509E-1  -1.164781532149719E2   3.682888889838681E-2  -1.561289298822391E2  
 9.000000000000000E8     1.695682251165132E-2   1.126445276659980E2   9.878839943455462E-1  -1.228206394647855E2   9.882179380050170E-1  -1.232543526463289E2   4.028675880782286E-2  -1.689045702558935E2  
 9.500000000000000E8     2.022957975367332E-2   1.027254020179893E2   9.875473110918257E-1  -1.296276190670477E2   9.874224416823755E-1  -1.301107999744279E2   4.160926222779774E-2  -1.794385382202582E2  
 1.000000000000000E9     2.469785244893312E-2   9.620719502144333E1   9.874801671137227E-1  -1.364588973757000E2   9.871292597015463E-1  -1.369618814431612E2   4.350535170161248E-2   1.690694286124142E2  
 1.050000000000000E9     2.651965243801534E-2   8.825099793197420E1   9.871432390274998E-1  -1.432749783758508E2   9.866196936498475E-1  -1.437958827252502E2   4.310502573585633E-2   1.607855683388921E2  
 1.100000000000000E9     2.935962099460595E-2   8.280728774662148E1   9.858328859506075E-1  -1.500808053042267E2   9.861952450558266E-1  -1.505874284117159E2   4.453790075296180E-2   1.496733177055594E2  
 1.150000000000000E9     3.174569882251607E-2   7.574261138959535E1   9.860184691177598E-1  -1.568778577554628E2   9.853142777326756E-1  -1.574276994431709E2   4.352239778502254E-2   1.409286871021648E2  
 1.200000000000000E9     3.362777612291948E-2   7.179110600604673E1   9.855362835396416E-1  -1.637327561936158E2   9.850701127544779E-1  -1.643075033640051E2   4.466760683046313E-2   1.312533121090785E2  
 1.250000000000000E9     3.264565288161952E-2   6.671500660692693E1   9.847067675971202E-1  -1.705899894780640E2   9.839701724715168E-1  -1.711372902715548E2   4.070798863091602E-2   1.269283728197941E2  
 1.300000000000000E9     3.239983343291882E-2   6.271549903895447E1   9.836988471942052E-1  -1.773630979479895E2   9.833685222360914E-1  -1.779923666163792E2   4.045536155878542E-2   1.210373477702264E2  
 1.350000000000000E9     3.240247357831987E-2   5.750795350966275E1   9.835891423722234E-1   1.758012184607038E2   9.832286779910736E-1   1.752052464010751E2   3.592782740483797E-2   1.156193096387799E2  
 1.400000000000000E9     3.087086236582733E-2   5.344520177998093E1   9.830764430135368E-1   1.690231145103720E2   9.831519678634902E-1   1.683507691412191E2   3.445379428724400E-2   1.103781805888956E2  
 1.450000000000000E9     2.946578167204408E-2   4.587006401807648E1   9.838444439122168E-1   1.622338539950708E2   9.839115484088682E-1   1.615283982512281E2   2.998567594249066E-2   1.086488591694583E2  
 1.500000000000000E9     2.793302261967647E-2   4.267485771929069E1   9.834977776866395E-1   1.553619632313222E2   9.842543550555596E-1   1.547211058223277E2   2.827082566131938E-2   1.065490250133836E2  
 1.550000000000000E9     2.548880112045943E-2   3.325736528719900E1   9.838287639705490E-1   1.486280359936532E2   9.845352255278572E-1   1.479147245952863E2   2.386545480930629E-2   1.096476927235347E2  
 1.600000000000000E9     2.394772758472796E-2   2.528940521635962E1   9.844343577341591E-1   1.417964728967002E2   9.840514274409439E-1   1.411038310001432E2   2.331069160921401E-2   1.113241281146834E2  
 1.650000000000000E9     2.060974166026176E-2   1.301645874707530E1   9.849017443202277E-1   1.349727647905539E2   9.842914394261768E-1   1.342955371727121E2   2.266567372506990E-2   1.178878847833234E2  
 1.700000000000000E9     1.897066504950864E-2   1.142444571672001E-1   9.845536129666108E-1   1.281977961207004E2   9.841363384650080E-1   1.275020457407930E2   2.379406050075150E-2   1.214113634257115E2  
 1.750000000000000E9     1.779100036297075E-2  -2.373147470562847E1   9.846245112171179E-1   1.214142494885300E2   9.843242401697753E-1   1.206936924703080E2   2.450584465646230E-2   1.264925229012681E2  
 1.800000000000000E9     1.904110448575551E-2  -4.027357846424663E1   9.841165568196201E-1   1.146738667231644E2   9.845712066956522E-1   1.139242639666619E2   2.539292886414375E-2   1.245602321278527E2  
 1.850000000000000E9     2.091718532287699E-2  -6.057016877123597E1   9.841947104356726E-1   1.078268199802244E2   9.827731645436356E-1   1.071138469909174E2   2.797745560602107E-2   1.200988392973844E2  
 1.900000000000000E9     2.357749230767451E-2  -7.670600054475375E1   9.832013336418428E-1   1.010923749012952E2   9.838023341819052E-1   1.003314876672391E2   2.886502896979311E-2   1.180919978467333E2  
 1.950000000000000E9     2.838311950028993E-2  -8.986995280349710E1   9.830313795214960E-1   9.437006692687795E1   9.842439558153312E-1   9.355171477349838E1   3.004603148062778E-2   1.131205667400698E2  
 2.000000000000000E9     3.330269283631242E-2  -1.010873422769290E2   9.833744306271873E-1   8.760046178633078E1   9.837388670840686E-1   8.675398579217455E1   3.213659844593605E-2   1.051881189339432E2  
 2.050000000000000E9     3.871750520866441E-2  -1.084420240590704E2   9.836219287049918E-1   8.077413817533261E1   9.838536812932005E-1   7.996102476048118E1   3.321867982290296E-2   9.809820804189079E1  
 2.100000000000000E9     4.198611988039809E-2  -1.174038377986877E2   9.838427136104149E-1   7.402364479136809E1   9.830213625978520E-1   7.319264012416659E1   3.371604776242766E-2   9.280653723467728E1  
 2.150000000000000E9     4.703057120759885E-2  -1.237337308089721E2   9.836267905782163E-1   6.722836189357491E1   9.830218463682309E-1   6.639560905659876E1   3.527302367625910E-2   8.646376268613057E1  
 2.200000000000000E9     5.014436902404019E-2  -1.311837828910863E2   9.825575992720639E-1   6.048807326692516E1   9.837221134573050E-1   5.966588550994394E1   3.554141200364894E-2   8.009051941093605E1  
 2.250000000000000E9     5.268762248125277E-2  -1.365795224038735E2   9.831369753658079E-1   5.373374031065576E1   9.829594550620483E-1   5.280133184969304E1   3.613232610961929E-2   7.229221431381558E1  
 2.300000000000000E9     5.232966412664097E-2  -1.440710792431659E2   9.826765140112663E-1   4.698660247255158E1   9.818082666721920E-1   4.605354445991053E1   3.884231477446173E-2   6.816151714834895E1  
 2.350000000000000E9     5.312395666183991E-2  -1.498565492577120E2   9.823172262961286E-1   4.018375424898294E1   9.822296665167666E-1   3.929547741591770E1   4.043503802238666E-2   6.302548513575832E1  
 2.400000000000000E9     5.141222513698728E-2  -1.578782413690540E2   9.820036282446610E-1   3.338682018078714E1   9.814636426268140E-1   3.251338646103258E1   4.355243079941670E-2   6.010069507855087E1  
 2.450000000000000E9     5.120130806416962E-2  -1.632035609435371E2   9.820703964690266E-1   2.661920186096859E1   9.813565307315586E-1   2.568834557104751E1   4.366193782837339E-2   5.541349661072601E1  
 2.500000000000000E9     4.765328488550335E-2  -1.728417959885891E2   9.816456400024105E-1   1.983859790423351E1   9.818825228977836E-1   1.888307588492696E1   4.754429069500586E-2   5.302529370957355E1  
 2.550000000000000E9     4.523140264598585E-2   1.799897367156399E2   9.816863207117537E-1   1.299709773829471E1   9.814277697963213E-1   1.215121746408910E1   4.707518746391352E-2   4.811814369892891E1  
 2.600000000000000E9     4.288493778532856E-2   1.674317419520945E2   9.807030321779418E-1   6.241798436289778   9.817553923843747E-1   5.312422590243945   5.025121705960048E-2   4.599446995012911E1  
 2.650000000000000E9     4.110447574947687E-2   1.586587022795061E2   9.820126869872558E-1  -6.490103451576803E-1   9.808084150554807E-1  -1.431090267653945   4.974014145745673E-2   4.067907573863678E1  
 2.700000000000000E9     3.859294626839792E-2   1.450435702474892E2   9.805346669539241E-1  -7.494778401405786   9.805738866018910E-1  -8.249168921778196   5.288882620363470E-2   3.637249788702395E1  
 2.750000000000000E9     3.798042663718404E-2   1.323144049676675E2   9.802687924788248E-1  -1.419414699332876E1   9.802079528282266E-1  -1.510475275656339E1   5.334558322781211E-2   3.119751627678224E1  
 2.800000000000000E9     3.783228222390983E-2   1.169214520560701E2   9.803370448154000E-1  -2.109556045144966E1   9.792896551866472E-1  -2.192666361504556E1   5.519840124901855E-2   2.562331302585696E1  
 2.850000000000000E9     3.934233582445541E-2   1.035454281401382E2   9.797895560042015E-1  -2.792251735395661E1   9.798918834156197E-1  -2.879336681809054E1   5.554414651143844E-2   1.889049521792236E1  
 2.900000000000000E9     4.388671808601943E-2   9.144650626894325E1   9.804708936691065E-1  -3.473197792576979E1   9.809291899025613E-1  -3.560484024883292E1   5.614028850703152E-2   1.292428000446497E1  
 2.950000000000000E9     4.330906365230988E-2   8.026049691725308E1   9.806994518043171E-1  -4.160258042219708E1   9.807380903227512E-1  -4.247998574071381E1   5.659283292381327E-2   5.241641391906403  
 3.000000000000000E9     4.627823513902327E-2   6.958475041618851E1   9.812555700828157E-1  -4.839603176062664E1   9.794178680969803E-1  -4.935663477864957E1   5.652898942346295E-2  -2.070219364079233E-1  
 3.050000000000000E9     4.580701005457263E-2   6.065033131837793E1   9.804664981894412E-1  -5.525859977046017E1   9.806978877741840E-1  -5.623457924079560E1   5.511590306612768E-2  -9.403766063329574  
 3.100000000000000E9     5.043142975279560E-2   5.057519817943203E1   9.802665182262373E-1  -6.205096046998224E1   9.786949449248786E-1  -6.316027373938479E1   5.570367003876000E-2  -1.583182647965339E1  
 3.150000000000000E9     4.869965903257778E-2   4.381527066710903E1   9.787422115025338E-1  -6.887378424536337E1   9.779469637202137E-1  -6.999165419628811E1   5.338710133878759E-2  -2.395179593806619E1  
 3.200000000000000E9     5.077696979455515E-2   3.652915186196803E1   9.775482539729955E-1  -7.569227202683861E1   9.786001937679232E-1  -7.684210326649384E1   5.177004078766675E-2  -3.142572825056253E1  
 3.250000000000000E9     4.976357319298699E-2   3.087323637456818E1   9.788211237484998E-1  -8.248889260225707E1   9.788674532875077E-1  -8.369893630664204E1   4.717675416480010E-2  -3.969123356092062E1  
 3.300000000000000E9     4.803368903672848E-2   2.499494161064241E1   9.782571187631911E-1  -8.926348497477710E1   9.790674368454747E-1  -9.038811997054786E1   4.532542380819617E-2  -4.973023882918361E1  
 3.350000000000000E9     4.484043864110263E-2   1.873883272601604E1   9.788437279771906E-1  -9.603035472401230E1   9.797127471049090E-1  -9.715633879985226E1   4.090608711439338E-2  -5.949510466838949E1  
 3.400000000000000E9     4.208717198595503E-2   1.449817985802584E1   9.779116158674927E-1  -1.027279686553559E2   9.803138619953341E-1  -1.040144370505567E2   3.806100811231593E-2  -6.885187944520045E1  
 3.450000000000000E9     3.663915406399718E-2   8.482614015393834   9.790514306029919E-1  -1.094544655039112E2   9.817746983106827E-1  -1.109106523031585E2   3.362952474792713E-2  -8.107258738229346E1  
 3.500000000000000E9     3.458384846190921E-2   3.968905419972088   9.812954217522842E-1  -1.162021845975570E2   9.818352096838448E-1  -1.177970984287278E2   2.934211216872224E-2  -9.480203332808786E1  
 3.550000000000000E9     2.685041891610501E-2  -1.762515735058119   9.832432858577302E-1  -1.230718466039325E2   9.822088116310317E-1  -1.247133134670822E2   2.587765555715915E-2  -1.100354987530035E2  
 3.600000000000000E9     2.307810414563469E-2  -2.409777251868900   9.851962046304437E-1  -1.299713953782862E2   9.818042450785919E-1  -1.315174467282442E2   2.256033818150935E-2  -1.262847973335992E2  
 3.650000000000000E9     1.788776459985460E-2  -5.876529264572969   9.848602041304474E-1  -1.369117987516896E2   9.818060355700404E-1  -1.382890824196009E2   2.253526565891053E-2  -1.514232163274515E2  
 3.700000000000000E9     1.302370303776717E-2  -4.912165294327254   9.848818434307646E-1  -1.437896705656764E2   9.825070794565399E-1  -1.451515451552236E2   2.221847197969896E-2  -1.655761837662529E2  
 3.750000000000000E9     5.244205227481048E-3  -4.936375596542593E-1   9.845468769563740E-1  -1.506302064386195E2   9.827639947805187E-1  -1.519713118363550E2   2.282596373099781E-2   1.762005751642372E2  
 3.800000000000000E9     5.197332562427726E-3   7.906480457871483E1   9.840782788428213E-1  -1.574520329503314E2   9.827470821369578E-1  -1.587800581534539E2   2.185800738616163E-2   1.573773606656250E2  
 3.850000000000000E9     1.159203900877089E-2   1.163532837249813E2   9.826131617586034E-1  -1.642547309758269E2   9.827147742270872E-1  -1.655956860394031E2   2.448331943200365E-2   1.403936378223529E2  
 3.900000000000000E9     1.821985249343019E-2   1.173059893575189E2   9.830441899022718E-1  -1.710769493569713E2   9.806410342095324E-1  -1.724849495570001E2   2.687076854682026E-2   1.286649329244251E2  
 3.950000000000000E9     2.607656773016458E-2   1.185165792571671E2   9.816926719469188E-1  -1.778530009430715E2   9.806886857350111E-1  -1.792541827415112E2   2.951555252676889E-2   1.159850902670939E2  
 4.000000000000000E9     3.218125746250301E-2   1.130691584390183E2   9.815253449673741E-1   1.753251336443200E2   9.812890848001917E-1   1.739473499849205E2   3.262180637412320E-2   1.031825360080532E2  
 4.050000000000000E9     3.797075814691865E-2   1.113249486242776E2   9.811603613262659E-1   1.686392061887763E2   9.803114495084768E-1   1.671080559366305E2   3.507506344879260E-2   9.551711980366623E1  
 4.100000000000000E9     4.267370473388327E-2   1.060135109924037E2   9.800185191097057E-1   1.617561066532584E2   9.797867014477117E-1   1.602928202705375E2   3.723827369902249E-2   8.417051420034875E1  
 4.150000000000000E9     4.850719370126273E-2   1.004068216972546E2   9.796637629394075E-1   1.549506245924057E2   9.791085480685868E-1   1.534912365447640E2   4.026170532832524E-2   7.546194809314983E1  
 4.200000000000000E9     5.123550323158405E-2   9.409939815407624E1   9.798668809277501E-1   1.481309215237697E2   9.789954924779780E-1   1.466443154509249E2   4.355091231672741E-2   6.617483942069619E1  
 4.250000000000000E9     5.420040987208426E-2   8.802353091715625E1   9.793702387882151E-1   1.413257690153781E2   9.782628690711088E-1   1.398694234390880E2   4.742549936853544E-2   5.851540609411627E1  
 4.300000000000000E9     5.632606793271031E-2   8.007679552331119E1   9.785472858820400E-1   1.344830084982225E2   9.778153528371375E-1   1.331149711247096E2   5.233331325262917E-2   5.317000595836285E1  
 4.350000000000000E9     5.905236129211694E-2   7.410404523601227E1   9.784944808208385E-1   1.277299501936832E2   9.776079913929109E-1   1.262332764355676E2   5.488177824226621E-2   4.604081399743553E1  
 4.400000000000000E9     6.202242110646375E-2   6.485029722653644E1   9.784560883827095E-1   1.208989764342997E2   9.773221299014709E-1   1.194477009830448E2   5.832950301946861E-2   3.907097478840224E1  
 4.450000000000000E9     6.199442420895253E-2   5.906798543156042E1   9.786446673627360E-1   1.141665998419627E2   9.779472715599414E-1   1.126446462692154E2   6.001532358518208E-2   3.224654622012523E1  
 4.500000000000000E9     6.468503188993981E-2   4.963727000331573E1   9.787182924542195E-1   1.073640798880569E2   9.772929514153985E-1   1.058589872273615E2   6.354810944074656E-2   2.502918296449559E1  
 4.550000000000000E9     6.570509539568643E-2   4.320689225140342E1   9.779142932782085E-1   1.005594688374364E2   9.780459333953376E-1   9.907073247303661E1   6.455621172005366E-2   1.946407712337370E1  
 4.600000000000000E9     6.727680149914352E-2   3.398965877436110E1   9.780310960054007E-1   9.380063427180959E1   9.776921905937134E-1   9.225062100391909E1   6.548264833374648E-2   1.091955178713200E1  
 4.650000000000000E9     6.826662995607338E-2   2.637923270425127E1   9.783127801150023E-1   8.701512013853429E1   9.777344801098149E-1   8.545320714578371E1   6.597471501223083E-2   6.718144935625681  
 4.700000000000000E9     6.957066617180374E-2   1.735974736994648E1   9.788628121706569E-1   8.023756721093717E1   9.780394429684226E-1   7.867071970963302E1   6.501697160481548E-2   4.542158564267108E-1  
 4.750000000000000E9     7.121686453472452E-2   1.000236985165846E1   9.796248367677933E-1   7.349151701855369E1   9.785810942680467E-1   7.189743583462860E1   6.292202522410330E-2  -5.291272328104232  
 4.800000000000000E9     7.307531557468036E-2   1.410490732116169   9.798467276135227E-1   6.672302551913930E1   9.788390059099419E-1   6.510587369428839E1   6.075195134981985E-2  -1.251011815460347E1  
