!Agilent Technologies,E5071C,MY46105125,A.11.34
!Date: Wed Dec 20 12:06:09 2023
!Data & Calibration Information:
!Freq	S11:SOLT1(ON)
!PortZ  Port1:50+j0
!Above PortZ is port z conversion or system Z0 setting when saving the data.
!When reading, reference impedance value at option line is always used.
# Hz S dB R 50
1000000000	-1.103854e-001	1.541215e+002
1001250000	-1.136533e-001	1.540518e+002
1002500000	-1.119203e-001	1.539851e+002
1003750000	-1.141936e-001	1.539220e+002
1005000000	-1.134393e-001	1.538398e+002
1006250000	-1.148729e-001	1.537796e+002
1007500000	-1.128929e-001	1.537119e+002
1008750000	-1.100066e-001	1.536328e+002
1010000000	-1.133793e-001	1.535697e+002
1011250000	-1.140269e-001	1.534881e+002
1012500000	-1.124657e-001	1.534390e+002
1013750000	-1.141927e-001	1.533604e+002
1015000000	-1.105356e-001	1.533072e+002
1016250000	-1.128807e-001	1.532274e+002
1017500000	-1.116840e-001	1.531692e+002
1018750000	-1.121101e-001	1.530959e+002
1020000000	-1.149468e-001	1.530096e+002
1021250000	-1.135743e-001	1.529430e+002
1022500000	-1.133414e-001	1.529093e+002
1023750000	-1.130330e-001	1.528109e+002
1025000000	-1.138019e-001	1.527284e+002
1026250000	-1.119845e-001	1.526767e+002
1027500000	-1.117674e-001	1.526017e+002
1028750000	-1.116243e-001	1.525571e+002
1030000000	-1.153505e-001	1.524635e+002
1031250000	-1.131416e-001	1.524126e+002
1032500000	-1.128880e-001	1.523576e+002
1033750000	-1.167843e-001	1.522561e+002
1035000000	-1.175580e-001	1.522139e+002
1036250000	-1.172413e-001	1.521122e+002
1037500000	-1.163273e-001	1.520599e+002
1038750000	-1.112713e-001	1.520041e+002
1040000000	-1.155642e-001	1.519317e+002
1041250000	-1.134189e-001	1.518481e+002
1042500000	-1.139951e-001	1.517248e+002
1043750000	-1.165493e-001	1.516902e+002
1045000000	-1.143391e-001	1.516084e+002
1046250000	-1.188290e-001	1.515363e+002
1047500000	-1.148985e-001	1.514751e+002
1048750000	-1.201285e-001	1.513925e+002
1050000000	-1.215264e-001	1.513248e+002
1051250000	-1.154992e-001	1.512598e+002
1052500000	-1.125774e-001	1.511824e+002
1053750000	-1.186343e-001	1.511122e+002
1055000000	-1.170530e-001	1.510311e+002
1056250000	-1.160088e-001	1.509361e+002
1057500000	-1.156698e-001	1.508937e+002
1058750000	-1.163324e-001	1.507828e+002
1060000000	-1.155728e-001	1.507597e+002
1061250000	-1.205157e-001	1.506514e+002
1062500000	-1.187752e-001	1.505568e+002
1063750000	-1.139906e-001	1.504769e+002
1065000000	-1.139212e-001	1.504322e+002
1066250000	-1.186961e-001	1.503633e+002
1067500000	-1.151471e-001	1.502562e+002
1068750000	-1.171618e-001	1.501919e+002
1070000000	-1.162040e-001	1.501406e+002
1071250000	-1.189638e-001	1.500259e+002
1072500000	-1.127116e-001	1.499781e+002
1073750000	-1.180747e-001	1.499082e+002
1075000000	-1.211187e-001	1.498271e+002
1076250000	-1.178093e-001	1.497770e+002
1077500000	-1.191090e-001	1.496587e+002
1078750000	-1.160246e-001	1.495815e+002
1080000000	-1.143349e-001	1.495040e+002
1081250000	-1.195535e-001	1.494186e+002
1082500000	-1.198984e-001	1.493556e+002
1083750000	-1.158548e-001	1.492948e+002
1085000000	-1.173317e-001	1.492236e+002
1086250000	-1.179657e-001	1.491219e+002
1087500000	-1.172642e-001	1.490698e+002
1088750000	-1.162443e-001	1.490091e+002
1090000000	-1.129016e-001	1.489259e+002
1091250000	-1.159523e-001	1.488337e+002
1092500000	-1.183197e-001	1.487914e+002
1093750000	-1.136854e-001	1.486949e+002
1095000000	-1.128307e-001	1.486226e+002
1096250000	-1.167214e-001	1.485518e+002
1097500000	-1.152059e-001	1.484854e+002
1098750000	-1.136106e-001	1.483978e+002
1100000000	-1.161893e-001	1.483324e+002
1101250000	-1.179969e-001	1.482656e+002
1102500000	-1.168151e-001	1.481798e+002
1103750000	-1.166669e-001	1.481288e+002
1105000000	-1.145981e-001	1.480609e+002
1106250000	-1.150551e-001	1.479778e+002
1107500000	-1.153316e-001	1.479111e+002
1108750000	-1.132109e-001	1.478245e+002
1110000000	-1.162117e-001	1.477806e+002
1111250000	-1.148148e-001	1.477044e+002
1112500000	-1.162270e-001	1.476190e+002
1113750000	-1.148971e-001	1.475633e+002
1115000000	-1.171080e-001	1.474813e+002
1116250000	-1.153385e-001	1.474115e+002
1117500000	-1.172332e-001	1.473345e+002
1118750000	-1.153013e-001	1.472778e+002
1120000000	-1.147547e-001	1.472112e+002
1121250000	-1.130393e-001	1.471493e+002
1122500000	-1.177299e-001	1.470677e+002
1123750000	-1.150021e-001	1.469916e+002
1125000000	-1.180894e-001	1.469277e+002
1126250000	-1.150662e-001	1.468718e+002
1127500000	-1.159590e-001	1.467997e+002
1128750000	-1.159736e-001	1.467384e+002
1130000000	-1.142703e-001	1.466814e+002
1131250000	-1.141125e-001	1.466113e+002
1132500000	-1.197153e-001	1.465424e+002
1133750000	-1.135633e-001	1.464564e+002
1135000000	-1.212445e-001	1.464203e+002
1136250000	-1.186725e-001	1.463209e+002
1137500000	-1.158910e-001	1.462933e+002
1138750000	-1.175337e-001	1.462141e+002
1140000000	-1.136100e-001	1.461322e+002
1141250000	-1.198464e-001	1.460381e+002
1142500000	-1.151864e-001	1.460071e+002
1143750000	-1.161685e-001	1.459303e+002
1145000000	-1.171660e-001	1.458761e+002
1146250000	-1.216633e-001	1.457876e+002
1147500000	-1.187507e-001	1.457266e+002
1148750000	-1.157541e-001	1.456604e+002
1150000000	-1.190396e-001	1.456039e+002
1151250000	-1.154827e-001	1.455132e+002
1152500000	-1.199066e-001	1.454817e+002
1153750000	-1.181199e-001	1.454068e+002
1155000000	-1.172459e-001	1.453071e+002
1156250000	-1.219160e-001	1.452557e+002
1157500000	-1.200470e-001	1.451970e+002
1158750000	-1.171327e-001	1.451062e+002
1160000000	-1.165597e-001	1.450407e+002
1161250000	-1.153460e-001	1.449630e+002
1162500000	-1.199182e-001	1.448890e+002
1163750000	-1.181662e-001	1.448131e+002
1165000000	-1.150274e-001	1.447608e+002
1166250000	-1.191713e-001	1.447022e+002
1167500000	-1.238890e-001	1.446578e+002
1168750000	-1.187876e-001	1.445272e+002
1170000000	-1.235529e-001	1.444673e+002
1171250000	-1.174632e-001	1.444036e+002
1172500000	-1.163273e-001	1.443307e+002
1173750000	-1.183740e-001	1.442889e+002
1175000000	-1.197445e-001	1.442292e+002
1176250000	-1.207198e-001	1.441281e+002
1177500000	-1.162426e-001	1.440655e+002
1178750000	-1.190291e-001	1.439926e+002
1180000000	-1.214186e-001	1.439207e+002
1181250000	-1.237518e-001	1.438582e+002
1182500000	-1.205299e-001	1.437401e+002
1183750000	-1.219500e-001	1.436962e+002
1185000000	-1.181691e-001	1.436182e+002
1186250000	-1.175592e-001	1.435540e+002
1187500000	-1.162806e-001	1.434790e+002
1188750000	-1.213411e-001	1.434198e+002
1190000000	-1.164244e-001	1.433441e+002
1191250000	-1.221691e-001	1.432591e+002
1192500000	-1.218343e-001	1.432026e+002
1193750000	-1.197738e-001	1.430985e+002
1195000000	-1.196511e-001	1.430259e+002
1196250000	-1.227085e-001	1.429680e+002
1197500000	-1.203034e-001	1.428733e+002
1198750000	-1.189400e-001	1.428267e+002
1200000000	-1.211954e-001	1.427365e+002
1201250000	-1.216761e-001	1.426616e+002
1202500000	-1.209768e-001	1.425864e+002
1203750000	-1.217303e-001	1.425305e+002
1205000000	-1.221663e-001	1.424420e+002
1206250000	-1.202452e-001	1.423754e+002
1207500000	-1.207719e-001	1.423173e+002
1208750000	-1.222315e-001	1.422376e+002
1210000000	-1.202750e-001	1.421592e+002
1211250000	-1.205853e-001	1.420691e+002
1212500000	-1.198605e-001	1.420168e+002
1213750000	-1.185928e-001	1.419437e+002
1215000000	-1.202968e-001	1.418731e+002
1216250000	-1.187352e-001	1.418287e+002
1217500000	-1.194679e-001	1.417344e+002
1218750000	-1.190747e-001	1.416588e+002
1220000000	-1.173085e-001	1.415648e+002
1221250000	-1.191596e-001	1.415161e+002
1222500000	-1.206610e-001	1.414477e+002
1223750000	-1.197498e-001	1.413796e+002
1225000000	-1.205259e-001	1.413123e+002
1226250000	-1.197633e-001	1.412290e+002
1227500000	-1.231597e-001	1.411593e+002
1228750000	-1.204891e-001	1.410916e+002
1230000000	-1.214021e-001	1.410184e+002
1231250000	-1.182839e-001	1.409630e+002
1232500000	-1.210499e-001	1.408811e+002
1233750000	-1.197522e-001	1.408135e+002
1235000000	-1.201037e-001	1.407389e+002
1236250000	-1.186555e-001	1.406731e+002
1237500000	-1.200210e-001	1.405935e+002
1238750000	-1.205461e-001	1.405185e+002
1240000000	-1.216915e-001	1.404640e+002
1241250000	-1.214550e-001	1.404036e+002
1242500000	-1.202955e-001	1.403332e+002
1243750000	-1.176229e-001	1.402739e+002
1245000000	-1.203862e-001	1.401884e+002
1246250000	-1.219139e-001	1.401557e+002
1247500000	-1.217037e-001	1.400757e+002
1248750000	-1.224652e-001	1.399959e+002
1250000000	-1.225746e-001	1.399225e+002
1251250000	-1.209494e-001	1.398505e+002
1252500000	-1.232713e-001	1.398163e+002
1253750000	-1.191177e-001	1.397460e+002
1255000000	-1.248084e-001	1.396806e+002
1256250000	-1.239505e-001	1.395801e+002
1257500000	-1.226947e-001	1.395439e+002
1258750000	-1.206268e-001	1.394559e+002
1260000000	-1.259612e-001	1.394145e+002
1261250000	-1.237120e-001	1.393569e+002
1262500000	-1.190569e-001	1.392739e+002
1263750000	-1.240403e-001	1.392108e+002
1265000000	-1.206111e-001	1.391252e+002
1266250000	-1.215525e-001	1.391061e+002
1267500000	-1.217631e-001	1.390299e+002
1268750000	-1.212297e-001	1.389673e+002
1270000000	-1.242102e-001	1.388847e+002
1271250000	-1.195634e-001	1.388311e+002
1272500000	-1.240764e-001	1.387743e+002
1273750000	-1.225410e-001	1.386796e+002
1275000000	-1.258936e-001	1.386324e+002
1276250000	-1.212315e-001	1.385866e+002
1277500000	-1.266529e-001	1.385014e+002
1278750000	-1.237553e-001	1.384443e+002
1280000000	-1.251746e-001	1.383672e+002
1281250000	-1.219553e-001	1.382814e+002
1282500000	-1.217600e-001	1.382141e+002
1283750000	-1.217024e-001	1.381454e+002
1285000000	-1.221658e-001	1.380949e+002
1286250000	-1.252062e-001	1.380446e+002
1287500000	-1.262095e-001	1.379865e+002
1288750000	-1.266080e-001	1.379222e+002
1290000000	-1.229716e-001	1.378428e+002
1291250000	-1.268232e-001	1.377727e+002
1292500000	-1.229949e-001	1.377050e+002
1293750000	-1.257786e-001	1.376521e+002
1295000000	-1.233743e-001	1.375972e+002
1296250000	-1.237942e-001	1.375297e+002
1297500000	-1.234771e-001	1.373966e+002
1298750000	-1.253219e-001	1.373504e+002
1300000000	-1.227148e-001	1.372803e+002
1301250000	-1.258836e-001	1.372170e+002
1302500000	-1.267268e-001	1.371665e+002
1303750000	-1.231557e-001	1.370678e+002
1305000000	-1.265184e-001	1.370233e+002
1306250000	-1.249906e-001	1.369477e+002
1307500000	-1.237525e-001	1.368884e+002
1308750000	-1.246846e-001	1.367880e+002
1310000000	-1.241135e-001	1.367390e+002
1311250000	-1.252048e-001	1.366615e+002
1312500000	-1.233602e-001	1.365982e+002
1313750000	-1.250218e-001	1.365289e+002
1315000000	-1.253939e-001	1.364596e+002
1316250000	-1.212870e-001	1.364067e+002
1317500000	-1.254007e-001	1.363116e+002
1318750000	-1.245851e-001	1.362505e+002
1320000000	-1.239035e-001	1.361749e+002
1321250000	-1.252598e-001	1.361046e+002
1322500000	-1.272574e-001	1.360596e+002
1323750000	-1.248897e-001	1.359727e+002
1325000000	-1.248148e-001	1.359064e+002
1326250000	-1.258506e-001	1.358445e+002
1327500000	-1.257738e-001	1.357624e+002
1328750000	-1.295149e-001	1.356917e+002
1330000000	-1.270644e-001	1.356307e+002
1331250000	-1.262021e-001	1.355489e+002
1332500000	-1.245438e-001	1.354888e+002
1333750000	-1.271129e-001	1.354095e+002
1335000000	-1.279894e-001	1.353273e+002
1336250000	-1.247628e-001	1.352693e+002
1337500000	-1.246852e-001	1.351777e+002
1338750000	-1.269408e-001	1.351193e+002
1340000000	-1.265781e-001	1.350576e+002
1341250000	-1.282312e-001	1.349778e+002
1342500000	-1.288987e-001	1.348883e+002
1343750000	-1.275684e-001	1.348248e+002
1345000000	-1.244730e-001	1.347576e+002
1346250000	-1.236801e-001	1.346832e+002
1347500000	-1.273413e-001	1.346165e+002
1348750000	-1.272103e-001	1.345553e+002
1350000000	-1.240453e-001	1.344947e+002
1351250000	-1.269825e-001	1.344164e+002
1352500000	-1.285193e-001	1.343323e+002
1353750000	-1.240760e-001	1.342606e+002
1355000000	-1.185721e-001	1.342078e+002
1356250000	-1.325404e-001	1.341403e+002
1357500000	-1.301096e-001	1.340666e+002
1358750000	-1.257087e-001	1.340265e+002
1360000000	-1.268005e-001	1.339535e+002
1361250000	-1.316302e-001	1.338630e+002
1362500000	-1.306597e-001	1.337885e+002
1363750000	-1.294663e-001	1.337205e+002
1365000000	-1.309338e-001	1.336695e+002
1366250000	-1.290660e-001	1.335731e+002
1367500000	-1.313720e-001	1.334852e+002
1368750000	-1.274122e-001	1.334495e+002
1370000000	-1.293815e-001	1.333882e+002
1371250000	-1.312616e-001	1.333104e+002
1372500000	-1.316494e-001	1.332582e+002
1373750000	-1.246663e-001	1.332218e+002
1375000000	-1.295856e-001	1.331101e+002
1376250000	-1.307518e-001	1.330662e+002
1377500000	-1.297786e-001	1.329505e+002
1378750000	-1.300181e-001	1.329270e+002
1380000000	-1.339140e-001	1.328450e+002
1381250000	-1.340751e-001	1.327756e+002
1382500000	-1.309672e-001	1.327062e+002
1383750000	-1.292734e-001	1.326686e+002
1385000000	-1.266105e-001	1.325659e+002
1386250000	-1.312789e-001	1.325142e+002
1387500000	-1.299560e-001	1.324618e+002
1388750000	-1.315166e-001	1.324151e+002
1390000000	-1.314949e-001	1.323231e+002
1391250000	-1.311213e-001	1.322404e+002
1392500000	-1.307499e-001	1.321786e+002
1393750000	-1.304562e-001	1.321156e+002
1395000000	-1.347840e-001	1.320298e+002
1396250000	-1.303368e-001	1.319807e+002
1397500000	-1.292634e-001	1.319492e+002
1398750000	-1.285986e-001	1.318636e+002
1400000000	-1.283829e-001	1.317808e+002
1401250000	-1.313846e-001	1.317269e+002
1402500000	-1.344094e-001	1.316639e+002
1403750000	-1.311448e-001	1.316003e+002
1405000000	-1.306938e-001	1.315756e+002
1406250000	-1.347423e-001	1.314534e+002
1407500000	-1.309678e-001	1.313981e+002
1408750000	-1.290596e-001	1.313574e+002
1410000000	-1.309548e-001	1.312928e+002
1411250000	-1.326669e-001	1.311899e+002
1412500000	-1.359115e-001	1.311832e+002
1413750000	-1.322910e-001	1.310973e+002
1415000000	-1.321983e-001	1.310128e+002
1416250000	-1.312866e-001	1.309742e+002
1417500000	-1.318105e-001	1.308841e+002
1418750000	-1.297236e-001	1.308206e+002
1420000000	-1.311131e-001	1.307456e+002
1421250000	-1.338253e-001	1.306973e+002
1422500000	-1.324642e-001	1.306031e+002
1423750000	-1.339091e-001	1.305616e+002
1425000000	-1.319779e-001	1.304938e+002
1426250000	-1.309203e-001	1.304083e+002
1427500000	-1.323052e-001	1.303416e+002
1428750000	-1.333566e-001	1.302874e+002
1430000000	-1.335132e-001	1.301968e+002
1431250000	-1.323779e-001	1.301469e+002
1432500000	-1.331121e-001	1.300925e+002
1433750000	-1.297961e-001	1.300351e+002
1435000000	-1.332714e-001	1.299638e+002
1436250000	-1.340771e-001	1.298929e+002
1437500000	-1.351799e-001	1.297895e+002
1438750000	-1.333546e-001	1.297453e+002
1440000000	-1.350652e-001	1.296664e+002
1441250000	-1.335122e-001	1.296267e+002
1442500000	-1.370798e-001	1.295449e+002
1443750000	-1.342555e-001	1.294787e+002
1445000000	-1.328104e-001	1.294127e+002
1446250000	-1.318537e-001	1.293402e+002
1447500000	-1.325678e-001	1.292556e+002
1448750000	-1.384976e-001	1.291880e+002
1450000000	-1.353848e-001	1.291262e+002
1451250000	-1.316955e-001	1.290522e+002
1452500000	-1.404948e-001	1.289824e+002
1453750000	-1.339479e-001	1.288835e+002
1455000000	-1.383102e-001	1.288325e+002
1456250000	-1.386138e-001	1.287692e+002
1457500000	-1.359639e-001	1.286962e+002
1458750000	-1.351453e-001	1.286193e+002
1460000000	-1.347583e-001	1.285467e+002
1461250000	-1.365045e-001	1.284964e+002
1462500000	-1.351928e-001	1.284091e+002
1463750000	-1.381710e-001	1.283390e+002
1465000000	-1.380873e-001	1.282752e+002
1466250000	-1.390062e-001	1.282264e+002
1467500000	-1.392550e-001	1.281286e+002
1468750000	-1.395877e-001	1.280614e+002
1470000000	-1.379295e-001	1.280029e+002
1471250000	-1.406643e-001	1.279086e+002
1472500000	-1.379801e-001	1.278438e+002
1473750000	-1.406235e-001	1.277628e+002
1475000000	-1.392320e-001	1.277112e+002
1476250000	-1.379693e-001	1.276258e+002
1477500000	-1.408224e-001	1.275934e+002
1478750000	-1.340126e-001	1.275246e+002
1480000000	-1.424553e-001	1.274200e+002
1481250000	-1.378263e-001	1.273788e+002
1482500000	-1.400129e-001	1.272828e+002
1483750000	-1.368304e-001	1.272176e+002
1485000000	-1.391609e-001	1.271499e+002
1486250000	-1.358491e-001	1.270814e+002
1487500000	-1.373452e-001	1.269997e+002
1488750000	-1.416859e-001	1.269530e+002
1490000000	-1.385222e-001	1.268605e+002
1491250000	-1.378769e-001	1.267795e+002
1492500000	-1.406845e-001	1.267095e+002
1493750000	-1.395188e-001	1.266720e+002
1495000000	-1.396939e-001	1.266069e+002
1496250000	-1.390644e-001	1.265379e+002
1497500000	-1.391432e-001	1.264293e+002
1498750000	-1.412128e-001	1.263927e+002
1500000000	-1.383981e-001	1.263130e+002
1501250000	-1.403914e-001	1.262189e+002
1502500000	-1.340620e-001	1.261730e+002
1503750000	-1.433692e-001	1.261062e+002
1505000000	-1.369839e-001	1.260349e+002
1506250000	-1.357896e-001	1.259776e+002
1507500000	-1.342930e-001	1.258919e+002
1508750000	-1.347796e-001	1.258514e+002
1510000000	-1.388595e-001	1.257759e+002
1511250000	-1.397011e-001	1.257131e+002
1512500000	-1.373764e-001	1.256143e+002
1513750000	-1.367165e-001	1.255475e+002
1515000000	-1.391157e-001	1.255109e+002
1516250000	-1.368129e-001	1.254246e+002
1517500000	-1.412068e-001	1.253626e+002
1518750000	-1.404629e-001	1.253205e+002
1520000000	-1.384230e-001	1.252656e+002
1521250000	-1.411807e-001	1.251663e+002
1522500000	-1.421189e-001	1.250835e+002
1523750000	-1.417353e-001	1.250623e+002
1525000000	-1.394330e-001	1.249815e+002
1526250000	-1.430978e-001	1.249066e+002
1527500000	-1.446060e-001	1.248309e+002
1528750000	-1.395181e-001	1.247832e+002
1530000000	-1.450134e-001	1.247226e+002
1531250000	-1.390750e-001	1.246399e+002
1532500000	-1.404483e-001	1.245684e+002
1533750000	-1.410878e-001	1.244986e+002
1535000000	-1.404898e-001	1.244315e+002
1536250000	-1.411334e-001	1.243894e+002
1537500000	-1.405346e-001	1.242977e+002
1538750000	-1.389603e-001	1.242667e+002
1540000000	-1.405256e-001	1.241785e+002
1541250000	-1.388175e-001	1.241282e+002
1542500000	-1.427251e-001	1.240784e+002
1543750000	-1.416474e-001	1.240145e+002
1545000000	-1.385956e-001	1.239158e+002
1546250000	-1.413661e-001	1.238606e+002
1547500000	-1.419688e-001	1.238002e+002
1548750000	-1.448311e-001	1.237448e+002
1550000000	-1.442166e-001	1.236420e+002
1551250000	-1.421813e-001	1.235939e+002
1552500000	-1.433177e-001	1.235373e+002
1553750000	-1.454989e-001	1.234440e+002
1555000000	-1.425626e-001	1.233786e+002
1556250000	-1.432516e-001	1.233419e+002
1557500000	-1.486611e-001	1.232471e+002
1558750000	-1.473250e-001	1.231872e+002
1560000000	-1.441426e-001	1.231077e+002
1561250000	-1.459141e-001	1.230633e+002
1562500000	-1.438600e-001	1.229663e+002
1563750000	-1.454567e-001	1.228966e+002
1565000000	-1.481829e-001	1.228378e+002
1566250000	-1.486590e-001	1.227757e+002
1567500000	-1.463386e-001	1.227237e+002
1568750000	-1.472156e-001	1.226404e+002
1570000000	-1.463523e-001	1.225555e+002
1571250000	-1.464000e-001	1.225145e+002
1572500000	-1.445339e-001	1.224241e+002
1573750000	-1.457111e-001	1.223362e+002
1575000000	-1.497033e-001	1.222693e+002
1576250000	-1.492749e-001	1.222037e+002
1577500000	-1.488978e-001	1.221374e+002
1578750000	-1.462374e-001	1.220795e+002
1580000000	-1.466008e-001	1.220007e+002
1581250000	-1.477731e-001	1.219243e+002
1582500000	-1.471550e-001	1.218660e+002
1583750000	-1.507094e-001	1.218071e+002
1585000000	-1.496175e-001	1.217174e+002
1586250000	-1.485785e-001	1.216406e+002
1587500000	-1.503772e-001	1.216049e+002
1588750000	-1.534069e-001	1.215223e+002
1590000000	-1.510473e-001	1.214584e+002
1591250000	-1.505462e-001	1.213626e+002
1592500000	-1.524707e-001	1.212857e+002
1593750000	-1.541529e-001	1.212424e+002
1595000000	-1.529199e-001	1.211565e+002
1596250000	-1.538684e-001	1.210869e+002
1597500000	-1.545016e-001	1.209998e+002
1598750000	-1.503684e-001	1.209205e+002
1600000000	-1.531413e-001	1.208686e+002
1601250000	-1.513529e-001	1.208035e+002
1602500000	-1.514661e-001	1.207252e+002
1603750000	-1.539933e-001	1.206551e+002
1605000000	-1.536564e-001	1.205947e+002
1606250000	-1.474425e-001	1.204782e+002
1607500000	-1.553633e-001	1.204208e+002
1608750000	-1.450448e-001	1.203622e+002
1610000000	-1.514392e-001	1.202924e+002
1611250000	-1.474905e-001	1.201908e+002
1612500000	-1.560684e-001	1.201377e+002
1613750000	-1.495885e-001	1.200910e+002
