#  HZ   S   MA   R     50.00 
! Rohde & Schwarz ZVA67 4Ports - Version 4.11 - 1305.7002k04 SN: 101051
! Date: 2023-09-13 17:21:20
! Measurements: S11 S21 S12 S22 
! 
 6.705000000000000E10    1.166090023793595E-1  -1.641391760362886E2   3.610474373771483E-1  -1.168003526860283E2   3.614576388112493E-1  -1.129661649446265E2   5.004116994351568E-1   1.576644212865820E2  
 6.710000000000000E10    3.224441569431739E-2   5.673362076405967E1   3.638205350338183E-1  -1.604836308597302E2   3.635576065574340E-1  -1.565510495772217E2   4.893703663796205E-1   1.479085675549194E2  
 6.715000000000000E10    1.359028729005878E-1  -4.050766016137898E1   3.596935286033022E-1   1.563015405198338E2   3.614954269755226E-1   1.602875791759857E2   4.959462047514404E-1   1.370121516571415E2  
 6.720000000000000E10    2.134604965004948E-1  -8.425667106591338E1   3.591689199531310E-1   1.139244162669576E2   3.589964178528723E-1   1.179361031151545E2   4.955356625763404E-1   1.241729438297278E2  
 6.725000000000000E10    2.292132108081517E-1  -1.229083017237382E2   3.633985713118618E-1   7.212324309723238E1   3.638088860408149E-1   7.588563169744136E1   4.740000182464007E-1   1.102487807031377E2  
 6.730000000000000E10    1.809224565023947E-1  -1.551935235451745E2   3.731256174531980E-1   2.921182895992289E1   3.733086254752686E-1   3.299867965933179E1   4.299199708777446E-1   9.909830531727150E1  
 6.735000000000000E10    9.380982390502231E-2  -1.618735232462742E2   3.788322139982417E-1  -1.502406490830654E1   3.796547917990675E-1  -1.125621468823326E1   3.991796191203999E-1   9.260206852312237E1  
 6.740000000000000E10    1.177964958445832E-1  -1.277084981317035E2   3.755995677546872E-1  -5.942557232497923E1   3.757924811255030E-1  -5.552405922598828E1   4.163246732591640E-1   8.661107295915355E1  
 6.745000000000000E10    1.989077791479863E-1  -1.451123211899984E2   3.674998841759450E-1  -1.023832392590518E2   3.678906849367352E-1  -9.861255114856917E1   4.538565705736652E-1   7.454069291394890E1  
 6.750000000000000E10    2.361783176854100E-1  -1.774429498230222E2   3.640444809808666E-1  -1.441576554148608E2   3.636904107495738E-1  -1.403248362278249E2   4.731577706304301E-1   5.849448267170434E1  
 6.755000000000000E10    2.089869068753650E-1   1.463083603565906E2   3.671981997993184E-1   1.740824389114478E2   3.678092828433183E-1   1.779475597559603E2   4.596123019201761E-1   4.166303324258334E1  
 6.760000000000000E10    1.261369343361783E-1   1.049919347506379E2   3.765042482012036E-1   1.313033115362757E2   3.765066081397369E-1   1.351927317233497E2   4.329109104727321E-1   2.698069540773189E1  
 6.765000000000000E10    2.196284677053265E-2  -3.509267445547728   3.803486802026979E-1   8.757364831269437E1   3.810437775701341E-1   9.156717444815831E1   4.126740573707903E-1   1.514722320971878E1  
 6.770000000000000E10    1.156126602198477E-1  -1.316566830072887E2   3.786528387877223E-1   4.393183456349821E1   3.787700675933011E-1   4.794714190235107E1   4.170152379282885E-1   2.911532938363008  
 6.775000000000000E10    1.886617377447702E-1  -1.740874253207962E2   3.748133270059548E-1   1.296215684911184   3.756646043433707E-1   5.290510739459477   4.258006770289487E-1  -1.274162556814439E1  
 6.780000000000000E10    2.076303955742838E-1   1.493101823049611E2   3.767327943346079E-1  -4.073637876839673E1   3.768917428588914E-1  -3.684239325314275E1   4.121477062832704E-1  -2.960767962649499E1  
 6.785000000000000E10    1.674820138148315E-1   1.165153797097258E2   3.825916993741441E-1  -8.344284994322462E1   3.829692857884317E-1  -7.954857688442642E1   3.759004029148247E-1  -4.428529597195588E1  
 6.790000000000000E10    9.379582608191175E-2   9.754590387439318E1   3.881224904370789E-1  -1.270860942917231E2   3.894782694916852E-1  -1.232226944839511E2   3.458871585594477E-1  -5.286191418034911E1  
 6.795000000000000E10    7.592269568583746E-2   1.336859217840698E2   3.863731433205364E-1  -1.713356004924963E2   3.878309062418656E-1  -1.674811946220227E2   3.582196761217493E-1  -5.829082530344873E1  
 6.800000000000000E10    1.389009564790054E-1   1.241067016796562E2   3.779853517029523E-1   1.452017714073520E2   3.789619760951559E-1   1.490119865347236E2   4.059986854170578E-1  -6.861158896979731E1  
 6.805000000000000E10    1.767762775077532E-1   8.769902909119126E1   3.688983779087576E-1   1.029474391022680E2   3.698172512711385E-1   1.068750334026136E2   4.480104147750121E-1  -8.413470151483477E1  
 6.810000000000000E10    1.772812348039667E-1   4.222495605868495E1   3.660179066049694E-1   6.134354458675811E1   3.670252469012701E-1   6.533193648168904E1   4.631718562108493E-1  -1.005336343867904E2  
 6.815000000000000E10    1.494869079344879E-1  -1.309569457023293E1   3.684443252088757E-1   1.953734404233548E1   3.691765466120207E-1   2.347159087799484E1   4.597667281128586E-1  -1.158273273321523E2  
 6.820000000000000E10    1.216384782943431E-1  -8.269391135780163E1   3.733210520395328E-1  -2.299819568947965E1   3.741242780811765E-1  -1.902876803741676E1   4.506513865980695E-1  -1.286618012765077E2  
 6.825000000000000E10    1.140474778022105E-1  -1.590828565521991E2   3.741752041013193E-1  -6.570324242098889E1   3.747222389633325E-1  -6.196512879893054E1   4.464306055227824E-1  -1.401769931645399E2  
 6.830000000000000E10    1.133594020670835E-1   1.298344148096967E2   3.732465119731119E-1  -1.084634635443833E2   3.742483583732224E-1  -1.046715400234514E2   4.493658986746959E-1  -1.512001048284885E2  
 6.835000000000000E10    1.033301542975321E-1   6.090699611301419E1   3.730847977943930E-1  -1.508805319560059E2   3.739171384946017E-1  -1.472303120215823E2   4.490390388662436E-1  -1.626529586610546E2  
 6.840000000000000E10    8.964298762583477E-2  -1.387506556822311E1   3.732725276546042E-1   1.664689103288650E2   3.747545799485643E-1   1.702617061214627E2   4.433743353000018E-1  -1.732959559099258E2  
 6.845000000000000E10    7.984306411671033E-2  -9.062651408649526E1   3.751675640009369E-1   1.237160761153634E2   3.750600502022816E-1   1.273926758098522E2   4.381406324248652E-1   1.773106532506827E2  
 6.850000000000000E10    6.575021138396427E-2  -1.660375033411541E2   3.731350988964749E-1   8.044692773961903E1   3.742246713283849E-1   8.431870156964466E1   4.430871433699700E-1   1.693452493780939E2  
 6.855000000000000E10    4.184405212879861E-2   8.963316775129565E1   3.678927865506691E-1   3.743738628182054E1   3.676922794694411E-1   4.132545574329481E1   4.644271736943658E-1   1.609271602682283E2  
 6.860000000000000E10    8.381944353280138E-2  -2.574974182488673E1   3.588947534950217E-1  -4.928868219261527   3.597709740543879E-1  -8.627905871569702E-1   4.930230534627438E-1   1.506841326573438E2  
 6.865000000000000E10    1.595880608310360E-1  -8.615245272695992E1   3.513335245842420E-1  -4.632776041851944E1   3.519954791328640E-1  -4.225823512871337E1   5.178803571229854E-1   1.384457296867051E2  
 6.870000000000000E10    2.195772659914118E-1  -1.334822248813777E2   3.488111237588538E-1  -8.706448546667915E1   3.491805192813099E-1  -8.289099594443871E1   5.257006613758433E-1   1.251772263669534E2  
 6.875000000000000E10    2.384595421311629E-1  -1.761598328587084E2   3.525933101296959E-1  -1.276599867801316E2   3.534277532600401E-1  -1.235583433895252E2   5.121693696626060E-1   1.119695211227188E2  
 6.880000000000000E10    2.012476988429597E-1   1.427991133976453E2   3.627569736987261E-1  -1.690708446607241E2   3.632339227317824E-1  -1.651388262996420E2   4.792485605762978E-1   1.005628062698247E2  
 6.885000000000000E10    1.084697624220357E-1   1.053515632424850E2   3.719004352554375E-1   1.480760320120614E2   3.723680234227153E-1   1.520577640858907E2   4.477040325689825E-1   9.271684617629056E1  
 6.890000000000000E10    2.374780743618596E-2  -1.734654995698140E2   3.736832611270599E-1   1.046102858147342E2   3.750399109589213E-1   1.085761860577107E2   4.415448145500059E-1   8.663492668916436E1  
 6.895000000000000E10    1.227624079642344E-1  -1.746380278915700E2   3.709800012524412E-1   6.167397652987343E1   3.712512528163399E-1   6.562720170227277E1   4.552987336653492E-1   7.850891472156098E1  
 6.900000000000000E10    1.746673480756547E-1   1.494742372592798E2   3.673973625640629E-1   1.948821790207002E1   3.683386291637307E-1   2.355956153523727E1   4.676127523376878E-1   6.798351237758804E1  
 6.905000000000000E10    1.576879178596594E-1   1.134062887036190E2   3.676656003238956E-1  -2.254919270207594E1   3.686542493544106E-1  -1.854459278718037E1   4.616222518390484E-1   5.719147736825723E1  
 6.910000000000000E10    7.528262402891586E-2   8.665333832503987E1   3.681860719193163E-1  -6.515788375118842E1   3.685341786589278E-1  -6.114204907984446E1   4.546143926238214E-1   4.821532882049871E1  
 6.915000000000000E10    6.301813314883389E-2   1.776608807071731E2   3.623851314655691E-1  -1.079822232346396E2   3.633435887104603E-1  -1.038380912922593E2   4.679926591121479E-1   3.950334208592476E1  
 6.920000000000000E10    1.783086950765923E-1   1.575649855355705E2   3.525413683693078E-1  -1.497332436284186E2   3.540411032332252E-1  -1.456178799850367E2   4.948240886312718E-1   2.792731873162042E1  
 6.925000000000000E10    2.593284262285657E-1   1.247848864293483E2   3.479633840124604E-1   1.699706417065985E2   3.478562084151957E-1   1.740217159298086E2   5.118088517053938E-1   1.302934460872153E1  
 6.930000000000000E10    2.861293068381248E-1   9.116991065653572E1   3.498499178811985E-1   1.303038648220033E2   3.508208785945749E-1   1.341903195950641E2   4.974474735864254E-1  -3.136421131065966  
 6.935000000000000E10    2.514751502154565E-1   5.808972265763535E1   3.629010475281645E-1   8.949151953473236E1   3.635682789079664E-1   9.347946709445333E1   4.502003359552755E-1  -1.776684006125130E1  
 6.940000000000000E10    1.624513642269605E-1   3.000681373245579E1   3.773206156643795E-1   4.716561859838953E1   3.787305397127103E-1   5.098938826339361E1   3.927664862074175E-1  -2.772802129823759E1  
 6.945000000000000E10    7.605677620210194E-2   4.161664135653938E1   3.863275738837168E-1   3.374880504665849   3.862185800480356E-1   7.270062897102860   3.669364442195207E-1  -3.175336109811989E1  
 6.950000000000000E10    1.250543831523399E-1   6.942946132967148E1   3.827815743686962E-1  -4.021460930100035E1   3.836578136287560E-1  -3.610354371250545E1   3.889782936217192E-1  -3.748739842447726E1  
 6.955000000000000E10    1.831337551944456E-1   4.569450068227440E1   3.779613110927088E-1  -8.257634350814439E1   3.787570992808221E-1  -7.847890273287203E1   4.174759210387551E-1  -4.864334755257961E1  
 6.960000000000000E10    1.853936074202770E-1   1.310607317945050E1   3.763864500726742E-1  -1.243912872292598E2   3.771482987634857E-1  -1.203016516297247E2   4.246030033524711E-1  -6.189407333813242E1  
 6.965000000000000E10    1.292746511521913E-1  -1.835024492763873E1   3.771480751492328E-1  -1.666039573299557E2   3.783514643403840E-1  -1.623827276436423E2   4.143792284210105E-1  -7.321085508507453E1  
 6.970000000000000E10    4.058496577504257E-2  -1.160275900104783E1   3.763149815661691E-1   1.506457061795398E2   3.771283331734970E-1   1.549152173435247E2   4.159350595910596E-1  -8.214783466274153E1  
 6.975000000000000E10    1.041351275511444E-1   4.816291984378240E1   3.690676053665061E-1   1.082880664634515E2   3.696910755124315E-1   1.125109790678572E2   4.419571239738789E-1  -9.205336402783053E1  
 6.980000000000000E10    1.960908373237989E-1   1.897543989741970E1   3.599208537087698E-1   6.707314723624184E1   3.607108886248893E-1   7.122011957491748E1   4.726470797300958E-1  -1.054265986314779E2  
 6.985000000000000E10    2.509615236515767E-1  -1.548414559012550E1   3.563646394221240E-1   2.684956371942989E1   3.566055771841021E-1   3.112910517060230E1   4.821948334115317E-1  -1.212912777864069E2  
 6.990000000000000E10    2.557129839155074E-1  -5.058083667113552E1   3.615530126641663E-1  -1.311863774809415E1   3.619540249929950E-1  -8.924067585033285   4.600921240980001E-1  -1.375709887254326E2  
 6.995000000000000E10    2.099499066734167E-1  -8.394003724697186E1   3.731889894279933E-1  -5.418060282036692E1   3.740890574014658E-1  -5.011507900996189E1   4.113867546197312E-1  -1.511935647401731E2  
 7.000000000000000E10    1.242158356995257E-1  -1.072535718271268E2   3.859893546631955E-1  -9.676085387441069E1   3.858753670775635E-1  -9.273509833286188E1   3.613451198328638E-1  -1.588393209671442E2  
 7.005000000000000E10    7.627826853255207E-2  -7.663764746263277E1   3.893705673894103E-1  -1.399990478952674E2   3.896542769915743E-1  -1.361221511944360E2   3.509463068630163E-1  -1.618180842309342E2  
 7.010000000000000E10    1.461707675941376E-1  -7.157276498299302E1   3.853195338199164E-1   1.769967750825736E2   3.856445065728835E-1  -1.789307189838490E2   3.780472791483454E-1  -1.683453525409673E2  
 7.015000000000000E10    2.003655184434355E-1  -9.810741831231334E1   3.807725172228335E-1   1.350627344851342E2   3.809567937688863E-1   1.392698745072827E2   3.993674914120116E-1   1.799078446192727E2  
 7.020000000000000E10    1.968516563687071E-1  -1.278431002876114E2   3.809003070236237E-1   9.360487134662340E1   3.813359096313617E-1   9.769352359373978E1   3.953676293146056E-1   1.673353649535576E2  
 7.025000000000000E10    1.417928708898904E-1  -1.506969159735132E2   3.831709630786663E-1   5.150275020878606E1   3.841071468018059E-1   5.563939454440827E1   3.765426975320119E-1   1.578498469291044E2  
 7.030000000000000E10    9.017574381055279E-2  -1.343765840765270E2   3.819463084745663E-1   8.806557260257028   3.815671399537353E-1   1.287846261210423E1   3.784210103769017E-1   1.520465696594028E2  
 7.035000000000000E10    1.595136421638186E-1  -1.178750545397003E2   3.730237589473160E-1  -3.359557674337335E1   3.736161559807752E-1  -2.923050051634181E1   4.143189769083048E-1   1.440624381032157E2  
 7.040000000000000E10    2.453212519694710E-1  -1.391938853270345E2   3.624698427604593E-1  -7.459059843384021E1   3.628476067242724E-1  -7.005385141242898E1   4.523414217538863E-1   1.305499791465571E2  
 7.045000000000000E10    2.920873341241035E-1  -1.678422665892920E2   3.592504948980341E-1  -1.144608780585727E2   3.592664045881846E-1  -1.095809894708439E2   4.643185248158069E-1   1.140158847580230E2  
 7.050000000000000E10    2.827143293383674E-1   1.634776511359688E2   3.657494949750817E-1  -1.541844287842426E2   3.654713225837205E-1  -1.494230576692962E2   4.371982478839523E-1   9.734577452627400E1  
 7.055000000000000E10    2.179292308178829E-1   1.387061127105110E2   3.783456282660253E-1   1.646818641255412E2   3.788028910438976E-1   1.694489175670391E2   3.770782191251804E-1   8.418841077296121E1  
 7.060000000000000E10    1.321763802726281E-1   1.338497837828827E2   3.902793290791964E-1   1.220861394186147E2   3.898775348939036E-1   1.268021953256613E2   3.263858661539645E-1   7.884206756399841E1  
 7.065000000000000E10    1.384514727845233E-1   1.586157481839395E2   3.909306377762234E-1   7.895602301547073E1   3.912479267710195E-1   8.379780959735044E1   3.273311335088903E-1   7.695889803982180E1  
 7.070000000000000E10    2.056491899488865E-1   1.503353517230548E2   3.870332949930589E-1   3.664676676223676E1   3.869661553368480E-1   4.153017668231274E1   3.546260488314341E-1   6.831896129493735E1  
 7.075000000000000E10    2.352392928841271E-1   1.286133821737722E2   3.846628336102111E-1  -4.544504292211611   3.851669515710263E-1   3.407174147656009E-2   3.601332796295850E-1   5.470732917728375E1  
 7.080000000000000E10    2.124604993925315E-1   1.082835740924040E2   3.872571683270829E-1  -4.610635831920471E1   3.884225970392038E-1  -4.165070488355247E1   3.310691484766949E-1   4.245816193958864E1  
 7.085000000000000E10    1.635293651204610E-1   1.023197588323370E2   3.896166117251420E-1  -8.860871421484671E1   3.899834385870249E-1  -8.405922434813427E1   2.993307951827424E-1   3.789075680504087E1  
 7.090000000000000E10    1.771688506937221E-1   1.118948470580552E2   3.852521837012801E-1  -1.313635563019082E2   3.851289837934023E-1  -1.267898941205997E2   3.202887666468296E-1   3.613155115562762E1  
 7.095000000000000E10    2.469566461061361E-1   1.027778338618873E2   3.729746441422082E-1  -1.731813111572584E2   3.736476078239203E-1  -1.683269032072802E2   3.790718719648327E-1   2.610719592549375E1  
 7.100000000000000E10    3.019347617157541E-1   8.044569171950894E1   3.644327310132651E-1   1.466685645955687E2   3.649650063876703E-1   1.514206453010983E2   4.223740606588678E-1   8.483786891747036  
 7.105000000000000E10    3.096630764708753E-1   5.398434912598260E1   3.642480455158930E-1   1.072293723051043E2   3.649496248039791E-1   1.118746016274935E2   4.270210932888643E-1  -1.126411532384235E1  
 7.110000000000000E10    2.666501267148108E-1   2.699568234175865E1   3.732607282577523E-1   6.730008275196924E1   3.738108057481639E-1   7.184374722336892E1   3.905098778179891E-1  -3.014573164373597E1  
 7.115000000000000E10    1.842253463812526E-1   5.237088633421982   3.862072602775876E-1   2.588422539938623E1   3.867165858662616E-1   3.041793649020885E1   3.312315341211430E-1  -4.446023229104247E1  
 7.120000000000000E10    1.022256577720750E-1   9.122592630624872   3.964137402063179E-1  -1.666693696040272E1   3.960446183365129E-1  -1.218252037669681E1   2.887839560069462E-1  -5.055023336610976E1  
 7.125000000000000E10    1.242370722136732E-1   3.608465905923249E1   3.964638741710418E-1  -5.928179960730518E1   3.972241230419796E-1  -5.505769433676808E1   2.906559495493768E-1  -5.549922713778646E1  
 7.130000000000000E10    1.789614841298315E-1   2.456821815885243E1   3.941585068304773E-1  -1.015703576183169E2   3.949684635892630E-1  -9.720638010143016E1   3.064540885285613E-1  -6.669355262500736E1  
 7.135000000000000E10    1.974877764091455E-1   3.701114705302245   3.937985477704612E-1  -1.432579452370283E2   3.942158543418535E-1  -1.388900629706893E2   2.968093486724688E-1  -8.042771058978285E1  
 7.140000000000000E10    1.760177883788439E-1  -1.235316699034563E1   3.939513131535464E-1   1.745543652804489E2   3.954977748771784E-1   1.791191646581847E2   2.649727938679418E-1  -8.941237770210634E1  
 7.145000000000000E10    1.621246626910899E-1  -1.318288544171785E1   3.915324744759604E-1   1.318536620465764E2   3.926399790929491E-1   1.366261892802401E2   2.564965509362644E-1  -8.890069887154169E1  
 7.150000000000000E10    2.070868534600512E-1  -1.486043590252881E1   3.825496611951755E-1   8.939627158251315E1   3.830086653818998E-1   9.428550135845497E1   3.085299169600925E-1  -9.113498150883179E1  
 7.155000000000000E10    2.754865312001246E-1  -3.263123270741109E1   3.681426380107578E-1   4.830016095422691E1   3.687005560843756E-1   5.318900455257132E1   3.807980492133564E-1  -1.039902472519808E2  
 7.160000000000000E10    3.192308622396712E-1  -5.807342059631478E1   3.587574242949644E-1   8.721061503867025   3.594872143470552E-1   1.350192292633433E1   4.296792468071858E-1  -1.224870974167751E2  
 7.165000000000000E10    3.210853031260010E-1  -8.622331376658049E1   3.581954226887461E-1  -3.022915564671327E1   3.586124835115261E-1  -2.557198672764443E1   4.370623964055364E-1  -1.421252671726787E2  
 7.170000000000000E10    2.764799963764947E-1  -1.137113556783504E2   3.675219077902728E-1  -6.973211258415569E1   3.680734493938189E-1  -6.520124218362665E1   4.044162900608392E-1  -1.600934484366098E2  
 7.175000000000000E10    1.923042003503990E-1  -1.359537486521117E2   3.818778080221393E-1  -1.107901657089288E2   3.820804175132044E-1  -1.062661049642217E2   3.464950868715876E-1  -1.729961164068623E2  
 7.180000000000000E10    1.119815598635434E-1  -1.323381472476246E2   3.918135905844479E-1  -1.532485106468520E2   3.916197328224369E-1  -1.486676050684451E2   3.037457394769190E-1  -1.775913391579988E2  
