#  HZ   S   MA   R     50.00 
! Rohde & Schwarz ZVA67 4Ports - Version 4.11 - 1305.7002k04 SN: 101051
! Date: 2023-05-31 14:01:54
! Measurements: S11 S21 S12 S22 
! 
 5.000000000000000E7     7.862845443217196E-3   4.189711689067165E1   9.994176291666646E-1  -6.922024616355024   9.983037687233159E-1  -6.917530812899353   1.006929558301398E-2   5.101281691691822  
 1.000000000000000E8     3.419923079884796E-3  -4.479869800021645E1   9.987336177110834E-1  -1.331315759373943E1   9.995370564231122E-1  -1.372599364760381E1   4.003089380623531E-3  -2.464196156499362E1  
 1.500000000000000E8     9.651737348699263E-3  -1.449202580994690E1   9.961946985022888E-1  -1.999831476054997E1   9.965098103454114E-1  -2.049464823302651E1   9.555019903244604E-3  -3.806484548274690E1  
 2.000000000000000E8     7.141876631922082E-3  -1.752613507146072E1   9.966856461019259E-1  -2.688732562565040E1   9.987764158186212E-1  -2.729343446171348E1   9.134710776406728E-3  -3.081763732140998E1  
 2.500000000000000E8     1.022489735764805E-2  -2.269916660043328E1   9.956009430480545E-1  -3.371269947512749E1   9.958446550422370E-1  -3.397940697987136E1   1.302100647344538E-2  -3.394133811850336E1  
 3.000000000000000E8     1.348571045443238E-2  -3.531528842274715E1   9.954760796277481E-1  -4.048548849214721E1   9.946131894309179E-1  -4.081228740493869E1   1.672633004853435E-2  -3.877400621160341E1  
 3.500000000000000E8     1.601516945590938E-2  -4.222532744741022E1   9.946243258892765E-1  -4.732201462152388E1   9.948330671296697E-1  -4.760674356860119E1   1.736240020082795E-2  -4.431158155765844E1  
 4.000000000000000E8     1.920174481906053E-2  -4.899242194808391E1   9.942939317451924E-1  -5.398522981858154E1   9.953399762981662E-1  -5.430827810073442E1   2.123364908568718E-2  -4.645397999338557E1  
 4.500000000000000E8     1.865273340582845E-2  -5.253053147899480E1   9.940505082510260E-1  -6.080089624335577E1   9.942967741215231E-1  -6.111896499790685E1   2.398380972500539E-2  -5.192943649205240E1  
 5.000000000000000E8     1.956924519832079E-2  -6.446951250834790E1   9.939099460235330E-1  -6.763284563697238E1   9.940872597002425E-1  -6.792506095946308E1   2.485722841377970E-2  -6.566327295629309E1  
 5.500000000000000E8     1.667373220933078E-2  -7.369212984441332E1   9.934972155908877E-1  -7.428954839130363E1   9.934745889782919E-1  -7.470190059066690E1   2.610291053786891E-2  -7.335889964244979E1  
 6.000000000000000E8     1.540816183265069E-2  -9.290494750676649E1   9.935942452954786E-1  -8.115769720757979E1   9.931379422752672E-1  -8.148066345331034E1   2.848694003014259E-2  -8.586248155477645E1  
 6.500000000000000E8     1.344889585269899E-2  -9.780814773637769E1   9.927717913724773E-1  -8.785370863482243E1   9.932392195258651E-1  -8.825996085248181E1   3.169754031984668E-2  -9.824507080715488E1  
 7.000000000000000E8     1.204002897828440E-2  -1.316947886424748E2   9.922817056538948E-1  -9.463344450853961E1   9.923238064732854E-1  -9.505156287885581E1   3.184394946659453E-2  -1.137236208342326E2  
 7.500000000000000E8     8.211919903714473E-3  -1.643832284554564E2   9.919177852052876E-1  -1.014138976793736E2   9.923194931473399E-1  -1.018127193986754E2   3.240206192662978E-2  -1.277744719181742E2  
 8.000000000000000E8     1.234426300191079E-2   1.518220082582048E2   9.916635951214973E-1  -1.081661598118937E2   9.908497700188129E-1  -1.085641159861980E2   3.193126190260172E-2  -1.459983703198814E2  
 8.500000000000000E8     1.419861528037111E-2   1.293305578714355E2   9.915683716368420E-1  -1.149901689420661E2   9.907319962750084E-1  -1.153867091656719E2   3.485764377547229E-2  -1.590716801731324E2  
 9.000000000000000E8     1.963552588477863E-2   1.105178434455878E2   9.902787665050366E-1  -1.217610775975796E2   9.896747900615495E-1  -1.221440713435826E2   3.878490322860381E-2  -1.721133485663795E2  
 9.500000000000000E8     2.296361154430814E-2   1.021716428219129E2   9.894259662482281E-1  -1.284649123492627E2   9.892224700843503E-1  -1.289247373589351E2   4.029449409636236E-2   1.775882627782885E2  
 1.000000000000000E9     2.735144886723319E-2   9.596051643419042E1   9.892388015072632E-1  -1.352548132239565E2   9.887165076294725E-1  -1.357156453119275E2   4.288441654067017E-2   1.661763276920127E2  
 1.050000000000000E9     2.905402947462991E-2   8.905594835461980E1   9.887399621222426E-1  -1.420097635661204E2   9.883909113487658E-1  -1.425068661963053E2   4.260374593349586E-2   1.581551818825059E2  
 1.100000000000000E9     3.209422667941249E-2   8.322111703729296E1   9.880734011125855E-1  -1.487936572197933E2   9.877780237051596E-1  -1.492518928632491E2   4.452760917874303E-2   1.469732326740549E2  
 1.150000000000000E9     3.457195617586933E-2   7.677725185674308E1   9.876152429447409E-1  -1.555215100767612E2   9.872190737158879E-1  -1.560342862957082E2   4.365001214901929E-2   1.382572219406670E2  
 1.200000000000000E9     3.652427712124928E-2   7.237709168335023E1   9.871542759692389E-1  -1.622919325748215E2   9.869399928404775E-1  -1.628350479387632E2   4.510506933382204E-2   1.283477728680952E2  
 1.250000000000000E9     3.608507730056643E-2   6.675623302315069E1   9.866324601183318E-1  -1.690632055611671E2   9.864638491930076E-1  -1.695898408246299E2   4.073852448928194E-2   1.223347494516296E2  
 1.300000000000000E9     3.654759311961024E-2   6.165532035938192E1   9.868574499716485E-1  -1.757917793167952E2   9.864683971112609E-1  -1.763811738080196E2   4.035525218012714E-2   1.159246301685325E2  
 1.350000000000000E9     3.661980633928827E-2   5.578584224425092E1   9.864605871746802E-1   1.774305371710830E2   9.868809511015932E-1   1.768628291990229E2   3.634016137704146E-2   1.095635825171396E2  
 1.400000000000000E9     3.498643440292239E-2   5.135169652499140E1   9.863913757232420E-1   1.706690136770836E2   9.863781927291521E-1   1.701150945165076E2   3.481528257853409E-2   1.041633903256313E2  
 1.450000000000000E9     3.339056315825402E-2   4.376740035839906E1   9.863265239439033E-1   1.639761011329725E2   9.863397310203415E-1   1.633084616830466E2   3.048855497356728E-2   1.008291518108547E2  
 1.500000000000000E9     3.190096048179145E-2   4.042715550933428E1   9.865417980557393E-1   1.572162308139738E2   9.868491513056453E-1   1.565827604879675E2   2.824905562769852E-2   9.866477399942681E1  
 1.550000000000000E9     2.948468859843981E-2   3.120264325439645E1   9.867189625690326E-1   1.504704800910459E2   9.866996476503622E-1   1.498177069257204E2   2.357576948870281E-2   9.971636436848525E1  
 1.600000000000000E9     2.812140071298427E-2   2.391705019425085E1   9.869079676234167E-1   1.437043989687855E2   9.872133730689459E-1   1.430465796242865E2   2.179233905047803E-2   1.002967718444775E2  
 1.650000000000000E9     2.513844610917332E-2   1.077869243136646E1   9.877903351877568E-1   1.369683588491244E2   9.873536915837945E-1   1.363339632708467E2   1.943286055040054E-2   1.065856071343107E2  
 1.700000000000000E9     2.387052344558386E-2   4.177858686694134E-1   9.875429748892896E-1   1.302130175403014E2   9.869511460214794E-1   1.295915671502200E2   1.949655492807426E-2   1.126169490569013E2  
 1.750000000000000E9     2.273200183750425E-2  -2.015541336804582E1   9.871842571310958E-1   1.235462951164767E2   9.873518033646463E-1   1.228727879628834E2   1.954508270929218E-2   1.206170029083673E2  
 1.800000000000000E9     2.343980967911074E-2  -3.356721997002599E1   9.868458212434558E-1   1.168340418904608E2   9.876707754120422E-1   1.161363548052260E2   1.980080503491766E-2   1.209198787010033E2  
 1.850000000000000E9     2.589945094165502E-2  -5.174981119369664E1   9.878675558295461E-1   1.100713184889412E2   9.869104698392832E-1   1.094163392467103E2   2.093894029998872E-2   1.179286045653957E2  
 1.900000000000000E9     2.863462505084966E-2  -6.560771045389816E1   9.870268999772699E-1   1.034113558411816E2   9.878305670137955E-1   1.026619773692717E2   2.190298807208675E-2   1.181586592230230E2  
 1.950000000000000E9     3.263818697249284E-2  -7.941536951785560E1   9.867830097734632E-1   9.674018006133156E1   9.877501058964711E-1   9.596518183398686E1   2.345878730467130E-2   1.144000456310154E2  
 2.000000000000000E9     3.681966183109267E-2  -9.052802653175870E1   9.871524660336453E-1   8.999235111664397E1   9.879480582809034E-1   8.921795182840337E1   2.586820907566461E-2   1.059469554422597E2  
 2.050000000000000E9     4.252548317513609E-2  -9.880670187728940E1   9.873253425450360E-1   8.321839398445322E1   9.884081594119484E-1   8.247292725807185E1   2.652896562096736E-2   9.842180336775680E1  
 2.100000000000000E9     4.570037640736729E-2  -1.075698106506380E2   9.873854825996195E-1   7.653147204228704E1   9.877958621548272E-1   7.577493927948297E1   2.682020343369174E-2   9.393529608038217E1  
 2.150000000000000E9     5.083018319980618E-2  -1.147661594201849E2   9.873589175068049E-1   6.978460444478110E1   9.874366266079531E-1   6.904544584650216E1   2.788612192854701E-2   8.837961846455799E1  
 2.200000000000000E9     5.405441882937655E-2  -1.221604791304933E2   9.872471227823603E-1   6.312732530138585E1   9.875081693157638E-1   6.233142726467415E1   2.849349388402557E-2   8.097533522505192E1  
 2.250000000000000E9     5.710076209263037E-2  -1.280974011262474E2   9.869912852368868E-1   5.640130373412117E1   9.871293004614282E-1   5.554333708751029E1   2.901142996428039E-2   7.313013719698796E1  
 2.300000000000000E9     5.674038010561541E-2  -1.355273450123873E2   9.862010730620254E-1   4.971825072002080E1   9.857599991979780E-1   4.886560970136738E1   3.166323057482175E-2   7.019409360559949E1  
 2.350000000000000E9     5.791187993221856E-2  -1.411576296882006E2   9.861529519738527E-1   4.300399937992577E1   9.863494979511666E-1   4.212505969089631E1   3.323735781377670E-2   6.502065248622785E1  
 2.400000000000000E9     5.649343871474984E-2  -1.487940356267544E2   9.854660586441802E-1   3.628907012959274E1   9.852460132208498E-1   3.545027285815436E1   3.643682748239767E-2   6.294913953039859E1  
 2.450000000000000E9     5.655774707412285E-2  -1.542370432743042E2   9.853931571903984E-1   2.956274898567887E1   9.854310297519787E-1   2.870200367449049E1   3.692629861848110E-2   5.847996215750544E1  
 2.500000000000000E9     5.307525340794903E-2  -1.629759526863719E2   9.852961814282504E-1   2.280679303481223E1   9.856303517822221E-1   2.198639773175427E1   4.090311895791659E-2   5.635217371902407E1  
 2.550000000000000E9     5.068255694523473E-2  -1.696302964991387E2   9.857674588502278E-1   1.605313890046099E1   9.854440825047668E-1   1.523806859623913E1   4.081871845836044E-2   5.208464391644068E1  
 2.600000000000000E9     4.780150487963693E-2   1.787430228767900E2   9.861543967193829E-1   9.310069168817055   9.850102043967418E-1   8.480393786153266   4.457505052173309E-2   4.969263265756111E1  
 2.650000000000000E9     4.551060836574868E-2   1.706049529452795E2   9.854960000242850E-1   2.590800287574805   9.853901557786020E-1   1.764665028162606   4.433121408225522E-2   4.562082276416658E1  
 2.700000000000000E9     4.294614954123079E-2   1.584176572044114E2   9.852369781938855E-1  -4.229531473685007   9.848107979226524E-1  -4.997565109366547   4.701646738292988E-2   4.088400919372910E1  
 2.750000000000000E9     4.166938461725471E-2   1.469360410129159E2   9.845287317294603E-1  -1.096165607957823E1   9.838620018520785E-1  -1.177676731647575E1   4.778865783722116E-2   3.606370939546312E1  
 2.800000000000000E9     4.088801241384021E-2   1.322949677179924E2   9.852299917841493E-1  -1.772925781199063E1   9.839827635588540E-1  -1.850844090278423E1   5.015105176341172E-2   3.043198185163397E1  
 2.850000000000000E9     4.151011581600471E-2   1.192350327440773E2   9.842750763665903E-1  -2.447496633545127E1   9.839447728084834E-1  -2.529988402867785E1   5.076154918469922E-2   2.379472772847360E1  
 2.900000000000000E9     4.499026630726654E-2   1.053514296611678E2   9.843461729354767E-1  -3.133065139435788E1   9.843409141123451E-1  -3.206616516787310E1   5.202236090011298E-2   1.766173554108346E1  
 2.950000000000000E9     4.383469604375798E-2   9.406002301065492E1   9.832002112229253E-1  -3.812575377665127E1   9.836930115000703E-1  -3.888248827225029E1   5.216206562112226E-2   1.014238152239757E1  
 3.000000000000000E9     4.643945664723317E-2   8.217469768291251E1   9.839981796497994E-1  -4.489373711835624E1   9.823256232180683E-1  -4.572388100048912E1   5.245438301654427E-2   4.896413544569173  
 3.050000000000000E9     4.606938068681689E-2   7.367108549504202E1   9.826532210429493E-1  -5.160352734570581E1   9.829763304835095E-1  -5.253832889363846E1   5.123259997581817E-2  -4.016484741190176  
 3.100000000000000E9     5.036034540941703E-2   6.249309853430033E1   9.823027186871349E-1  -5.836630022293483E1   9.818527137236565E-1  -5.943303541716386E1   5.160855708126213E-2  -1.051823786029638E1  
 3.150000000000000E9     4.947302812548339E-2   5.603551441338735E1   9.818796122313238E-1  -6.511689712203760E1   9.810916876028537E-1  -6.620862399224518E1   4.998628659923911E-2  -1.844980217819471E1  
 3.200000000000000E9     5.179002368900914E-2   4.815262092414283E1   9.810492964051530E-1  -7.184485587847954E1   9.813220080805757E-1  -7.298977480956918E1   4.886784962699092E-2  -2.548363598240325E1  
 3.250000000000000E9     5.079107607257422E-2   4.233431455878374E1   9.814846761642552E-1  -7.855917634425310E1   9.806689834813771E-1  -7.975817131430704E1   4.471837474670251E-2  -3.382877827028816E1  
 3.300000000000000E9     4.939111423244225E-2   3.667226754746675E1   9.811570570029448E-1  -8.529857216677445E1   9.815233057290312E-1  -8.639921348445826E1   4.280520452203704E-2  -4.337564441544785E1  
 3.350000000000000E9     4.686745485136937E-2   3.079435236027992E1   9.812612649182703E-1  -9.201217725767341E1   9.826032208395071E-1  -9.310584174420028E1   3.876071826911517E-2  -5.228429466108807E1  
 3.400000000000000E9     4.462145725550786E-2   2.693828014637355E1   9.809481589571861E-1  -9.867770085959175E1   9.822473590106698E-1  -9.987280622929445E1   3.571543283029598E-2  -6.195954263604916E1  
 3.450000000000000E9     3.988475763605112E-2   2.157265700209715E1   9.813511893295673E-1  -1.053960730168342E2   9.831963830429309E-1  -1.067149887990026E2   3.151754061429595E-2  -7.426895460883118E1  
 3.500000000000000E9     3.851396426806206E-2   1.765109474032783E1   9.841107649287491E-1  -1.119909271372930E2   9.839708547399255E-1  -1.134894928190307E2   2.707480293390028E-2  -8.787594600843779E1  
 3.550000000000000E9     3.096997722662787E-2   1.417759676180209E1   9.856954073931665E-1  -1.188031104724528E2   9.847984358366783E-1  -1.203523638423318E2   2.387967862833432E-2  -1.023019531972416E2  
 3.600000000000000E9     2.805827869567191E-2   1.366066073154426E1   9.872808567005692E-1  -1.256768441889536E2   9.843301705147366E-1  -1.271218631650759E2   1.981421318023536E-2  -1.181975657033935E2  
 3.650000000000000E9     2.317284649523991E-2   1.298227135609819E1   9.876325473307649E-1  -1.325258021062695E2   9.847409290463227E-1  -1.338225989913445E2   1.984097640534863E-2  -1.463856956026474E2  
 3.700000000000000E9     1.964173826665338E-2   1.399040786220856E1   9.871993081467456E-1  -1.393539090825773E2   9.843613561531189E-1  -1.406567440847785E2   1.954808665866680E-2  -1.623520612803289E2  
 3.750000000000000E9     1.240524552025345E-2   2.192427024334121E1   9.867241276062362E-1  -1.461553428330894E2   9.846210217392538E-1  -1.474018201981114E2   2.090451408811962E-2   1.786832665818849E2  
 3.800000000000000E9     1.097261846680089E-2   4.864327214116021E1   9.856483120571766E-1  -1.528975521377664E2   9.843546601124155E-1  -1.541600437742110E2   2.010404604558519E-2   1.594217317886397E2  
 3.850000000000000E9     1.247051289756895E-2   8.416208370470470E1   9.843910831250613E-1  -1.596527506347467E2   9.847013351177165E-1  -1.608851044693891E2   2.327522978820046E-2   1.423823130142862E2  
 3.900000000000000E9     1.691687155651992E-2   9.715250896087127E1   9.852623884894430E-1  -1.664026628522599E2   9.833788624433871E-1  -1.677041867560004E2   2.571591606770139E-2   1.308212029347782E2  
 3.950000000000000E9     2.376502205098155E-2   1.067577223473478E2   9.847261566580853E-1  -1.731544054411422E2   9.834434409460384E-1  -1.744420137426607E2   2.820111615510403E-2   1.177169229957066E2  
 4.000000000000000E9     2.947622395363973E-2   1.050517685446259E2   9.842750405263468E-1  -1.799024004820411E2   9.835105080611984E-1   1.788161276274358E2   3.152970495910292E-2   1.042563422360650E2  
 4.050000000000000E9     3.482701457138842E-2   1.042759029150753E2   9.844067833620854E-1   1.734486697782078E2   9.835314858180414E-1   1.720561984290414E2   3.424617495066227E-2   9.644967009540645E1  
 4.100000000000000E9     3.915572705210219E-2   1.006078962984271E2   9.835093127857287E-1   1.666736583690782E2   9.826016747243247E-1   1.652960018567879E2   3.636422288706177E-2   8.594199364348621E1  
 4.150000000000000E9     4.512418511563453E-2   9.699589453403129E1   9.824524208627378E-1   1.599171193200857E2   9.821824859054357E-1   1.585387751446965E2   3.983142831373241E-2   7.738022567174667E1  
 4.200000000000000E9     4.793921071372543E-2   9.163807586712035E1   9.827449906819323E-1   1.531489339850512E2   9.818757863084012E-1   1.517894026110136E2   4.304811609568999E-2   6.825890717358048E1  
 4.250000000000000E9     5.143794403565904E-2   8.601173985668990E1   9.818742069236237E-1   1.464156787916511E2   9.812399103260584E-1   1.450629600645507E2   4.735507769537679E-2   6.078573790934297E1  
 4.300000000000000E9     5.393217058891234E-2   7.889677382913808E1   9.817137606859214E-1   1.396352030090211E2   9.804864531385992E-1   1.383607386702480E2   5.201675787255798E-2   5.557987181403433E1  
 4.350000000000000E9     5.706729760135149E-2   7.317771405134741E1   9.815453393572308E-1   1.329337850875770E2   9.804731723655358E-1   1.315580448330414E2   5.511696572935675E-2   4.807060197594558E1  
 4.400000000000000E9     6.057103044198153E-2   6.423826629504391E1   9.816186156164309E-1   1.261627382066546E2   9.799811664830580E-1   1.248210193310810E2   5.902822540832998E-2   4.172876573966324E1  
 4.450000000000000E9     6.111390539433999E-2   5.862477441566389E1   9.817875645863023E-1   1.194985933690518E2   9.806684904524597E-1   1.180690331996397E2   6.096947498967037E-2   3.474858014868961E1  
 4.500000000000000E9     6.402830311759158E-2   4.993354216733831E1   9.815361523519716E-1   1.127219832614583E2   9.797733686775527E-1   1.113450417482923E2   6.490810722979037E-2   2.756935574844115E1  
 4.550000000000000E9     6.589716321205894E-2   4.337023363033445E1   9.812459336661433E-1   1.059872010139486E2   9.805821183550558E-1   1.045963716917027E2   6.667014067073715E-2   2.176186388995746E1  
 4.600000000000000E9     6.792382035642075E-2   3.470261213675552E1   9.810176904135814E-1   9.928894858049311E1   9.806186566043300E-1   9.788143638173492E1   6.792420146232041E-2   1.317150002573869E1  
 4.650000000000000E9     6.969167687430113E-2   2.679334199821808E1   9.812705985953407E-1   9.258239357743044E1   9.810337208576941E-1   9.114590600100141E1   6.912003602704811E-2   8.643818758681256  
 4.700000000000000E9     7.160291363808244E-2   1.779359503091123E1   9.821959718304667E-1   8.585969393394302E1   9.809717584189222E-1   8.440018734607577E1   6.858126082626642E-2   2.217650315635038  
 4.750000000000000E9     7.375188066514621E-2   1.064337027051236E1   9.824860580011081E-1   7.918319116464753E1   9.815442551440906E-1   7.766356410407310E1   6.723907717452306E-2  -3.722979649966769  
 4.800000000000000E9     7.632924971789415E-2   2.322503067760728   9.829527526437305E-1   7.244674417606542E1   9.818727551593331E-1   7.099496005089861E1   6.525659946320478E-2  -1.062025805309965E1  
