#  HZ   S   MA   R     50.00 
! Rohde & Schwarz ZVA67 4Ports - Version 4.11 - 1305.7002k04 SN: 101051
! Date: 2023-05-31 14:07:25
! Measurements: S11 S21 S12 S22 
! 
 5.000000000000000E7     1.410378777678454E-2   2.320915475685427E1   9.913855356055559E-1  -7.409844102714801   9.874174194969965E-1  -7.458601117878329   1.857298497808853E-2   1.867720070567209  
 1.000000000000000E8     1.241573352763646E-2  -6.095543051788479   9.913141999842404E-1  -1.490409213274055E1   9.877454701628308E-1  -1.517427452566618E1   1.278921945916246E-2  -6.674561373529873  
 1.500000000000000E8     1.902580965866149E-2  -9.854298748216360   9.882073290598979E-1  -2.230225145976755E1   9.911427473252458E-1  -2.250263741704404E1   1.864889965647789E-2  -1.900982207039974E1  
 2.000000000000000E8     1.691381917366543E-2  -1.107867196487593E1   9.869530633966467E-1  -2.961751842624052E1   9.885838701419940E-1  -3.014676617436195E1   1.910449842137251E-2  -1.832962256612738E1  
 2.500000000000000E8     2.154275190826667E-2  -1.739925931620034E1   9.865562161495411E-1  -3.716807289653458E1   9.869460874210564E-1  -3.748972409122878E1   2.369953185801470E-2  -2.538274836170904E1  
 3.000000000000000E8     2.422816218437739E-2  -2.846001861851451E1   9.862526465233595E-1  -4.467783732390045E1   9.856373955106216E-1  -4.497041839341173E1   2.787561968088632E-2  -3.198962766027039E1  
 3.500000000000000E8     2.691464568267360E-2  -3.495661349218722E1   9.838025997250945E-1  -5.206741315090693E1   9.840944521574425E-1  -5.241370170204635E1   2.902598631265994E-2  -3.779758062431362E1  
 4.000000000000000E8     2.949777032547350E-2  -4.251691320256711E1   9.839240159196929E-1  -5.951614783977083E1   9.847499557292397E-1  -5.987143630328600E1   3.336666065977751E-2  -4.364497690707725E1  
 4.500000000000000E8     2.937608427015178E-2  -4.634713958033587E1   9.837587257346472E-1  -6.695021304320554E1   9.833300584916963E-1  -6.733244957020459E1   3.683913552347157E-2  -5.086521126100767E1  
 5.000000000000000E8     2.965171555479612E-2  -5.646321908475743E1   9.826775915038329E-1  -7.445369024805702E1   9.838480299807183E-1  -7.472988331879436E1   3.709872495612728E-2  -6.269460323988196E1  
 5.500000000000000E8     2.612841483495355E-2  -6.213989724757692E1   9.819456848858705E-1  -8.184706720145782E1   9.829510698380894E-1  -8.217019754105429E1   3.879688013783417E-2  -7.071907526807669E1  
 6.000000000000000E8     2.336175619665411E-2  -7.534990572302327E1   9.817493660603405E-1  -8.935731875782457E1   9.815428196933254E-1  -8.970592875996778E1   4.064484157559587E-2  -8.268168263191241E1  
 6.500000000000000E8     2.110843423340426E-2  -7.817905445699772E1   9.810354114459340E-1  -9.668717062156171E1   9.810646460583951E-1  -9.714759900618350E1   4.247518484135394E-2  -9.578412787468510E1  
 7.000000000000000E8     1.621302665307008E-2  -9.792934678403134E1   9.808064559969764E-1  -1.041453323312664E2   9.805964272744320E-1  -1.045478037481246E2   4.128348665853909E-2  -1.087848212080419E2  
 7.500000000000000E8     9.840765579042888E-3  -9.874330200513995E1   9.797188826731077E-1  -1.116225492860095E2   9.793950628937245E-1  -1.120243412553834E2   4.017193548530842E-2  -1.223245187946903E2  
 8.000000000000000E8     4.401226694817048E-3  -1.498181218170957E2   9.792433212744619E-1  -1.189963656688226E2   9.788027786398197E-1  -1.194289227844326E2   3.776809866028619E-2  -1.370977101900731E2  
 8.500000000000000E8     2.510282618261544E-3   1.283799678180613E2   9.791132357914384E-1  -1.265414854543777E2   9.781814631526385E-1  -1.269184591082079E2   3.908140509996178E-2  -1.513733211773419E2  
 9.000000000000000E8     7.643081441178681E-3   8.610258885059862E1   9.774057763285898E-1  -1.339355367970658E2   9.769081044006776E-1  -1.343386657285829E2   4.087295440982866E-2  -1.644806549112749E2  
 9.500000000000000E8     1.059281886039489E-2   7.603824740667120E1   9.765377340232450E-1  -1.413323543157976E2   9.761761866271267E-1  -1.418171954573002E2   4.032130388073443E-2  -1.751417431705949E2  
 1.000000000000000E9     1.404232234916301E-2   7.350295949313107E1   9.757572084021331E-1  -1.488001378561065E2   9.751557727591674E-1  -1.492804128525058E2   4.056940757257235E-2   1.736605392990729E2  
 1.050000000000000E9     1.533621856757258E-2   6.355125632425720E1   9.745237547221229E-1  -1.562212804380094E2   9.745282356844216E-1  -1.567451045757073E2   3.885111830253628E-2   1.658814436757336E2  
 1.100000000000000E9     1.727124243147767E-2   5.798497109262869E1   9.731408707700890E-1  -1.636596632665081E2   9.728999612793065E-1  -1.641393665083626E2   3.736872271342365E-2   1.546186260917268E2  
 1.150000000000000E9     1.842157718716279E-2   4.929559487594245E1   9.725032760214385E-1  -1.710692076025294E2   9.716052285988311E-1  -1.715931958437173E2   3.485934540367833E-2   1.479509529172830E2  
 1.200000000000000E9     1.788182902055895E-2   4.592359855357903E1   9.719367545401524E-1  -1.784942291010592E2   9.715137926567754E-1  -1.790223483772549E2   3.353498196882077E-2   1.400265952678568E2  
 1.250000000000000E9     1.617161812357221E-2   3.697522683453047E1   9.709741515900809E-1   1.740638181413229E2   9.706160471396517E-1   1.735358834667782E2   2.984154991825583E-2   1.409925438439622E2  
 1.300000000000000E9     1.488895253173383E-2   2.777219005992551E1   9.701022014072487E-1   1.666983496197069E2   9.701453424294232E-1   1.661002268559982E2   2.850370575747784E-2   1.390630641858800E2  
 1.350000000000000E9     1.362044536744694E-2   1.669733459771829E1   9.693402090888988E-1   1.592946153654079E2   9.689315475644307E-1   1.587386875805315E2   2.490947018666158E-2   1.433399287573524E2  
 1.400000000000000E9     9.756494292041552E-3   6.091093319615293E-1   9.685387596187456E-1   1.519336147515477E2   9.684631330036085E-1   1.513246537643000E2   2.542318688196408E-2   1.474497425315477E2  
 1.450000000000000E9     7.980993476342218E-3  -2.867335166530136E1   9.689296869156566E-1   1.445929019153699E2   9.688593615701255E-1   1.439236980164533E2   2.699540993942303E-2   1.560015909746814E2  
 1.500000000000000E9     6.072721860025139E-3  -6.787892450386029E1   9.691583109456884E-1   1.371839045131602E2   9.694790241253576E-1   1.365663856194991E2   3.067954307741043E-2   1.571021572926759E2  
 1.550000000000000E9     8.894907683612752E-3  -9.890794834234072E1   9.697439057472158E-1   1.298275326547341E2   9.695120049908146E-1   1.291305893917647E2   3.489832825304184E-2   1.599336147449213E2  
 1.600000000000000E9     1.184833816798406E-2  -1.221258967057945E2   9.702395248318214E-1   1.224003140221548E2   9.702588461343794E-1   1.217531470119249E2   3.955536948136199E-2   1.557301243568803E2  
 1.650000000000000E9     1.667559034437243E-2  -1.334696279495171E2   9.712644661489602E-1   1.149811944061424E2   9.707580629158277E-1   1.143241113595176E2   4.424639348073377E-2   1.528538317320750E2  
 1.700000000000000E9     2.108272897820901E-2  -1.421367256307823E2   9.707154150895848E-1   1.075719607649961E2   9.707596648126845E-1   1.069326530505922E2   4.883627792979182E-2   1.472254945615604E2  
 1.750000000000000E9     2.738576591003918E-2  -1.457244863904748E2   9.701623428133095E-1   1.002170026530025E2   9.707178570645946E-1   9.952999228558515E1   5.287367522507798E-2   1.428900992615937E2  
 1.800000000000000E9     3.135027548244328E-2  -1.500703933184837E2   9.701999631596550E-1   9.283135255673147E1   9.707307201695459E-1   9.212244989142997E1   5.532025895224601E-2   1.368742983461561E2  
 1.850000000000000E9     3.659988979590809E-2  -1.536935051801765E2   9.711404407413306E-1   8.541066301524558E1   9.701663853661866E-1   8.474322948351033E1   5.676468858967540E-2   1.302423822640193E2  
 1.900000000000000E9     4.160323072072591E-2  -1.597431009178735E2   9.703460783894278E-1   7.807327823508014E1   9.701298088200826E-1   7.733746397877494E1   5.942696803168149E-2   1.239712427477283E2  
 1.950000000000000E9     4.631660086700680E-2  -1.647054039600207E2   9.695728943325932E-1   7.074765135960892E1   9.706593748975130E-1   6.996986454838874E1   6.123476680985934E-2   1.159450442961869E2  
 2.000000000000000E9     5.077695136333866E-2  -1.702548326670218E2   9.696162770036558E-1   6.337682159866793E1   9.700365947998145E-1   6.255220644559550E1   6.319519004122956E-2   1.074039569829558E2  
 2.050000000000000E9     5.380598839743017E-2  -1.746360527497712E2   9.694523245811767E-1   5.594589531687624E1   9.701282753947179E-1   5.514824628290235E1   6.375630831835517E-2   1.001444995672623E2  
 2.100000000000000E9     5.628937326525133E-2   1.778050236368300E2   9.696582252803383E-1   4.859308760246252E1   9.696127761238608E-1   4.782281972396866E1   6.527465093869514E-2   9.427877495004677E1  
 2.150000000000000E9     5.827130708754701E-2   1.727227779592103E2   9.694927705280019E-1   4.121086374025578E1   9.692931325621554E-1   4.039678500782052E1   6.655217163054202E-2   8.622145709511037E1  
 2.200000000000000E9     5.947227601145475E-2   1.651487965334166E2   9.686032767344097E-1   3.386555601263836E1   9.697615638033595E-1   3.304127238084706E1   6.725157384517946E-2   8.008904223271065E1  
 2.250000000000000E9     5.807888408459148E-2   1.579049885217831E2   9.688352983874827E-1   2.650156776166825E1   9.686511721885907E-1   2.559716711886656E1   6.787644745138735E-2   7.233505221480058E1  
 2.300000000000000E9     5.664188028680071E-2   1.475315205499988E2   9.676622892138075E-1   1.914344499813597E1   9.672270973767340E-1   1.825691735195282E1   7.190518626938172E-2   6.664282468497055E1  
 2.350000000000000E9     5.482439089119925E-2   1.391607170989165E2   9.674601086985410E-1   1.176756840589144E1   9.670931308072145E-1   1.086131496781934E1   7.330923091983965E-2   6.004212799241007E1  
 2.400000000000000E9     5.353213645414565E-2   1.273424118906639E2   9.671531106386667E-1   4.375871383212444   9.668209096268675E-1   3.529133923836180   7.729760855459940E-2   5.460757988009264E1  
 2.450000000000000E9     5.123755261633387E-2   1.180285925502452E2   9.662711472062918E-1  -3.000518157365534   9.662370442575365E-1  -3.866388824028602   7.750394008743172E-2   4.885869421650937E1  
 2.500000000000000E9     5.136500013021929E-2   1.032798718679051E2   9.662685921602270E-1  -1.043040313405268E1   9.663567373939240E-1  -1.127780423643381E1   8.112067062024121E-2   4.351451077701466E1  
 2.550000000000000E9     4.990696455938250E-2   9.167140579752795E1   9.663397446881064E-1  -1.781708865700372E1   9.656948219451750E-1  -1.864091989893140E1   7.976874503157534E-2   3.756409265197654E1  
 2.600000000000000E9     5.307797168220379E-2   7.695682792353559E1   9.669254631508142E-1  -2.519249674790696E1   9.658800247463550E-1  -2.604141700847668E1   8.244673866892384E-2   3.195524574207852E1  
 2.650000000000000E9     5.363609676646823E-2   6.565287572700228E1   9.663754646465996E-1  -3.257888930623125E1   9.652449162365010E-1  -3.339737456330286E1   8.141075799257112E-2   2.500393280328508E1  
 2.700000000000000E9     5.746253118037294E-2   5.381912822116676E1   9.650844617890845E-1  -4.000585350291198E1   9.647947662498437E-1  -4.086356577921709E1   8.380102341960229E-2   1.895152383966648E1  
 2.750000000000000E9     6.005346233385737E-2   4.278899545189209E1   9.650208713407662E-1  -4.737546695147906E1   9.638828423120250E-1  -4.820502806567961E1   8.204710702391942E-2   1.197344026218330E1  
 2.800000000000000E9     6.452079324606759E-2   3.249395523897344E1   9.648896739970293E-1  -5.484346236964603E1   9.639113601173964E-1  -5.563976334510737E1   8.241959715938056E-2   5.187044939276071  
 2.850000000000000E9     6.787049733116603E-2   2.302008854024456E1   9.658420883532479E-1  -6.222005839544478E1   9.654661277360226E-1  -6.306699335978617E1   7.925007432713882E-2  -2.454396275792233  
 2.900000000000000E9     7.172185160595811E-2   1.524163967935086E1   9.644377024521729E-1  -6.963840497268244E1   9.646489654157863E-1  -7.046900385563232E1   7.872228559847413E-2  -9.775414076743040  
 2.950000000000000E9     7.086837517342405E-2   5.218348373408534   9.649567123658805E-1  -7.708377815722150E1   9.647452066015243E-1  -7.795387058223125E1   7.467036617536828E-2  -1.809901105818514E1  
 3.000000000000000E9     7.208276109280948E-2  -3.210924841803503   9.645064675500494E-1  -8.452555499471851E1   9.632715318373036E-1  -8.542513515742405E1   7.296183415687819E-2  -2.470203141200341E1  
 3.050000000000000E9     7.042300922837302E-2  -1.251829675595607E1   9.645592781250252E-1  -9.194541970597581E1   9.651942708925916E-1  -9.294950938583266E1   6.845386027447177E-2  -3.367383532497203E1  
 3.100000000000000E9     7.120036134233433E-2  -2.007131696016148E1   9.634074909472961E-1  -9.934648898064505E1   9.634340231956518E-1  -1.004310622451920E2   6.601771649594286E-2  -4.069757287946873E1  
 3.150000000000000E9     6.690346840933728E-2  -2.895191490363000E1   9.637936100784103E-1  -1.068357059303904E2   9.630603407936771E-1  -1.079023803010928E2   6.036822282894013E-2  -4.856222814430923E1  
 3.200000000000000E9     6.456225434740326E-2  -3.682307859851024E1   9.627643263314399E-1  -1.142090911835489E2   9.631503736332977E-1  -1.153355498756116E2   5.585057232187714E-2  -5.632933265305413E1  
 3.250000000000000E9     6.071274584300386E-2  -4.619358599154072E1   9.627160129707063E-1  -1.216650481117816E2   9.640306718782464E-1  -1.228124477684803E2   4.961936445833348E-2  -6.421018230378309E1  
 3.300000000000000E9     5.468417905912648E-2  -5.500890743329160E1   9.631345127012913E-1  -1.290304194334721E2   9.639439348072963E-1  -1.300990100076274E2   4.370594904135385E-2  -7.324771316254736E1  
 3.350000000000000E9     5.057693813245049E-2  -6.731857927706197E1   9.634951023329990E-1  -1.364498359582691E2   9.644483080583497E-1  -1.375229836996610E2   3.816785100850284E-2  -8.210398004122337E1  
 3.400000000000000E9     4.448278437963728E-2  -7.728528779539339E1   9.635936492715403E-1  -1.437438796743112E2   9.645725778646324E-1  -1.450157836294440E2   3.298632757004583E-2  -9.012443643352353E1  
 3.450000000000000E9     4.029686134544634E-2  -9.287808871846389E1   9.635100105048807E-1  -1.511439638510557E2   9.645992221334389E-1  -1.524546960346852E2   2.762616846444292E-2  -1.014218983317289E2  
 3.500000000000000E9     3.628585579177140E-2  -1.074845467709083E2   9.662522613942937E-1  -1.584736547311357E2   9.658918522472835E-1  -1.599503494891577E2   2.164788331219504E-2  -1.077619169315049E2  
 3.550000000000000E9     3.416548585213515E-2  -1.282105361150109E2   9.674634292169991E-1  -1.658789432009458E2   9.663057776252532E-1  -1.674554762183991E2   1.602865569764127E-2  -1.233745634511151E2  
 3.600000000000000E9     3.191589254130940E-2  -1.443737615189177E2   9.690225666471868E-1  -1.734091547955645E2   9.657411042305025E-1  -1.748963543414954E2   1.315897767800355E-2  -1.401337835992375E2  
 3.650000000000000E9     3.423010651499028E-2  -1.620874697725983E2   9.684208405133133E-1   1.790647207625205E2   9.657951463607013E-1   1.777279884339712E2   1.050448536884734E-2  -1.639227622442268E2  
 3.700000000000000E9     3.617480891657934E-2   1.791062746447010E2   9.668349458514078E-1   1.715841434314161E2   9.652697532616068E-1   1.702795183967898E2   1.029238611082852E-2  -1.797594033375207E2  
 3.750000000000000E9     4.194514912351714E-2   1.639851680258745E2   9.666760604736914E-1   1.641174112090182E2   9.650599707932286E-1   1.628006142971715E2   6.859492361135347E-3   1.680287000133158E2  
 3.800000000000000E9     4.391427869716505E-2   1.491618754265403E2   9.663504766759778E-1   1.567669504445259E2   9.644678137178314E-1   1.554256956561044E2   5.436978423764731E-3   1.315020874691978E2  
 3.850000000000000E9     4.912668801221470E-2   1.386957065344689E2   9.644576957888086E-1   1.492857322464788E2   9.644947796030613E-1   1.480240100195222E2   6.036647852390186E-3   1.141356559669970E2  
 3.900000000000000E9     5.276681996384773E-2   1.272510273028612E2   9.644861945444287E-1   1.418773328698080E2   9.630664911094237E-1   1.405362187231715E2   6.753250667030446E-3   8.677577565102133E1  
 3.950000000000000E9     5.717433240014761E-2   1.201179536365800E2   9.633565682228832E-1   1.345142026177856E2   9.628869586538362E-1   1.331379733361478E2   7.178470198288377E-3   7.341102444931720E1  
 4.000000000000000E9     5.893353449676782E-2   1.102343547235411E2   9.638070436484147E-1   1.271094698365742E2   9.630758812393897E-1   1.257453443279599E2   7.649063675971460E-3   5.881309945797593E1  
 4.050000000000000E9     6.158578326925502E-2   1.058179877926060E2   9.637867717884813E-1   1.198100541607806E2   9.626380880215466E-1   1.183535856262431E2   7.915756257322000E-3   5.213449588340288E1  
 4.100000000000000E9     6.174021119508946E-2   9.746988336284622E1   9.622953731960191E-1   1.123417910655774E2   9.618483801694292E-1   1.109302014685297E2   9.005820745840363E-3   4.031489429854989E1  
 4.150000000000000E9     6.241130447817254E-2   9.145301556161573E1   9.616469541330853E-1   1.049322486606124E2   9.607102316225358E-1   1.035087112034634E2   9.488692490395483E-3   3.574705657576588E1  
 4.200000000000000E9     6.098200584238710E-2   8.480199881256111E1   9.614916967407281E-1   9.751939407579027E1   9.605451886095163E-1   9.612489308226660E1   1.077981351659765E-2   2.698657311587813E1  
 4.250000000000000E9     5.897958558650068E-2   7.969843240546085E1   9.606907967800822E-1   9.011941588455858E1   9.598977417372534E-1   8.874181733988708E1   1.102844589572650E-2   2.892402345864748E1  
 4.300000000000000E9     5.678277231132435E-2   7.263695419022965E1   9.609072477735038E-1   8.269703752645904E1   9.596069054065693E-1   8.137207311528513E1   1.328013536439830E-2   2.837949997760860E1  
 4.350000000000000E9     5.472021007828961E-2   6.695873875885202E1   9.605255778750379E-1   7.534278475665808E1   9.599068472469268E-1   7.392191564729984E1   1.085496344370332E-2   3.167589171915787E1  
 4.400000000000000E9     5.141409781418255E-2   5.946681468072088E1   9.604413299953226E-1   6.791894389609087E1   9.593738180138740E-1   6.653087959606431E1   1.143347151431956E-2   2.907159220469512E1  
 4.450000000000000E9     4.872532974131229E-2   5.683489954138057E1   9.607861203114494E-1   6.056153895139988E1   9.600782156606426E-1   5.912291643480094E1   9.498749202656276E-3   4.129328284910962E1  
 4.500000000000000E9     4.647538833556889E-2   4.838095102818087E1   9.602419591282602E-1   5.317128015434697E1   9.591741343125370E-1   5.172711440893970E1   1.017584565686763E-2   4.067289613512254E1  
 4.550000000000000E9     4.351039758467211E-2   4.539544219075827E1   9.603998146551747E-1   4.573872825941270E1   9.596549262868672E-1   4.432409023142938E1   1.151517652193640E-2   6.043148743405790E1  
 4.600000000000000E9     4.063979751175494E-2   3.925747238849603E1   9.601854598120473E-1   3.840304096636022E1   9.597470405208282E-1   3.692409667980039E1   1.260536163598603E-2   6.796328649139488E1  
 4.650000000000000E9     3.727024554589650E-2   3.774550668454787E1   9.608724933219490E-1   3.103558914920826E1   9.606397794361379E-1   2.952405230485120E1   1.876628689891575E-2   7.089558952751922E1  
 4.700000000000000E9     3.631795851440924E-2   3.345198954978723E1   9.614001365802353E-1   2.361984544034298E1   9.601563662018676E-1   2.214859724411082E1   2.294801990241646E-2   7.443171993368031E1  
 4.750000000000000E9     3.398459009099934E-2   3.380408345240831E1   9.619165591637076E-1   1.626680457831451E1   9.606195617134850E-1   1.471521956654019E1   2.769114322891841E-2   7.577142651610406E1  
 4.800000000000000E9     3.429609823930372E-2   3.105525287294486E1   9.623253518728447E-1   8.868487856353369   9.607873700504032E-1   7.314365127337432   3.118849698769016E-2   7.039793542039749E1  
