#  HZ   S   MA   R     50.00 
! Rohde & Schwarz ZVA67 4Ports - Version 4.11 - 1305.7002k04 SN: 101051
! Date: 2023-05-31 14:03:59
! Measurements: S11 S21 S12 S22 
! 
 5.000000000000000E7     1.505339925953606E-2   2.173846159950837E1   9.953178340297284E-1  -6.768010759607029   9.914579052751442E-1  -7.133075801910032   1.689541425366438E-2   3.657148521612616  
 1.000000000000000E8     1.181833781044974E-2  -1.450157122544088E1   9.881597700197036E-1  -1.389761233327143E1   9.913125578047696E-1  -1.406871926995559E1   1.190007479939680E-2  -1.315063273362441E1  
 1.500000000000000E8     1.815939161546534E-2  -1.033030519794396E1   9.897293457074393E-1  -2.066835276812088E1   9.894654880893760E-1  -2.114939661645256E1   1.751289478795112E-2  -2.302940288472210E1  
 2.000000000000000E8     1.616054994634796E-2  -1.512436194515059E1   9.872099375349905E-1  -2.766228194361080E1   9.902489339390314E-1  -2.812382930389412E1   1.786894039100174E-2  -2.187843426637457E1  
 2.500000000000000E8     1.996765615498550E-2  -2.181756575475056E1   9.884771868835643E-1  -3.483920531942790E1   9.873483899182176E-1  -3.512250948265503E1   2.200034191593973E-2  -2.929613242702883E1  
 3.000000000000000E8     2.300284323925580E-2  -3.192836112383310E1   9.858441861292939E-1  -4.172449561260779E1   9.860690552669112E-1  -4.205852475917270E1   2.644659641099915E-2  -3.445357886445230E1  
 3.500000000000000E8     2.564415272113924E-2  -3.841892852025088E1   9.853201206533913E-1  -4.875964118518621E1   9.849777191322487E-1  -4.904052154292888E1   2.686329970179304E-2  -4.151091931268973E1  
 4.000000000000000E8     2.842958298516290E-2  -4.485572229017543E1   9.847927620933977E-1  -5.561689598195228E1   9.839899175194248E-1  -5.600647328505041E1   3.172395427375654E-2  -4.581240910332280E1  
 4.500000000000000E8     2.875673740876003E-2  -4.963948682169762E1   9.849216681328513E-1  -6.259114324146075E1   9.841583641474689E-1  -6.290671898096218E1   3.464097871211821E-2  -5.253136633047114E1  
 5.000000000000000E8     2.942360296088683E-2  -6.013159697265643E1   9.834192092938067E-1  -6.957073263880781E1   9.844153242372239E-1  -6.985181744822872E1   3.546203537865399E-2  -6.441266268269330E1  
 5.500000000000000E8     2.641273193825457E-2  -6.767233855237056E1   9.830291001744944E-1  -7.647400112145587E1   9.833694396625976E-1  -7.682303136216802E1   3.692891115788888E-2  -7.206302822700646E1  
 6.000000000000000E8     2.459369705339455E-2  -8.162825780079552E1   9.833342559711427E-1  -8.354954498345747E1   9.825848815083000E-1  -8.386950806899374E1   3.911828927253341E-2  -8.322874790209016E1  
 6.500000000000000E8     2.228086878414258E-2  -8.656294885341502E1   9.824442118487636E-1  -9.040153011553596E1   9.827654317253451E-1  -9.081424254117590E1   4.142229920761906E-2  -9.564167837222722E1  
 7.000000000000000E8     1.892524727284941E-2  -1.080195643915747E2   9.822370508861792E-1  -9.738255578195552E1   9.821774294700076E-1  -9.780880643999659E1   4.107672302119177E-2  -1.088298496091023E2  
 7.500000000000000E8     1.306673461967587E-2  -1.196240436046214E2   9.818532887303265E-1  -1.043500337049979E2   9.814549735995909E-1  -1.047683818968390E2   4.105956283043945E-2  -1.217586752228584E2  
 8.000000000000000E8     1.057886142359521E-2  -1.616917337295031E2   9.812523301346525E-1  -1.112852563040923E2   9.805426692251699E-1  -1.116574020965932E2   3.937757431901909E-2  -1.372182122271014E2  
 8.500000000000000E8     8.981412828776536E-3   1.681580731235382E2   9.810260195602599E-1  -1.183028921046380E2   9.800649412655197E-1  -1.187144720360542E2   4.166342131080227E-2  -1.502434343238515E2  
 9.000000000000000E8     1.161340584866290E-2   1.300704343266317E2   9.794943365437977E-1  -1.252224991401317E2   9.793815699962565E-1  -1.256660921637480E2   4.434447587021954E-2  -1.629309488351383E2  
 9.500000000000000E8     1.417043062339354E-2   1.161617181212591E2   9.785505188010347E-1  -1.321674442656745E2   9.785170358506475E-1  -1.326392573129873E2   4.513591610668597E-2  -1.731071442272654E2  
 1.000000000000000E9     1.828867221763994E-2   1.057967335650746E2   9.782465933526146E-1  -1.391535539546194E2   9.775792573486452E-1  -1.395948084223478E2   4.653072710991195E-2   1.755206319561177E2  
 1.050000000000000E9     1.963552310651322E-2   9.738325942208036E1   9.772906160995160E-1  -1.460608459270430E2   9.768832621947223E-1  -1.465799809361137E2   4.600751176887689E-2   1.678645660902085E2  
 1.100000000000000E9     2.238689899330573E-2   9.050771810200179E1   9.763994493441777E-1  -1.530373623023697E2   9.764579320176332E-1  -1.534946348458248E2   4.657109277541944E-2   1.566136817903902E2  
 1.150000000000000E9     2.462933107172903E-2   8.209784906296751E1   9.764035561724094E-1  -1.599661568701402E2   9.758048193231795E-1  -1.604718840491231E2   4.527043673007758E-2   1.482442653492465E2  
 1.200000000000000E9     2.631484077590376E-2   7.766644463078060E1   9.756399562648622E-1  -1.669390633151910E2   9.751788254103738E-1  -1.674666666954911E2   4.552963547812900E-2   1.383517598176869E2  
 1.250000000000000E9     2.561346629251360E-2   7.214504004606840E1   9.752684903870601E-1  -1.739066956973970E2   9.748088391639590E-1  -1.743960668892806E2   4.127388328266893E-2   1.341962874237131E2  
 1.300000000000000E9     2.591746273650552E-2   6.674528747315819E1   9.752382549100934E-1   1.792025187773458E2   9.753066586817556E-1   1.786199228490828E2   4.067442934928182E-2   1.282541337203053E2  
 1.350000000000000E9     2.573395474690315E-2   6.121061479142912E1   9.749999257736790E-1   1.722486838916919E2   9.750074772059547E-1   1.716882927481764E2   3.668212102256583E-2   1.243295068003952E2  
 1.400000000000000E9     2.386506437510143E-2   5.771593367500790E1   9.743034657369993E-1   1.653097673548856E2   9.745268342028129E-1   1.647159526298620E2   3.522269086698607E-2   1.202167258866206E2  
 1.450000000000000E9     2.159571128441922E-2   5.069077158093278E1   9.742632409799709E-1   1.584054314401643E2   9.741719386067016E-1   1.577614553274987E2   3.196424550261485E-2   1.207433383236710E2  
 1.500000000000000E9     1.983171621710482E-2   4.883533144163856E1   9.733667383562716E-1   1.514546803444378E2   9.735724679605979E-1   1.508309493253479E2   3.092698916682708E-2   1.204801138906540E2  
 1.550000000000000E9     1.712455144763600E-2   3.921923032321957E1   9.728144196399376E-1   1.445393004117466E2   9.732552749200866E-1   1.438732261980275E2   2.858006419723611E-2   1.243702376993914E2  
 1.600000000000000E9     1.479754230392723E-2   2.797984419666117E1   9.732396184050545E-1   1.376338134643498E2   9.731303304488036E-1   1.369711501540191E2   2.809425174470522E-2   1.256321445771226E2  
 1.650000000000000E9     1.075317422425729E-2   9.257906666137524   9.744472240612255E-1   1.307165824342614E2   9.738695624450515E-1   1.300776360335083E2   2.922277077670911E-2   1.303053371717810E2  
 1.700000000000000E9     8.936205755121808E-3  -1.167594870850270E1   9.742513585193102E-1   1.238064489090110E2   9.736041763660911E-1   1.231840512203254E2   3.153825749941529E-2   1.309982477585516E2  
 1.750000000000000E9     9.437889580617623E-3  -5.670876378488441E1   9.743025051676679E-1   1.169403353394789E2   9.744550809148516E-1   1.162774871018773E2   3.395867348550052E-2   1.319333458123582E2  
 1.800000000000000E9     1.181836990352098E-2  -7.533805671371179E1   9.741976177354007E-1   1.100411064616363E2   9.746568932088858E-1   1.093439975736537E2   3.515963356744101E-2   1.289209842948764E2  
 1.850000000000000E9     1.684986678662363E-2  -9.239868248247670E1   9.751712769690757E-1   1.031180784012711E2   9.743858234855404E-1   1.024552250895399E2   3.658782808576564E-2   1.236138571816162E2  
 1.900000000000000E9     2.141201860074246E-2  -1.051448575245038E2   9.746214164646757E-1   9.622205248154158E1   9.742381052915103E-1   9.551431729156323E1   3.839665352407564E-2   1.198322616946949E2  
 1.950000000000000E9     2.608032676180548E-2  -1.160449609983340E2   9.735261065330352E-1   8.937788954226460E1   9.742515846127040E-1   8.860804965970084E1   4.053838727524561E-2   1.133238669000635E2  
 2.000000000000000E9     3.097628981145825E-2  -1.239283336540621E2   9.731599081121652E-1   8.245558206600418E1   9.735880694137953E-1   8.167654639371999E1   4.277674299734496E-2   1.051467575653435E2  
 2.050000000000000E9     3.641142415312629E-2  -1.289074419500803E2   9.732923592243947E-1   7.552175682363466E1   9.737814266948175E-1   7.476165992215159E1   4.339602323353480E-2   9.803377561951544E1  
 2.100000000000000E9     3.986574396708372E-2  -1.366916143974766E2   9.734330533482768E-1   6.865133668892173E1   9.731109932100126E-1   6.786780396183946E1   4.409243746466201E-2   9.313636468341966E1  
 2.150000000000000E9     4.432557150232319E-2  -1.419822700393798E2   9.728206343631176E-1   6.174449562094324E1   9.731414308120748E-1   6.098872717233466E1   4.539456993600397E-2   8.630482501151910E1  
 2.200000000000000E9     4.716423065222484E-2  -1.489126384148306E2   9.730934114957454E-1   5.490521080880522E1   9.741231734534690E-1   5.409928735996066E1   4.604793710996986E-2   7.982142048818783E1  
 2.250000000000000E9     4.888233205383487E-2  -1.542068146920867E2   9.735330073898899E-1   4.796925957401138E1   9.741400325440254E-1   4.712791211904330E1   4.637448772440626E-2   7.265580463603057E1  
 2.300000000000000E9     4.813814970753285E-2  -1.622257368700932E2   9.732622074127503E-1   4.113999069049677E1   9.726423090253551E-1   4.024523980171475E1   4.927658405188980E-2   6.803573667739732E1  
 2.350000000000000E9     4.814122867412724E-2  -1.677875333012347E2   9.735842917418320E-1   3.420549252266707E1   9.731724092671215E-1   3.335481566229255E1   5.092422902878308E-2   6.222516734620026E1  
 2.400000000000000E9     4.628706651580718E-2  -1.766818869661164E2   9.729584909042132E-1   2.731358301415794E1   9.725650738011139E-1   2.646393568132961E1   5.413492965113532E-2   5.826414328384468E1  
 2.450000000000000E9     4.525060775119674E-2   1.774268437123818E2   9.722223358189819E-1   2.038992142088975E1   9.720408715294238E-1   1.952992255049719E1   5.435172358948053E-2   5.309788775321325E1  
 2.500000000000000E9     4.187529529739038E-2   1.651897298408622E2   9.722233976240760E-1   1.345232557187223E1   9.718358210551095E-1   1.259548107061624E1   5.868655493448351E-2   4.897870159978303E1  
 2.550000000000000E9     3.910547838550812E-2   1.562186543973818E2   9.725302588145035E-1   6.471503835175414   9.713516494485890E-1   5.698589272657913   5.814953506257557E-2   4.384104711804031E1  
 2.600000000000000E9     3.801643448413213E-2   1.408476060573662E2   9.719975538533613E-1  -4.131275266033441E-1   9.714242290557451E-1  -1.254935241878065   6.134469212290893E-2   4.012136393958445E1  
 2.650000000000000E9     3.662860450049515E-2   1.304837290689309E2   9.719042879162513E-1  -7.338041008162176   9.716784521391902E-1  -8.150563061981975   6.041394076134852E-2   3.494830813181895E1  
 2.700000000000000E9     3.702327949740104E-2   1.159532032409709E2   9.718004618317512E-1  -1.431854735777209E1   9.710111839425407E-1  -1.506588176908139E1   6.299141854172873E-2   3.030087808392162E1  
 2.750000000000000E9     3.766812611888055E-2   1.032524975348305E2   9.717857153299269E-1  -2.120907139437597E1   9.709174181200748E-1  -2.204686130771535E1   6.280354446136610E-2   2.434901611714339E1  
 2.800000000000000E9     4.001279363962638E-2   8.809560358066725E1   9.715214777646470E-1  -2.816453461683769E1   9.700703802997712E-1  -2.899112495314975E1   6.448078848404015E-2   1.826170347933907E1  
 2.850000000000000E9     4.313665246052786E-2   7.610510503685767E1   9.710827557984786E-1  -3.514930533517421E1   9.710774721156080E-1  -3.593549266554346E1   6.416269172625584E-2   1.130959110607199E1  
 2.900000000000000E9     4.843720798931596E-2   6.599676917985318E1   9.711613984993693E-1  -4.209251829829845E1   9.709221437181858E-1  -4.290182243222137E1   6.474477085305573E-2   4.659616104213339  
 2.950000000000000E9     4.848058374012376E-2   5.503198231920946E1   9.704990902037390E-1  -4.906002748953939E1   9.701449293837366E-1  -4.987754954827960E1   6.435786665016914E-2  -3.434754916551629  
 3.000000000000000E9     5.170048847003900E-2   4.499253544643440E1   9.708784540840260E-1  -5.600351948825531E1   9.684552783787636E-1  -5.690741501681598E1   6.399665750476748E-2  -9.729612646385057  
 3.050000000000000E9     5.167545428397132E-2   3.615999462141155E1   9.692382310305787E-1  -6.300772133684113E1   9.694370597654396E-1  -6.388619026543228E1   6.217846384910845E-2  -1.898511754975624E1  
 3.100000000000000E9     5.588684670734481E-2   2.776343625336194E1   9.681453206891261E-1  -6.982659116134730E1   9.676501763936238E-1  -7.094287131432884E1   6.150599341642082E-2  -2.554924373612145E1  
 3.150000000000000E9     5.404053594305100E-2   2.057659525292232E1   9.687795899824447E-1  -7.682340605986454E1   9.678710388912433E-1  -7.793289072051881E1   5.888990006660352E-2  -3.374172486543186E1  
 3.200000000000000E9     5.494256406646818E-2   1.374097220433831E1   9.678930543428399E-1  -8.374337940907785E1   9.688360678818893E-1  -8.486140507909798E1   5.681019318813130E-2  -4.144254312213879E1  
 3.250000000000000E9     5.297554966134042E-2   7.017080326791605   9.678637039251690E-1  -9.067816194320997E1   9.684612924249059E-1  -9.184006397794049E1   5.195319479760306E-2  -4.990112452266234E1  
 3.300000000000000E9     4.996655113287490E-2   1.121184818874613   9.685381735557226E-1  -9.761640979866368E1   9.692991606798037E-1  -9.867294691679727E1   4.900721291057001E-2  -5.995018547241875E1  
 3.350000000000000E9     4.627960273643313E-2  -6.822522340773689   9.686351935886869E-1  -1.045229504143942E2   9.697706937141146E-1  -1.056052428426372E2   4.467451505715269E-2  -6.951893694812560E1  
 3.400000000000000E9     4.225437547844873E-2  -1.182360074484144E1   9.684600175538426E-1  -1.113368166944997E2   9.703775206792893E-1  -1.125782004858129E2   4.087278303098686E-2  -7.936899184057511E1  
 3.450000000000000E9     3.650054199905536E-2  -2.094111315678877E1   9.701613613232578E-1  -1.182260737259866E2   9.710249948468688E-1  -1.195868493195297E2   3.699180986330543E-2  -9.200153931510755E1  
 3.500000000000000E9     3.288938395953728E-2  -2.725701503844535E1   9.718520712228113E-1  -1.250686451660704E2   9.723100489509176E-1  -1.265962064548690E2   3.200118386583366E-2  -1.055476565516255E2  
 3.550000000000000E9     2.526782523790372E-2  -4.135833498645789E1   9.736469772706491E-1  -1.320376199693355E2   9.717212951319337E-1  -1.336180690266284E2   2.900874746076719E-2  -1.209653887598010E2  
 3.600000000000000E9     2.038080454031009E-2  -4.934701736186134E1   9.743615416572290E-1  -1.391260949750053E2   9.715066607956836E-1  -1.405741473098525E2   2.602391120329209E-2  -1.362906537599021E2  
 3.650000000000000E9     1.553285391602113E-2  -6.818646252189792E1   9.742786545996823E-1  -1.461672479934463E2   9.712221604812228E-1  -1.474839506988715E2   2.596076599118000E-2  -1.587309604850076E2  
 3.700000000000000E9     1.114742740951647E-2  -9.153442338070657E1   9.736505948351565E-1  -1.531849745581794E2   9.720812007761968E-1  -1.544520537242148E2   2.541108944467527E-2  -1.716961719922444E2  
 3.750000000000000E9     1.183918455700167E-2  -1.416006123173614E2   9.734178208767856E-1  -1.601639407652714E2   9.720424549207890E-1  -1.614314316928635E2   2.523845574904599E-2   1.718999284230352E2  
 3.800000000000000E9     1.304843860535964E-2   1.783720178273662E2   9.730642805062706E-1  -1.670992250473209E2   9.719584716111713E-1  -1.683551813153639E2   2.410312858084482E-2   1.543176517395963E2  
 3.850000000000000E9     2.050241273043187E-2   1.571797913238804E2   9.722646483837568E-1  -1.740358691836467E2   9.715400505315803E-1  -1.753188031760752E2   2.618745335495365E-2   1.395935000667090E2  
 3.900000000000000E9     2.657830577901897E-2   1.431126363016974E2   9.721822768423973E-1   1.790168726945164E2   9.708912638144063E-1   1.776767099328017E2   2.790920400959884E-2   1.261921693576235E2  
 3.950000000000000E9     3.458274014272883E-2   1.346967451926035E2   9.722299817708742E-1   1.721184914994974E2   9.708260525955222E-1   1.707810320990496E2   2.947865889428985E-2   1.136478672616887E2  
 4.000000000000000E9     3.986897130268934E-2   1.251015746180844E2   9.716960643597258E-1   1.651807795032184E2   9.702174308460790E-1   1.638395371215000E2   3.202220933624800E-2   1.009825387465602E2  
 4.050000000000000E9     4.543400729811114E-2   1.203055878039971E2   9.707364674890407E-1   1.583234911072433E2   9.703685756685530E-1   1.568982912219944E2   3.428821798314630E-2   9.233456380025895E1  
 4.100000000000000E9     4.947179632533005E-2   1.126617701736266E2   9.699976514757590E-1   1.513618431374954E2   9.691711598961843E-1   1.499274500658504E2   3.630730891076626E-2   8.186175035632003E1  
 4.150000000000000E9     5.452049775530518E-2   1.058613244920207E2   9.692609173738915E-1   1.444048555024619E2   9.687557714092026E-1   1.430160016078825E2   3.893665276289807E-2   7.310755082657504E1  
 4.200000000000000E9     5.635649869345653E-2   9.900967007586327E1   9.692497285493420E-1   1.374501552633028E2   9.681642582689995E-1   1.360851202618482E2   4.158266001363586E-2   6.313906345744000E1  
 4.250000000000000E9     5.822935510980282E-2   9.195985484130070E1   9.687925176376074E-1   1.305152923493439E2   9.678085306018534E-1   1.291689171391701E2   4.477770851540271E-2   5.527444138630568E1  
 4.300000000000000E9     5.920987962921768E-2   8.374337127967286E1   9.683259800455475E-1   1.235562151420208E2   9.673592923401172E-1   1.222686698145004E2   4.919945407741055E-2   4.964498620145582E1  
 4.350000000000000E9     6.106457716630450E-2   7.683223395089929E1   9.685478405279677E-1   1.166781824115006E2   9.673918573977530E-1   1.152935832321541E2   5.043962334075558E-2   4.191953168349986E1  
 4.400000000000000E9     6.202959458752524E-2   6.688913690271694E1   9.685165901645955E-1   1.097627411410542E2   9.670013104133893E-1   1.083792143172638E2   5.368932939694732E-2   3.514580337588601E1  
 4.450000000000000E9     6.144938693494096E-2   6.145229067711271E1   9.681939883338411E-1   1.028569005606834E2   9.673259451778403E-1   1.014499665723183E2   5.412801296952982E-2   2.844075822726424E1  
 4.500000000000000E9     6.268021920082585E-2   5.190170768855881E1   9.678841570757878E-1   9.593640306929638E1   9.665093005583449E-1   9.452738096430272E1   5.712241453364164E-2   2.098500978704245E1  
 4.550000000000000E9     6.297856010080777E-2   4.502232087799142E1   9.676597833472181E-1   8.898782245070434E1   9.666097371454161E-1   8.760749825615230E1   5.718863401317068E-2   1.575496602308155E1  
 4.600000000000000E9     6.298788287282064E-2   3.569838741199282E1   9.671152510503079E-1   8.211986553591589E1   9.669267075325885E-1   8.067816538439585E1   5.692237635276640E-2   7.037540968867571  
 4.650000000000000E9     6.238263831532455E-2   2.754327158575524E1   9.679397111167746E-1   7.523713694719561E1   9.674507180370083E-1   7.373463373542906E1   5.689644607291366E-2   3.577623058084444  
 4.700000000000000E9     6.230944424143274E-2   1.827747325770043E1   9.682437109311224E-1   6.831883228972957E1   9.673600576981114E-1   6.685029129032161E1   5.475412995254436E-2  -2.062929509115395  
 4.750000000000000E9     6.219403873609502E-2   1.043578397786848E1   9.695734314145879E-1   6.143392957874851E1   9.679532576169203E-1   5.993405897990987E1   5.177616341077278E-2  -7.493520919209078  
 4.800000000000000E9     6.284523506045328E-2   1.679291810392942   9.699641096199271E-1   5.454792075652257E1   9.689856001203672E-1   5.304552020484036E1   4.927934642788773E-2  -1.361882829940913E1  
