#  HZ   S   MA   R     50.00 
! Rohde & Schwarz ZVA67 4Ports - Version 4.11 - 1305.7002k04 SN: 101051
! Date: 2023-09-13 17:20:14
! Measurements: S11 S21 S12 S22 
! 
 6.705000000000000E10    1.144729653201980E-1  -3.674462720382666E1   3.708434474955609E-1  -3.184465578617428E1   3.718015183810762E-1  -2.790018222592790E1   4.564272523724032E-1   1.532698977834350E2  
 6.710000000000000E10    1.331369221544654E-1  -8.132588640224213E1   3.773449630666005E-1  -7.601730530278313E1   3.775741299317378E-1  -7.197030761015600E1   4.227330290840116E-1   1.444666055304581E2  
 6.715000000000000E10    8.862224369747285E-2  -1.041169071282019E2   3.788179124215053E-1  -1.209363638075838E2   3.801666265854821E-1  -1.168115769250498E2   3.984723805074138E-1   1.393574939605750E2  
 6.720000000000000E10    9.022044772602288E-2  -6.578420443043166E1   3.717715550676191E-1  -1.660608465548727E2   3.722480319313239E-1  -1.619984977799991E2   4.176345941865650E-1   1.362377073329110E2  
 6.725000000000000E10    1.975225291482158E-1  -7.817565492881515E1   3.541831522314808E-1   1.501315411272095E2   3.551760297347206E-1   1.540177862808186E2   4.774779494332266E-1   1.275246111104727E2  
 6.730000000000000E10    2.873482634536108E-1  -1.104677051130852E2   3.370482283577580E-1   1.086051723035528E2   3.376893829685561E-1   1.125390042717940E2   5.295679945507903E-1   1.127537755450703E2  
 6.735000000000000E10    3.248256127216231E-1  -1.451137908963605E2   3.310176084846112E-1   6.873160601149395E1   3.306257171555885E-1   7.273792969297568E1   5.508802641520685E-1   9.509405269754099E1  
 6.740000000000000E10    3.104332794709659E-1   1.788076741724630E2   3.373491725321656E-1   2.910073885262843E1   3.368450503847771E-1   3.306970522590519E1   5.381075359102309E-1   7.697897898531832E1  
 6.745000000000000E10    2.376692471351070E-1   1.398926224618609E2   3.530016228628604E-1  -1.210432657221031E1   3.529485710518505E-1  -8.140351681743633   4.949644839458487E-1   5.986471685913411E1  
 6.750000000000000E10    1.211038199036031E-1   9.526729484130584E1   3.706304778776931E-1  -5.499963365223433E1   3.704519604534906E-1  -5.116338341586641E1   4.448520882053464E-1   4.600807392909789E1  
 6.755000000000000E10    3.021065139930460E-2  -4.078713308692272E1   3.813657873891358E-1  -9.933803003756786E1   3.821043252858946E-1  -9.528729499351954E1   4.062199594112014E-1   3.456482073985855E1  
 6.760000000000000E10    1.058547385659874E-1  -1.343083693903132E2   3.873472892780390E-1  -1.433811652821871E2   3.866738320543085E-1  -1.393451183640368E2   3.863710356336648E-1   2.262560309333048E1  
 6.765000000000000E10    1.340634935360998E-1  -1.714833361737442E2   3.900215064021156E-1   1.727924027208043E2   3.899528866683282E-1   1.768493632421595E2   3.556900253245997E-1   9.978043343027711  
 6.770000000000000E10    1.070609917611753E-1   1.675419442025427E2   3.950934504035918E-1   1.285169508405582E2   3.943488412935722E-1   1.325692407193619E2   3.188801670625141E-1   1.625339575158494  
 6.775000000000000E10    9.440982092346166E-2  -1.749715524565029E2   3.903482425687465E-1   8.382616422889272E1   3.910146049878766E-1   8.767164131544477E1   3.188018801287957E-1  -1.071060937714951  
 6.780000000000000E10    1.687146702504682E-1  -1.765150705480483E2   3.775524150058591E-1   3.939005334993604E1   3.771425481747186E-1   4.342323661248557E1   3.763961130934607E-1  -8.050427056790570  
 6.785000000000000E10    2.436653732480327E-1   1.556798593465696E2   3.596650492307283E-1  -3.104250808717595   3.605136269036950E-1   8.962600700760597E-1   4.462804946817135E-1  -2.373099519643970E1  
 6.790000000000000E10    2.786957926113538E-1   1.210226667866888E2   3.479698308073633E-1  -4.391545644198216E1   3.491545783285694E-1  -3.980932496262282E1   4.918537425858436E-1  -4.347646469603664E1  
 6.795000000000000E10    2.694128312658424E-1   8.245699762333882E1   3.472913744246020E-1  -8.408734467754961E1   3.472765637198710E-1  -8.002941653704582E1   5.041732180563375E-1  -6.360670262207374E1  
 6.800000000000000E10    2.222777270527092E-1   3.785491941969241E1   3.551705105825281E-1  -1.245341388080739E2   3.560684814814025E-1  -1.207160681699533E2   4.880542412436915E-1  -8.210037708600669E1  
 6.805000000000000E10    1.555951703178137E-1  -1.726933891235064E1   3.681189497813417E-1  -1.667859243525683E2   3.687051037891096E-1  -1.627258404777272E2   4.566549786092580E-1  -9.809118313550867E1  
 6.810000000000000E10    1.049489187858813E-1  -9.134144161063607E1   3.777730043193669E-1   1.502643205099263E2   3.787557067136823E-1   1.542107791119881E2   4.253925929402261E-1  -1.108465458490287E2  
 6.815000000000000E10    9.249082858102124E-2  -1.743865716070146E2   3.838136473527444E-1   1.067224287407817E2   3.841450207384017E-1   1.106091856140551E2   4.064898663371460E-1  -1.220562620824502E2  
 6.820000000000000E10    8.395346793124840E-2   1.188139185272770E2   3.876549475191771E-1   6.313760017645527E1   3.886002459053108E-1   6.715139497712671E1   3.912405910470906E-1  -1.322162859433455E2  
 6.825000000000000E10    4.903945296173759E-2   5.748868351345584E1   3.899561322927491E-1   1.951499338261779E1   3.904818638093249E-1   2.346581888439217E1   3.741876603081338E-1  -1.406488149278338E2  
 6.830000000000000E10    1.119026485746804E-2  -1.239027750393600E2   3.890034966136170E-1  -2.449148430573587E1   3.894444193811321E-1  -2.066575705446772E1   3.749697351630613E-1  -1.455563322499735E2  
 6.835000000000000E10    6.763832475780790E-2   1.419313199498275E2   3.808851095152134E-1  -6.855818586267139E1   3.814400627004607E-1  -6.476578179060471E1   4.078221992644455E-1  -1.511791490474085E2  
 6.840000000000000E10    1.141725785801444E-1   8.056738565311993E1   3.664855794919457E-1  -1.117361923755461E2   3.670038855834584E-1  -1.078977145748541E2   4.633422084629130E-1  -1.607578003691350E2  
 6.845000000000000E10    1.564768199777178E-1   1.996274768594681E1   3.516976678156585E-1  -1.534868231693289E2   3.524101524138038E-1  -1.497132800740664E2   5.132430473684023E-1  -1.740983470030221E2  
 6.850000000000000E10    1.964985508513206E-1  -3.775938089719578E1   3.412813065074140E-1   1.657989026349519E2   3.423479817022597E-1   1.697441740669565E2   5.443387923773051E-1   1.710967524615406E2  
 6.855000000000000E10    2.321326430273919E-1  -8.994203939765040E1   3.386412859354858E-1   1.257950177308314E2   3.385140114134972E-1   1.297677043008702E2   5.545299700597736E-1   1.558976239226002E2  
 6.860000000000000E10    2.470277527450984E-1  -1.376345762372015E2   3.432020348473743E-1   8.569267508357754E1   3.439793982155988E-1   8.987083968570624E1   5.411774933157424E-1   1.412615654219380E2  
 6.865000000000000E10    2.236038635801260E-1   1.771314756193262E2   3.549808052837222E-1   4.478985657343789E1   3.556845106896598E-1   4.892788916945734E1   5.090790080009235E-1   1.280523473487591E2  
 6.870000000000000E10    1.508115661961935E-1   1.341649602278951E2   3.680272305393170E-1   2.516033906085526   3.686662751810803E-1   6.764627055979323   4.671944298141382E-1   1.176086334700959E2  
 6.875000000000000E10    4.463960962037574E-2   1.014815814945532E2   3.776703370761405E-1  -4.075798963368951E1   3.783643392030464E-1  -3.664651404106964E1   4.360231673936137E-1   1.104838080320015E2  
 6.880000000000000E10    6.323131452261345E-2  -1.485583308962156E2   3.808853590969065E-1  -8.427436810488052E1   3.821051837528544E-1  -8.021788593564492E1   4.255286697443611E-1   1.044616938918991E2  
 6.885000000000000E10    1.250669346852239E-1   1.749001783844107E2   3.815319985937755E-1  -1.276181575379666E2   3.814755834592553E-1  -1.235222746635300E2   4.275214001507352E-1   9.747643975466239E1  
 6.890000000000000E10    1.165884641904101E-1   1.346501665837979E2   3.798060299483891E-1  -1.708141295186215E2   3.804525915094680E-1  -1.667952973466506E2   4.292956938701344E-1   9.027103416598868E1  
 6.895000000000000E10    3.952633564838554E-2   9.633034106035788E1   3.740840982666907E-1   1.457433755127601E2   3.753204058355744E-1   1.497166176663563E2   4.420123747230755E-1   8.373193213855861E1  
 6.900000000000000E10    8.158884616898474E-2  -1.312889540230946E2   3.628986855987786E-1   1.025488652982453E2   3.630771688221472E-1   1.067629277620171E2   4.797219577531346E-1   7.576882525196884E1  
 6.905000000000000E10    1.994895411491324E-1  -1.693269567585119E2   3.475069894812204E-1   6.118612031308495E1   3.476725952796438E-1   6.522311738039888E1   5.246565342312229E-1   6.370087426528887E1  
 6.910000000000000E10    2.802881058294008E-1   1.543149280344921E2   3.365853410100036E-1   2.139201995310677E1   3.371030409002594E-1   2.543565747397290E1   5.510494935250742E-1   4.844631134891018E1  
 6.915000000000000E10    3.089443441384371E-1   1.189348732449823E2   3.363622459179884E-1  -1.775977130994342E1   3.372549567527524E-1  -1.357599304991176E1   5.476597518580457E-1   3.204340221041205E1  
 6.920000000000000E10    2.798474367985888E-1   8.385740485763230E1   3.481924710849021E-1  -5.740458932424991E1   3.489583055621718E-1  -5.324834635619401E1   5.113307208024529E-1   1.617615511992097E1  
 6.925000000000000E10    1.917786618343115E-1   5.065480063080186E1   3.661772351615870E-1  -9.878299967168154E1   3.667924654963922E-1  -9.465102277692378E1   4.578460020808894E-1   3.136321897343867  
 6.930000000000000E10    7.229512843757817E-2   3.606192455370844E1   3.794285768676302E-1  -1.419405158046500E2   3.809774134139202E-1  -1.377526587782023E2   4.118423761321762E-1  -5.383240626981594  
 6.935000000000000E10    8.186290639911871E-2   1.080498336752671E2   3.848961160434055E-1   1.746499903735807E2   3.858753457918368E-1   1.786950550550512E2   3.968750996491141E-1  -1.230820373705524E1  
 6.940000000000000E10    1.526231638244172E-1   8.734770397641414E1   3.855340595466661E-1   1.317477983958336E2   3.871632085379941E-1   1.357002649521036E2   3.947961860561485E-1  -2.201878341756587E1  
 6.945000000000000E10    1.640505581238329E-1   5.717364691620946E1   3.883815416976509E-1   8.889830526515993E1   3.888621535033081E-1   9.302238490454198E1   3.774795446503219E-1  -3.218739320055572E1  
 6.950000000000000E10    1.118302453903590E-1   3.508080427514496E1   3.904842366811841E-1   4.553650661435110E1   3.907140976079705E-1   4.977197819857975E1   3.576481614563748E-1  -3.875928835216320E1  
 6.955000000000000E10    7.492280942486423E-2   6.716496572612198E1   3.845005053643735E-1   1.890185254387857   3.858216248467714E-1   6.011116412010156   3.746315520996610E-1  -4.212365102342722E1  
 6.960000000000000E10    1.630896062243311E-1   7.246950038153256E1   3.701590255695088E-1  -4.100915485679942E1   3.706841083618672E-1  -3.685715705558404E1   4.337629372578121E-1  -5.077050173690303E1  
 6.965000000000000E10    2.493848580246594E-1   4.392838315669558E1   3.542324834241807E-1  -8.211005106166232E1   3.551450620033305E-1  -7.794822725863278E1   4.900118631279177E-1  -6.555008276979783E1  
 6.970000000000000E10    2.936200641121706E-1   1.040912669018627E1   3.451244621869749E-1  -1.217181017426245E2   3.464017429734611E-1  -1.174552061915071E2   5.173397068388891E-1  -8.299506275482774E1  
 6.975000000000000E10    2.885668585775333E-1  -2.497894337394888E1   3.479527803947777E-1  -1.609798906130635E2   3.490108580038080E-1  -1.565487688558552E2   5.120830865037247E-1  -1.006999057012917E2  
 6.980000000000000E10    2.359151371470793E-1  -6.184902627449914E1   3.599246564561353E-1   1.589716255579032E2   3.603086527157898E-1   1.632607583240724E2   4.781551898818583E-1  -1.167069637030055E2  
 6.985000000000000E10    1.389796580201900E-1  -9.859796026174315E1   3.740153520148802E-1   1.172491021037990E2   3.748132540382936E-1   1.216431151734396E2   4.309792420947962E-1  -1.293913287159850E2  
 6.990000000000000E10    2.448351312915964E-2  -1.112816486760715E2   3.836288865698445E-1   7.445301319140765E1   3.844355306613088E-1   7.885488738077096E1   3.977423828613493E-1  -1.385606416943938E2  
 6.995000000000000E10    8.633084455639442E-2  -1.282003066108352E1   3.878270018162940E-1   3.169763513948615E1   3.886303801014550E-1   3.597179723402216E1   3.826294864121350E-1  -1.474454459159398E2  
 7.000000000000000E10    1.483936603114688E-1  -4.585666017600566E1   3.902669924270690E-1  -1.075940065851809E1   3.907425228996427E-1  -6.644026170671209   3.675561209033779E-1  -1.574959854690134E2  
 7.005000000000000E10    1.514567426594354E-1  -7.620789136947529E1   3.932139283200664E-1  -5.345827078017254E1   3.933748377724394E-1  -4.932044766034789E1   3.363699490694947E-1  -1.659714010966173E2  
 7.010000000000000E10    1.127835319366771E-1  -9.005670064544475E1   3.942750158324562E-1  -9.682556232373828E1   3.943634472405386E-1  -9.267660577822609E1   3.151716335604887E-1  -1.681045999747192E2  
 7.015000000000000E10    1.222867892519746E-1  -7.178392868070699E1   3.856803474730131E-1  -1.402536125499468E2   3.858274136437023E-1  -1.362257393755591E2   3.470053263568566E-1  -1.684816118702334E2  
 7.020000000000000E10    2.092443799528508E-1  -8.070968529991136E1   3.696166244840622E-1   1.772351859216055E2   3.693917501132563E-1  -1.786326572033513E2   4.199540881619258E-1  -1.771045889624269E2  
 7.025000000000000E10    2.893899694627111E-1  -1.080818755921726E2   3.520276921784517E-1   1.367709948028115E2   3.525891219656024E-1   1.409272991362178E2   4.816236757731496E-1   1.672811581969212E2  
 7.030000000000000E10    3.305167209934388E-1  -1.389672023254428E2   3.445969592931526E-1   9.777754174545767E1   3.448118164016021E-1   1.019684512506670E2   5.085528069472747E-1   1.491846331499390E2  
 7.035000000000000E10    3.202718982192092E-1  -1.702580244691297E2   3.495604526691080E-1   5.895038940290798E1   3.489469953925857E-1   6.338908416508934E1   4.954837387269065E-1   1.312357896766193E2  
 7.040000000000000E10    2.555727686342185E-1   1.592097818113508E2   3.632832387184401E-1   1.887668238198773E1   3.641371903256370E-1   2.352521281525838E1   4.486645186763282E-1   1.149623445028449E2  
 7.045000000000000E10    1.486053211901696E-1   1.358784464714772E2   3.803955269867550E-1  -2.296272954765558E1   3.804682894769568E-1  -1.805925443492496E1   3.903860516073946E-1   1.036742121992185E2  
 7.050000000000000E10    6.894102241714405E-2   1.672030831007317E2   3.907026603462419E-1  -6.580891858050563E1   3.905282531426988E-1  -6.107131820154702E1   3.545119235790163E-1   9.731707650914642E1  
 7.055000000000000E10    1.348109031811762E-1  -1.718742170861329E2   3.926562661584830E-1  -1.088712928179329E2   3.928924773331528E-1  -1.039932263606823E2   3.446859173462694E-1   8.992399937696412E1  
 7.060000000000000E10    1.820873067876221E-1   1.685157732597744E2   3.939042770171322E-1  -1.512981193787701E2   3.941852950693775E-1  -1.463663230838083E2   3.298483969211823E-1   7.967061969118340E1  
 7.065000000000000E10    1.744224723551335E-1   1.510075753767613E2   3.964598326349240E-1   1.662263275420356E2   3.961782790732004E-1   1.710501831604523E2   2.913022689292537E-1   7.261511785074927E1  
 7.070000000000000E10    1.552662131636438E-1   1.519254856342302E2   3.940518596044050E-1   1.229296278135705E2   3.942554043351703E-1   1.277507296825283E2   2.743566062491024E-1   7.505385562881932E1  
 7.075000000000000E10    2.075876636818518E-1   1.557353363884583E2   3.810633719070191E-1   7.986082691171224E1   3.816501656967026E-1   8.476335561468763E1   3.304823880079934E-1   7.528679022152501E1  
 7.080000000000000E10    2.931606235228032E-1   1.391394849961182E2   3.637114068111189E-1   3.872929643083761E1   3.637579169417908E-1   4.324345329422420E1   4.122737521269562E-1   6.270302857604845E1  
 7.085000000000000E10    3.489302369329908E-1   1.141924364829860E2   3.501487471932132E-1  -8.899710529535941E-1   3.504730355570126E-1   3.943307993371483   4.647007710587358E-1   4.405261963951353E1  
 7.090000000000000E10    3.612680195917675E-1   8.702546553775686E1   3.483610178435441E-1  -3.927954640982761E1   3.487442969094878E-1  -3.446349560105949E1   4.736551043288146E-1   2.323413315793713E1  
 7.095000000000000E10    3.229761615744609E-1   5.924846621650011E1   3.589606970027343E-1  -7.810212271961325E1   3.590050266685178E-1  -7.330318352003097E1   4.386986055895565E-1   3.166786533748792  
 7.100000000000000E10    2.414687871941416E-1   3.401805942552567E1   3.760285815739154E-1  -1.187815689205555E2   3.768919389845119E-1  -1.139991161253974E2   3.729238074605905E-1  -1.384623680831761E1  
 7.105000000000000E10    1.384752851194004E-1   2.176847814216018E1   3.928999429548771E-1  -1.611658554767786E2   3.931134232380425E-1  -1.562680071756320E2   3.080078887441951E-1  -2.303137940234520E1  
 7.110000000000000E10    9.972138001629712E-2   4.698938248611209E1   4.008759198635439E-1   1.559099220163023E2   4.009864865133132E-1   1.606210511709961E2   2.838620268305303E-1  -2.716825322882085E1  
 7.115000000000000E10    1.409118652386859E-1   5.120484983195060E1   4.021594505589555E-1   1.131712859697571E2   4.019913130281597E-1   1.177637500220669E2   2.843136860807285E-1  -3.553919665357548E1  
 7.120000000000000E10    1.564431092000274E-1   3.571987829238700E1   4.031388050438702E-1   7.080390836326413E1   4.032407724634236E-1   7.534626334577193E1   2.721934805353131E-1  -4.615292149746348E1  
 7.125000000000000E10    1.377791680624881E-1   2.678381341733536E1   4.024315892553235E-1   2.823218911115189E1   4.023579424965529E-1   3.262594535408162E1   2.455266992613693E-1  -5.172653299060114E1  
 7.130000000000000E10    1.417788878631223E-1   3.613982343374676E1   3.966812183771013E-1  -1.478343573898417E1   3.971091009469072E-1  -1.041506591065892E1   2.553179834877263E-1  -5.028909259088101E1  
 7.135000000000000E10    2.124978735212586E-1   3.192286312230078E1   3.838070235145364E-1  -5.721019056132986E1   3.841730452345456E-1  -5.278946031921857E1   3.216159240533506E-1  -5.553029915413293E1  
 7.140000000000000E10    2.891173163515031E-1   1.035693525997763E1   3.674915566319151E-1  -9.817191777387278E1   3.679107733233161E-1  -9.358012956250408E1   3.958224652232359E-1  -7.146261401717896E1  
 7.145000000000000E10    3.369689173759790E-1  -1.670807426105464E1   3.564626953978137E-1  -1.375942467673795E2   3.572642394182923E-1  -1.328429060122957E2   4.401187739096702E-1  -9.174217828078861E1  
 7.150000000000000E10    3.434637881230365E-1  -4.490014102819661E1   3.562992656761946E-1  -1.762775049923257E2   3.565025263378934E-1  -1.714408742941920E2   4.423435124002513E-1  -1.129311393179290E2  
 7.155000000000000E10    3.072274093236506E-1  -7.252853044518828E1   3.664710771038723E-1   1.444004516361083E2   3.669515427878013E-1   1.492852418543393E2   4.023843656157243E-1  -1.323286528173884E2  
 7.160000000000000E10    2.318393888977698E-1  -9.624250928081435E1   3.813022400783310E-1   1.037390800285696E2   3.826262047607047E-1   1.084683212567626E2   3.337120235547316E-1  -1.467319483891661E2  
 7.165000000000000E10    1.541225465788996E-1  -1.046371010900094E2   3.942446707203905E-1   6.136726576776866E1   3.950760342772536E-1   6.607427067840327E1   2.759260181486595E-1  -1.507978984568219E2  
 7.170000000000000E10    1.399614696845951E-1  -9.446015779394799E1   3.996710650594338E-1   1.862138670047435E1   3.996758455999546E-1   2.320642410086416E1   2.752140082429047E-1  -1.497381749941164E2  
 7.175000000000000E10    1.686678116258033E-1  -1.013147285203828E2   3.982053898623881E-1  -2.377926577455985E1   3.981893264132208E-1  -1.914997527299568E1   3.039604463213103E-1  -1.559165872725707E2  
 7.180000000000000E10    1.644961647490872E-1  -1.195276533658377E2   3.970187418163241E-1  -6.574379726147301E1   3.972691737180152E-1  -6.110264155332639E1   3.157714428513288E-1  -1.663415430498689E2  
