#  HZ   S   MA   R     50.00 
! Rohde & Schwarz ZVA67 4Ports - Version 4.11 - 1305.7002k04 SN: 101051
! Date: 2023-09-13 17:18:03
! Measurements: S11 S21 S12 S22 
! 
 6.705000000000000E10    3.465341913047272E-1   1.026836403290794E2   5.525545044625087E-3   1.390902766559845E2   5.423962723741767E-3   1.451720301526739E2   3.581801708131776E-1   1.086343183266862E2  
 6.710000000000000E10    3.525452070790915E-1   4.635681007849968E1   5.693742502666010E-3   8.458795903328741E1   5.751530571435939E-3   8.967487693510644E1   7.669944937128888E-2   1.214824082719606E2  
 6.715000000000000E10    3.933755645726108E-1  -3.910916214998773   5.316888906505292E-3   3.073629584330839E1   5.170864915114252E-3   3.405800993862262E1   2.913308408709446E-1  -1.658761876613401E2  
 6.720000000000000E10    4.482497111027227E-1  -4.650780876809368E1   4.583116593609807E-3  -1.805458885981004E1   4.329726758398426E-3  -1.462429736525826E1   5.122207971101402E-1   1.686409700994221E2  
 6.725000000000000E10    4.914108487629327E-1  -8.335047257209264E1   3.954953606764241E-3  -5.968785410330363E1   3.904671425325185E-3  -5.545335583304009E1   6.334015678744875E-1   1.436410338320463E2  
 6.730000000000000E10    5.233839951518835E-1  -1.168930321061941E2   3.582032925896744E-3  -9.810039895559397E1   3.450548383538226E-3  -9.249637331089670E1   6.924652660671449E-1   1.210995051182345E2  
 6.735000000000000E10    5.333421958726705E-1  -1.489960202786249E2   3.168452396024419E-3  -1.332520589907385E2   3.077338655391527E-3  -1.257683095287545E2   7.148434820173961E-1   9.967228739830397E1  
 6.740000000000000E10    5.247926601362565E-1   1.781078263229374E2   3.385616297597011E-3  -1.661643544004863E2   3.363703526239696E-3  -1.621998814682944E2   7.166290999589245E-1   7.842684486881902E1  
 6.745000000000000E10    4.915929229112778E-1   1.423469923185339E2   3.520617955508577E-3   1.588334368475175E2   3.603071022725458E-3   1.600459479892167E2   6.946644141646337E-1   5.630355878054233E1  
 6.750000000000000E10    4.378808964976185E-1   1.017159068004746E2   4.096301574742368E-3   1.172360379913176E2   4.019440023932024E-3   1.219988069140608E2   6.498801596152318E-1   3.270755103053674E1  
 6.755000000000000E10    3.784304768561864E-1   5.236311675202046E1   4.592335897072457E-3   7.910618713526829E1   4.614659696014115E-3   7.723230413412696E1   5.640864689443261E-1   6.205122799743728  
 6.760000000000000E10    3.454657889177099E-1  -4.780756429790438   5.138025295619747E-3   2.640035136679822E1   5.429551211171016E-3   3.015421071361923E1   4.233115989804867E-1  -2.489591141068339E1  
 6.765000000000000E10    3.671632154032123E-1  -6.136846908382624E1   5.734583275842447E-3  -2.211736215970056E1   5.789557708064689E-3  -1.987908474755708E1   2.038972241385743E-1  -6.439930221889884E1  
 6.770000000000000E10    4.184514761227320E-1  -1.093058302172504E2   5.589990701597550E-3  -7.704826699161022E1   5.851135870465631E-3  -7.378090326443622E1   8.376117665307852E-2   1.143067940423649E2  
 6.775000000000000E10    4.644787417953138E-1  -1.496757573085074E2   5.193484204769294E-3  -1.267512672960857E2   5.195553131096548E-3  -1.242119863028065E2   3.272270385462505E-1   5.850151219599012E1  
 6.780000000000000E10    4.951758121580787E-1   1.749291356816731E2   4.567570494221450E-3  -1.729221709685407E2   4.454495488271740E-3  -1.688640724431969E2   4.992288197647818E-1   2.377265083515717E1  
 6.785000000000000E10    5.087045426138267E-1   1.415653875884403E2   3.974521469784648E-3   1.446344960300325E2   3.953939518860277E-3   1.500197712642814E2   6.017761624953301E-1  -5.643384186866514  
 6.790000000000000E10    5.065826599614269E-1   1.081055021098576E2   3.784719326868774E-3   1.081840262462248E2   3.468676858486675E-3   1.101868500310516E2   6.605073222305937E-1  -3.189809881260258E1  
 6.795000000000000E10    4.886433222756597E-1   7.275821030970336E1   3.476208330877710E-3   7.316213976983480E1   3.298373287932737E-3   7.631375885063514E1   6.887516192087679E-1  -5.603699663695164E1  
 6.800000000000000E10    4.606347517438218E-1   3.377971974168764E1   3.733052006058080E-3   3.551397832752018E1   3.460068544448951E-3   3.663002075898893E1   6.952776536047061E-1  -7.903406489041821E1  
 6.805000000000000E10    4.333611832292482E-1  -9.577080521014539   3.721881144813140E-3  -2.838583662799184   3.888827502533922E-3   1.165572103606805   6.833787982934381E-1  -1.021036521383018E2  
 6.810000000000000E10    4.172400135456368E-1  -5.710157920886249E1   4.273459586727066E-3  -4.340589568596486E1   4.334422226119362E-3  -3.891960253299094E1   6.423479636082043E-1  -1.255394197374784E2  
 6.815000000000000E10    4.121265262724563E-1  -1.058859688956706E2   4.566040535668225E-3  -8.781712770851212E1   4.708511168385688E-3  -8.384409745914945E1   5.663940613094238E-1  -1.508922572156729E2  
 6.820000000000000E10    4.201598403155180E-1  -1.532000224097348E2   5.244002333312545E-3  -1.367033950501348E2   5.282203932176426E-3  -1.291821782741366E2   4.245543722307045E-1  -1.791277334838138E2  
 6.825000000000000E10    4.266562679666345E-1   1.622310657133984E2   5.749001626752124E-3   1.792375928847791E2   5.874804946714311E-3   1.796951638594498E2   1.893211554273712E-1   1.493346530674793E2  
 6.830000000000000E10    4.287317602889214E-1   1.196438688026742E2   5.625082573544971E-3   1.230292929548881E2   5.727198501046941E-3   1.289001793092369E2   1.186744248143868E-1  -7.333544392769061E1  
 6.835000000000000E10    4.258656620340859E-1   7.779953050470090E1   4.900265690939110E-3   7.464544367826349E1   5.071952056433676E-3   7.966736537339482E1   3.901235282392113E-1  -1.046648420268782E2  
 6.840000000000000E10    4.220438015427137E-1   3.581775545518963E1   4.470467709351430E-3   2.745966374878140E1   4.539537272644599E-3   3.364080969607274E1   5.668201673057349E-1  -1.335300339789277E2  
 6.845000000000000E10    4.275322983816408E-1  -6.144669712951356   3.835994573337864E-3  -1.170835308070208E1   3.797720379174305E-3  -6.485176316655883   6.639024757687791E-1  -1.582056485699274E2  
 6.850000000000000E10    4.404934226982720E-1  -4.811780134009166E1   3.444183522533135E-3  -5.102850147700846E1   3.500434745978276E-3  -4.684045209262547E1   7.140663006241100E-1  -1.797699532589813E2  
 6.855000000000000E10    4.614659921784501E-1  -8.845402908209893E1   3.486805444459301E-3  -8.701416758171699E1   3.307300075578845E-3  -8.249632060133733E1   7.354252354052133E-1   1.602915449201990E2  
 6.860000000000000E10    4.815797507716663E-1  -1.270546406517534E2   3.473005687302246E-3  -1.227212528475991E2   3.354997964827848E-3  -1.191551390324143E2   7.331642901248956E-1   1.409231126862011E2  
 6.865000000000000E10    4.941274016122693E-1  -1.647693596755912E2   3.509751670257732E-3  -1.563113224135194E2   3.560769471440521E-3  -1.544055486698462E2   7.097350504587855E-1   1.214504835832258E2  
 6.870000000000000E10    4.875387018030018E-1   1.576427449230200E2   4.022662779351914E-3   1.669344502077605E2   3.924873112121263E-3   1.679757908556888E2   6.527609425164798E-1   1.005863854963580E2  
 6.875000000000000E10    4.599346319343193E-1   1.185728080574445E2   4.578225746048782E-3   1.205738785343247E2   4.655554695846194E-3   1.267274885636058E2   5.418530974619361E-1   7.722153753545591E1  
 6.880000000000000E10    4.120237995483257E-1   7.568550893389276E1   5.710114291969258E-3   7.322449822952542E1   5.604408068847013E-3   7.698949021582197E1   3.372595382626597E-1   5.113274369978041E1  
 6.885000000000000E10    3.604584759418862E-1   2.676193195112688E1   5.959804109500597E-3   2.164053835740351E1   5.827378483911081E-3   2.346707280226696E1   5.337614656841800E-2   7.101720748295135E1  
 6.890000000000000E10    3.364085399434164E-1  -2.807044586133160E1   5.575581406468012E-3  -3.384975178080116E1   5.572251718934803E-3  -2.989647879576543E1   2.989684842085534E-1   1.460201992260903E2  
 6.895000000000000E10    3.577526276846486E-1  -8.166677594336136E1   4.663673163550687E-3  -8.433341446929086E1   4.806834694835855E-3  -7.999605531616142E1   5.196263091404771E-1   1.193719456452632E2  
 6.900000000000000E10    4.090219653796604E-1  -1.280164633869944E2   4.018429160964798E-3  -1.264996099007487E2   3.758931978930171E-3  -1.228581243385832E2   6.436018569365586E-1   9.489275364962153E1  
 6.905000000000000E10    4.629567873991874E-1  -1.672466507332683E2   3.348996256311185E-3  -1.659410733877735E2   3.350922980248407E-3  -1.605534169213452E2   7.042472021174567E-1   7.315914141463948E1  
 6.910000000000000E10    5.057160386124181E-1   1.583740154566301E2   3.127045673990153E-3   1.607395190817223E2   3.117701086898461E-3   1.635119815658853E2   7.290470500016490E-1   5.282419562791846E1  
 6.915000000000000E10    5.293239577435021E-1   1.261794088363829E2   3.037307347260999E-3   1.279203869344674E2   2.996387794317102E-3   1.326536819913350E2   7.307032172303144E-1   3.305366706550856E1  
 6.920000000000000E10    5.328077621577760E-1   9.426676603407192E1   3.046932071164267E-3   9.343884270183776E1   3.106998087656350E-3   9.762046875653677E1   7.102174370901295E-1   1.259852779742168E1  
 6.925000000000000E10    5.113515249371432E-1   6.110054841538041E1   3.476827627287532E-3   5.670344475522431E1   3.619286231780672E-3   6.156051610524658E1   6.676483013665808E-1  -8.947183471365387  
 6.930000000000000E10    4.658513343465573E-1   2.446058947160838E1   4.183846444931769E-3   1.797704351753080E1   4.168306948220630E-3   2.172933006574605E1   5.821180986855989E-1  -3.336052887890415E1  
 6.935000000000000E10    3.974900251890567E-1  -1.856144861923396E1   4.976869157176152E-3  -2.783656504420614E1   4.925940395740992E-3  -2.667784565189417E1   4.323051129865193E-1  -6.161459045656679E1  
 6.940000000000000E10    3.295384740317825E-1  -7.138451215461616E1   5.448935345978638E-3  -7.962112042238088E1   5.592226839819650E-3  -7.556261667226788E1   1.967534130351004E-1  -9.726309592978386E1  
 6.945000000000000E10    3.063778051439940E-1  -1.324539694450069E2   5.524626045289413E-3  -1.358578504987028E2   5.372579623038058E-3  -1.313718367721443E2   1.045748143595432E-1   6.413138421979427E1  
 6.950000000000000E10    3.416278173867983E-1   1.701536451848340E2   4.929828589212768E-3   1.715169976287967E2   4.956822573822420E-3   1.784080751112390E2   3.684036289032031E-1   2.175585929143834E1  
 6.955000000000000E10    4.019203908240721E-1   1.238163964359357E2   4.239802566011173E-3   1.293725403183059E2   4.091729779250525E-3   1.318973841240139E2   5.419695378867258E-1  -9.237264497603178  
 6.960000000000000E10    4.552999872976210E-1   8.514320375850124E1   3.263799744228943E-3   8.552782045948277E1   3.352178692596752E-3   9.162580122711678E1   6.403180330243948E-1  -3.563478645643586E1  
 6.965000000000000E10    4.942413494279855E-1   5.061060910790483E1   3.003544032058151E-3   4.982932936569712E1   3.078471073052254E-3   5.626316726522888E1   6.903030203263120E-1  -5.906551905109790E1  
 6.970000000000000E10    5.180200019157424E-1   1.820375449042653E1   2.968065187135158E-3   1.388086857803791E1   2.894709899061166E-3   1.970637122261849E1   7.099984912090732E-1  -8.092781330174640E1  
 6.975000000000000E10    5.237853484008360E-1  -1.407681588117506E1   2.782457086005255E-3  -1.906174683898472E1   2.793688381440161E-3  -1.586281154928865E1   7.088080252800326E-1  -1.022808814177867E2  
 6.980000000000000E10    5.135283035600718E-1  -4.746079379135470E1   3.051861677880922E-3  -5.436618566953464E1   2.913235464220512E-3  -5.155592668480237E1   6.850834788991517E-1  -1.240141239403766E2  
 6.985000000000000E10    4.852726792305563E-1  -8.279204759113787E1   3.235835151007270E-3  -9.187362474029338E1   3.417652385706395E-3  -8.805645547638095E1   6.332593431806735E-1  -1.470580313943580E2  
 6.990000000000000E10    4.378177993801951E-1  -1.222788661636943E2   3.938699947215510E-3  -1.313048514257902E2   3.839079287518971E-3  -1.278050100679319E2   5.373080772487799E-1  -1.730028323297922E2  
 6.995000000000000E10    3.763415454508208E-1  -1.676285351542516E2   4.509054179805088E-3  -1.779956941016877E2   4.505991937222770E-3  -1.728547459180310E2   3.739486106642219E-1   1.559124443579364E2  
 7.000000000000000E10    3.207714904098842E-1   1.385237049759555E2   4.937075796662318E-3   1.299314863866096E2   4.955517472084921E-3   1.365042570194487E2   1.331321056023689E-1   1.089123184934025E2  
 7.005000000000000E10    3.078484308469889E-1   7.848832423338430E1   4.776603064573030E-3   7.777664294155110E1   4.735917681669472E-3   8.272799520637797E1   1.718586674307399E-1  -6.771877272613294E1  
 7.010000000000000E10    3.450612967331180E-1   2.274641084590706E1   4.207832776941287E-3   2.748794771243745E1   4.077482655346094E-3   3.027008018367545E1   4.082265935597583E-1  -1.102095131186890E2  
 7.015000000000000E10    4.074328081444719E-1  -2.308434565632049E1   3.555401842738593E-3  -1.432392842503465E1   3.443336525845533E-3  -1.272258452320732E1   5.611345082594881E-1  -1.409240476459758E2  
 7.020000000000000E10    4.653703332582815E-1  -6.130433708107127E1   2.906672515815205E-3  -5.752045246991700E1   3.081289506892156E-3  -5.111127965866897E1   6.467835359976716E-1  -1.667278017813709E2  
 7.025000000000000E10    5.095267648050217E-1  -9.509214301840837E1   2.687496764062599E-3  -9.412460096357742E1   2.592991315477513E-3  -8.812891782221416E1   6.888554569074121E-1   1.701626788441956E2  
 7.030000000000000E10    5.401692574307538E-1  -1.263373856123029E2   2.541292569714092E-3  -1.254747388469494E2   2.451385052205133E-3  -1.189468209347839E2   7.016342352772215E-1   1.483736168080787E2  
 7.035000000000000E10    5.524720996829481E-1  -1.562822733709530E2   2.421728741032262E-3  -1.568174217177726E2   2.604838368005324E-3  -1.539280319658677E2   6.915660789192600E-1   1.268088574785798E2  
 7.040000000000000E10    5.425947493343689E-1   1.733177629207073E2   2.733754552827046E-3   1.668412838657578E2   2.690678229850224E-3   1.701705598621159E2   6.536534858705105E-1   1.042420582114137E2  
 7.045000000000000E10    5.098958833209344E-1   1.409784400716546E2   3.262327882093782E-3   1.269058758013127E2   3.185557905904156E-3   1.326517921193506E2   5.819915549888728E-1   7.952793368147408E1  
 7.050000000000000E10    4.460690036067656E-1   1.046351313174507E2   3.571013148314695E-3   8.477019700601001E1   3.597692226437177E-3   8.973485452396110E1   4.561880018705226E-1   5.082323026269163E1  
 7.055000000000000E10    3.561520086639801E-1   6.010937080685999E1   4.265128261970301E-3   3.841765733728271E1   4.251970471695216E-3   4.295579324591706E1   2.604386026677221E-1   1.253799880878160E1  
 7.060000000000000E10    2.753763550957353E-1   5.251922152998437E-1   4.582435653685737E-3  -1.443775654800763E1   4.407399383180750E-3  -7.889947360737191   8.054329313085877E-2  -1.022806216227782E2  
 7.065000000000000E10    2.765632985204158E-1  -7.019625652876829E1   4.118364425521009E-3  -6.374716023108382E1   4.199867304111048E-3  -5.937855020416146E1   2.810300474721628E-1   1.595515945595085E2  
 7.070000000000000E10    3.564111983764342E-1  -1.267460908458235E2   3.676270969380114E-3  -1.095157944734748E2   3.526506811556582E-3  -1.059844997791081E2   4.671884165657531E-1   1.223453479355584E2  
 7.075000000000000E10    4.432553472827231E-1  -1.683263300945360E2   2.981187587176671E-3  -1.532598984010219E2   3.116744796080242E-3  -1.492959421368698E2   5.832578194712565E-1   9.308753374739598E1  
 7.080000000000000E10    5.094657041959925E-1   1.580115667427310E2   2.704474798666418E-3   1.653900339315682E2   2.587561868677070E-3   1.750310685059296E2   6.468168046302130E-1   6.741536504481229E1  
 7.085000000000000E10    5.499427897470175E-1   1.280725472204977E2   2.323761493938414E-3   1.333084677782114E2   2.328710626168108E-3   1.347584750912669E2   6.709780343740189E-1   4.368545079647154E1  
 7.090000000000000E10    5.705391896052150E-1   9.993658672598679E1   2.077822076283342E-3   1.009716858541361E2   2.424658508248790E-3   1.068579148652286E2   6.721629144189569E-1   2.022925844509918E1  
 7.095000000000000E10    5.705472082725548E-1   7.192458580472099E1   2.224330138759442E-3   6.566241136901687E1   2.381113326633061E-3   7.219692946524066E1   6.467387480770431E-1  -3.720900126681309  
 7.100000000000000E10    5.499990933767482E-1   4.264521669042995E1   2.575595555097536E-3   2.940374689928789E1   2.621556348491750E-3   3.576656486884132E1   5.932134497924591E-1  -2.971123690183280E1  
 7.105000000000000E10    5.029918450138194E-1   1.035411606707964E1   2.891774906892905E-3  -1.031818770277558E1   2.912713873332229E-3  -3.202195780411251   5.015406794809556E-1  -5.876274615021136E1  
 7.110000000000000E10    4.294033257088439E-1  -2.766571881310902E1   3.432044639560674E-3  -5.190362214614673E1   3.388371160419698E-3  -4.735895031680847E1   3.611779299954408E-1  -9.460636999603464E1  
 7.115000000000000E10    3.410384024966510E-1  -7.500696209548215E1   3.841428769091201E-3  -9.974950952832185E1   3.882538144807937E-3  -9.538927189678945E1   1.866986291824038E-1  -1.504912605308412E2  
 7.120000000000000E10    2.794590275140741E-1  -1.373003827557908E2   4.116465948059963E-3  -1.481603284053418E2   3.850062717511687E-3  -1.472087972491965E2   1.626934683334484E-1   9.239381974537980E1  
 7.125000000000000E10    3.012818695297482E-1   1.562523391843887E2   3.577102198625776E-3   1.610292019310047E2   3.647631605783687E-3   1.647380119020295E2   3.345875578352330E-1   2.885752808570951E1  
 7.130000000000000E10    3.777898378532804E-1   1.037741010990030E2   3.116905118580292E-3   1.168391045601943E2   3.269407511948239E-3   1.180469023985159E2   4.812488913204919E-1  -8.982293793118959  
 7.135000000000000E10    4.542739985330112E-1   6.311694580622436E1   2.606936937108138E-3   7.828275864878948E1   2.659437763581913E-3   7.757968494274219E1   5.749829646486310E-1  -3.954283607510048E1  
 7.140000000000000E10    5.094365574653619E-1   2.879885012491547E1   2.270056897495312E-3   4.005748972041025E1   2.383618518905910E-3   4.395028780135208E1   6.299860526095388E-1  -6.639166988123550E1  
 7.145000000000000E10    5.472088288696931E-1  -2.111709431327804   2.221363648207391E-3   4.032462119076463   2.295977798302611E-3   5.101235833290573   6.556612831769326E-1  -9.144599799385438E1  
 7.150000000000000E10    5.661107613959455E-1  -3.133209250367154E1   2.196643328268175E-3  -3.435896552004179E1   2.174055313196762E-3  -2.692557805711158E1   6.540097079379689E-1  -1.156536203764366E2  
 7.155000000000000E10    5.676012969423520E-1  -6.013537215120193E1   2.413027947501338E-3  -6.921380563291672E1   2.259753009003707E-3  -6.072806772031546E1   6.262473026982623E-1  -1.401141692524446E2  
 7.160000000000000E10    5.509160544950883E-1  -8.979764555663081E1   2.464967644160068E-3  -9.789848499999614E1   2.468237572370043E-3  -9.744412618628273E1   5.658660969651297E-1  -1.662819493799820E2  
 7.165000000000000E10    5.152335160977685E-1  -1.215909141935086E2   2.802286891763937E-3  -1.423082193134530E2   2.826836159697270E-3  -1.393165607307836E2   4.589349721128247E-1   1.640239304678097E2  
 7.170000000000000E10    4.532394494927509E-1  -1.572658587218160E2   3.251140217041869E-3   1.713886151356307E2   3.337294824550265E-3   1.791551764929362E2   2.936008656944095E-1   1.264222465816230E2  
 7.175000000000000E10    3.699260877107932E-1   1.597478684627176E2   3.694551135415523E-3   1.255566233894593E2   3.666054699749553E-3   1.313806751403556E2   1.106906988256998E-1   4.721135451251527E1  
 7.180000000000000E10    2.904062897259755E-1   1.034452106054821E2   3.591304840144232E-3   7.816593360003708E1   3.537641153105676E-3   8.121150715096218E1   2.268306077726743E-1  -7.186659370689270E1  
