#  HZ   S   MA   R     50.00 
! Rohde & Schwarz ZVA67 4Ports - Version 4.11 - 1305.7002k04 SN: 101051
! Date: 2023-05-31 13:59:15
! Measurements: S11 S21 S12 S22 
! 
 5.000000000000000E7     9.900089540691293E-1   1.732437238238546E2   2.058923112290621E-4   8.061906266803672E1   8.506771997954376E-5   1.441180162967475E2   1.000552609018999   1.735623099374785E2  
 1.000000000000000E8     9.932819119100070E-1   1.666007170940383E2   8.938928505681156E-5   4.898800767033869E1   6.058537184027959E-5  -6.450007653624104E1   1.002289688706375   1.664639610056574E2  
 1.500000000000000E8     9.874247215069691E-1   1.600534768461610E2   7.449305349049653E-5  -4.918480802692834E1   9.261615974451035E-5   6.747182924598963E1   9.932212629884754E-1   1.597827511403814E2  
 2.000000000000000E8     9.871418155455112E-1   1.532034729155445E2   7.144658820196951E-5   1.204076922670660E2   9.949664241520054E-5  -6.811748812100899E1   9.946154696160123E-1   1.531199731920640E2  
 2.500000000000000E8     9.821670673574102E-1   1.465479417353693E2   3.090374377193653E-5  -6.391547192207335   3.449297441966876E-5   1.726149384557158E2   9.913952365122251E-1   1.462038288009849E2  
 3.000000000000000E8     9.789383313368262E-1   1.399409846724231E2   6.632803058605354E-5   9.054678576420241E1   6.969399264112725E-5   2.461014418025618E1   9.889449334274056E-1   1.393984281807440E2  
 3.500000000000000E8     9.767269273220802E-1   1.331600528262968E2   4.274796021976080E-5  -3.746590110573015E1   4.382538036140459E-5  -8.895288927247254   9.856856949399142E-1   1.326546338642106E2  
 4.000000000000000E8     9.719798455279054E-1   1.263791260524503E2   3.101809199894834E-5  -7.188428103462010E1   5.278190042714639E-5   1.459774829023587E1   9.832069555134109E-1   1.259197149495714E2  
 4.500000000000000E8     9.703662912221831E-1   1.195837754002055E2   7.586261071171599E-5   1.973501477640816E1   8.394717900223345E-5   3.709774625683608E1   9.814388236223688E-1   1.190843941985908E2  
 5.000000000000000E8     9.699096767101645E-1   1.130806499754251E2   5.267250645147017E-5   4.958613123384477E1   8.154725415627832E-5   1.866019639369069E1   9.793409857870999E-1   1.124298328897305E2  
 5.500000000000000E8     9.683652596135632E-1   1.063994342606776E2   4.553556626239324E-5   4.334342815953423E-1   9.316384884953370E-5  -1.545420160441604E1   9.809122890066921E-1   1.057602452247781E2  
 6.000000000000000E8     9.688423275064400E-1   9.990354385223017E1   4.543044875675195E-5  -5.742548608729938   8.827506194831173E-5  -2.393441920603911   9.802134082715636E-1   9.909918392904940E1  
 6.500000000000000E8     9.663927689608561E-1   9.339623721285558E1   6.405790253477016E-5  -4.227961156841296E1   5.126830559291354E-5  -2.446575674141129E1   9.803410144306334E-1   9.240214486879711E1  
 7.000000000000000E8     9.706670072632828E-1   8.701098486392581E1   8.991758048655263E-5  -5.181132089341436   3.432875332140823E-5   3.379409871521850   9.816679113970570E-1   8.585561294508941E1  
 7.500000000000000E8     9.718471418550717E-1   8.057968973345857E1   8.192113825643628E-5  -7.759926992067079   6.620631483948457E-5  -1.957290437036459E1   9.849357646493661E-1   7.908960491671954E1  
 8.000000000000000E8     9.766057920330364E-1   7.420953895779853E1   5.976779803755380E-5   1.133473258854260E1   8.458919005280350E-5  -2.436146656155906E1   9.888711430504266E-1   7.256637035642038E1  
 8.500000000000000E8     9.783651686733791E-1   6.772978820914685E1   6.126619710654134E-5  -4.296446863997934E1   9.004797765679897E-5  -2.685155196764341E1   9.902426893214854E-1   6.581349251239170E1  
 9.000000000000000E8     9.815162499701376E-1   6.146256257116647E1   9.207338653134725E-5  -3.625904174802801E1   8.957027003178222E-5  -3.604942457688797E1   9.909325516976032E-1   5.917899944794604E1  
 9.500000000000000E8     9.842320106529418E-1   5.503205130598541E1   1.078548483566375E-4  -5.302511622818557E1   8.104044464666345E-5  -4.853876436922460E1   9.907877857115011E-1   5.245833909098236E1  
 1.000000000000000E9     9.879447426244090E-1   4.868095622348626E1   1.208261896412907E-4  -3.562353677467496E1   8.654860032198010E-5  -6.618161770039268E1   9.913921012638343E-1   4.577908171689012E1  
 1.050000000000000E9     9.896144900790881E-1   4.221568729041875E1   1.036011240392308E-4  -4.593437243614927E1   9.387048066032553E-5  -5.444966869238910E1   9.905644220789782E-1   3.895079675540025E1  
 1.100000000000000E9     9.922040235872530E-1   3.583281984576335E1   8.884019584251828E-5  -7.672527999814618E1   8.558666807427142E-5  -5.119627394088443E1   9.909395248992936E-1   3.227057487213340E1  
 1.150000000000000E9     9.929334136759539E-1   2.926741605146666E1   1.286136899105335E-4  -6.360896328206997E1   1.079118727357662E-4  -7.002852470008449E1   9.912836705525382E-1   2.549086809463326E1  
 1.200000000000000E9     9.958901616159863E-1   2.280076309253155E1   1.347629622563039E-4  -7.553231549268028E1   1.232961887389571E-4  -7.696676445548482E1   9.906908515730657E-1   1.871128204141141E1  
 1.250000000000000E9     9.957691720346013E-1   1.607985192781442E1   1.019570414555304E-4  -8.907652817481954E1   1.173075244170719E-4  -8.557413463187305E1   9.897640410868601E-1   1.184788773031429E1  
 1.300000000000000E9     9.969343165305111E-1   9.411345670240932   1.596849581962200E-4  -8.159270919334826E1   1.275004362807794E-4  -1.018944832605043E2   9.889439689778253E-1   5.105630456231398  
 1.350000000000000E9     9.967459179557311E-1   2.701480588262149   1.049402975060045E-4  -8.338295376175155E1   1.224852626578442E-4  -1.011252417306814E2   9.892640763197745E-1  -1.702214772143649  
 1.400000000000000E9     9.951856718190174E-1  -4.069415607708296   1.742623397524091E-4  -1.059976601904301E2   1.249003279647261E-4  -1.072464887051206E2   9.884461427820210E-1  -8.482225855818383  
 1.450000000000000E9     9.957621261060696E-1  -1.087080484990367E1   1.238865084021505E-4  -1.129072214890510E2   1.307372870572712E-4  -1.125716030242075E2   9.881888565420370E-1  -1.540616116556544E1  
 1.500000000000000E9     9.927176780909275E-1  -1.767007030728851E1   1.475210700817827E-4  -1.166436132301762E2   1.377499460034863E-4  -1.112172708462691E2   9.876189307753166E-1  -2.220634194283925E1  
 1.550000000000000E9     9.923024837588816E-1  -2.460085331456807E1   1.533346374022775E-4  -1.275531228783591E2   1.626069148102923E-4  -1.212387139215545E2   9.887666624438681E-1  -2.912329699387129E1  
 1.600000000000000E9     9.902102101371532E-1  -3.143203253894908E1   1.481643505361250E-4  -1.394600961810730E2   1.457051884214245E-4  -1.249920602797620E2   9.899534666530816E-1  -3.592160773531964E1  
 1.650000000000000E9     9.898995891465423E-1  -3.842916233491376E1   1.528246218415958E-4  -1.441942647634240E2   1.328710337753338E-4  -1.295159224204334E2   9.912943771496993E-1  -4.288604046874924E1  
 1.700000000000000E9     9.869883562250225E-1  -4.532972753983692E1   1.484095429554200E-4  -1.466299220693337E2   1.671301149906373E-4  -1.487071159752273E2   9.918482869974483E-1  -4.967991096607485E1  
 1.750000000000000E9     9.872437249601722E-1  -5.226315865056160E1   1.463770229169990E-4  -1.468024091109391E2   1.780122603774266E-4  -1.431157139015840E2   9.937964765197815E-1  -5.662144458470323E1  
 1.800000000000000E9     9.869482814327715E-1  -5.902746427690146E1   1.465417607205259E-4  -1.557116591139504E2   1.688559769308990E-4  -1.570827117454957E2   9.954691684663956E-1  -6.344699097903160E1  
 1.850000000000000E9     9.893415915540414E-1  -6.576874970928802E1   1.888788617698133E-4  -1.634495955203420E2   1.689985554325712E-4  -1.594047791271930E2   9.976190113390285E-1  -7.035591554332221E1  
 1.900000000000000E9     9.896989700878391E-1  -7.251418380029449E1   1.744113727801196E-4  -1.627388368063886E2   1.845993302414452E-4  -1.743492129333215E2   9.991471913851384E-1  -7.728474080448221E1  
 1.950000000000000E9     9.919304656792159E-1  -7.922814630119771E1   1.628670344913467E-4   1.793794689990923E2   1.639455029860882E-4  -1.784935025966695E2   1.001764664300051  -8.414296002814810E1  
 2.000000000000000E9     9.936782447849951E-1  -8.584392823315285E1   1.980358544361001E-4   1.793755293445061E2   1.783170365981444E-4  -1.798200329764733E2   1.002384656408614  -9.102554957603827E1  
 2.050000000000000E9     9.986914810729507E-1  -9.235136756226328E1   1.881735269434356E-4   1.649984795558665E2   1.877988592538703E-4   1.738511034189927E2   1.003142850489102  -9.802226401907761E1  
 2.100000000000000E9     1.000183165812615  -9.883905795822244E1   1.755741183102295E-4   1.610446921474605E2   2.209587145311356E-4   1.576337744248133E2   1.002565274225587  -1.049868055106898E2  
 2.150000000000000E9     1.004861237442472  -1.054530933891769E2   1.898532323003728E-4   1.541887194041314E2   2.147654662074101E-4   1.593990222841093E2   1.003559896754509  -1.119035160472164E2  
 2.200000000000000E9     1.007478387478205  -1.117992620842450E2   1.933657170344006E-4   1.530374868313004E2   1.904699218970192E-4   1.547182437483523E2   1.002826991494551  -1.188743043547501E2  
 2.250000000000000E9     1.011094626862798  -1.182678384901211E2   2.312458502802609E-4   1.455583358260745E2   2.372245047912418E-4   1.442558688670516E2   1.002260765439115  -1.258982736632204E2  
 2.300000000000000E9     1.010912502417315  -1.245560739996784E2   2.091620922038666E-4   1.433305140864551E2   2.364170838370645E-4   1.404319826940562E2   9.984531674538271E-1  -1.329683608513196E2  
 2.350000000000000E9     1.012970964878234  -1.309549895412344E2   2.576015669038414E-4   1.369306833042801E2   2.408569308926060E-4   1.301751813721245E2   9.963076501515265E-1  -1.399997564920646E2  
 2.400000000000000E9     1.012452945028474  -1.374693763226075E2   1.962865442115342E-4   1.199388985475916E2   2.189787151428049E-4   1.257711006029237E2   9.935850057675066E-1  -1.470955194172341E2  
 2.450000000000000E9     1.013698739027099  -1.438922218022868E2   2.184376626386489E-4   1.117972885937458E2   2.146325553001337E-4   1.081375584607065E2   9.927179512262938E-1  -1.540733066188677E2  
 2.500000000000000E9     1.012328733573257  -1.503675873362960E2   2.181869535728157E-4   1.114812728743036E2   2.661278049508310E-4   1.167811173270634E2   9.903974516580394E-1  -1.613505604447512E2  
 2.550000000000000E9     1.010232104130330  -1.568554405918670E2   2.338309330184758E-4   1.090805261412834E2   2.145808357218773E-4   9.885897739859993E1   9.920226156883832E-1  -1.683049905251397E2  
 2.600000000000000E9     1.005987181363059  -1.635311231028439E2   2.610391003874063E-4   9.385882851836986E1   2.525046975882411E-4   9.566775995421129E1   9.909280957068384E-1  -1.754772455441628E2  
 2.650000000000000E9     1.004820394232465  -1.700900913392444E2   2.458902030531045E-4   8.865636664136720E1   2.450529386679023E-4   8.989235925185255E1   9.913490332588213E-1   1.775295688850964E2  
 2.700000000000000E9     1.001319312441622  -1.768048156575730E2   2.474248394434322E-4   8.015434529197025E1   1.965389914536795E-4   8.518496596431035E1   9.899941676131104E-1   1.704737262006805E2  
 2.750000000000000E9     9.985476150511482E-1   1.765599189289478E2   2.554959504064805E-4   8.710096301246222E1   2.513973812127324E-4   7.133784831099840E1   9.902138686315870E-1   1.634682037662198E2  
 2.800000000000000E9     9.945794337407999E-1   1.697439484731804E2   1.950721037673915E-4   6.100927269144438E1   2.531845583046265E-4   7.090217965236053E1   9.896104101707524E-1   1.563417395610919E2  
 2.850000000000000E9     9.919111223359636E-1   1.629946258722844E2   2.739333220347354E-4   7.326785416368267E1   2.456308121128722E-4   7.125352116141001E1   9.894130801608458E-1   1.493064493030233E2  
 2.900000000000000E9     9.905974940539821E-1   1.560712165317925E2   2.545805708795407E-4   5.157197046843547E1   2.443243777497006E-4   4.282156503617885E1   9.889604604637514E-1   1.423927712435489E2  
 2.950000000000000E9     9.883917011839797E-1   1.493828034079366E2   2.318306040996740E-4   4.968220411525198E1   3.182697674793044E-4   4.883003935311495E1   9.873944338296414E-1   1.353363200735050E2  
 3.000000000000000E9     9.887091690239883E-1   1.425467019838211E2   3.208352890239347E-4   4.527982741114157E1   2.909106895326619E-4   4.206741866799426E1   9.853802681611494E-1   1.284227107874293E2  
 3.050000000000000E9     9.877387897826805E-1   1.358973172438813E2   2.196147371133047E-4   2.224202029038198E1   2.756835945216582E-4   3.111485920838062E1   9.843482637468766E-1   1.215534329867804E2  
 3.100000000000000E9     9.857554867588956E-1   1.289702894518931E2   2.987285091081465E-4   2.783641826809603E1   2.878515005719104E-4   2.842460790086447E1   9.819338962332923E-1   1.146815836513429E2  
 3.150000000000000E9     9.850929998498003E-1   1.223932595485203E2   3.007860119953204E-4   2.638942677618178E1   2.686210742223395E-4   2.456233152418821E1   9.809778746594384E-1   1.078703983147600E2  
 3.200000000000000E9     9.844554242086571E-1   1.156575200010016E2   2.964817418018712E-4   2.827051306251217E1   3.034603114082063E-4   7.062442218975755   9.811931043824018E-1   1.011574755784467E2  
 3.250000000000000E9     9.858706276616556E-1   1.091725470545097E2   3.099955129853329E-4   1.157542300582737E1   2.458368420466893E-4   1.368742513442683E1   9.816887307758401E-1   9.451086572480064E1  
 3.300000000000000E9     9.855823252757050E-1   1.027718484109459E2   3.054428664353647E-4   2.346025969525651E-1   2.744696301582194E-4   1.174007561137806   9.816462455994847E-1   8.787618924485453E1  
 3.350000000000000E9     9.866967192808600E-1   9.634837247200252E1   2.535197613863421E-4  -5.791153012611549   3.175253478669924E-4  -8.936821072690325   9.825729376475394E-1   8.130009205080135E1  
 3.400000000000000E9     9.861384927002566E-1   8.994545186390518E1   2.526877152371996E-4  -1.770104900656325E1   2.905450179312526E-4  -1.669364005454392E1   9.818974414335026E-1   7.466917533386221E1  
 3.450000000000000E9     9.879277319277853E-1   8.376683004672579E1   2.858276663950409E-4  -1.618875768060934E1   3.060411204116948E-4  -1.824718725324575E1   9.830964488434661E-1   6.802969774401451E1  
 3.500000000000000E9     9.935681427134403E-1   7.757044822824651E1   3.025963768119002E-4  -2.508195796259510E1   2.887218840558675E-4  -3.146427443649887E1   9.826343096523393E-1   6.131437680475918E1  
 3.550000000000000E9     9.954761152182662E-1   7.127043784240661E1   3.012201368975853E-4  -2.935269215860804E1   3.218496170136550E-4  -3.118776509357607E1   9.823663803640353E-1   5.475303567903087E1  
 3.600000000000000E9     9.982086340559488E-1   6.476103243921295E1   3.264703996536216E-4  -4.268566548678643E1   3.167875994422701E-4  -3.477731205644935E1   9.835324149133152E-1   4.827972206771197E1  
 3.650000000000000E9     9.980831127605916E-1   5.850786400415313E1   3.278767858174424E-4  -4.338230099605798E1   3.316764954369496E-4  -4.430581037028564E1   9.807848782833238E-1   4.174940676304664E1  
 3.700000000000000E9     1.000910603189322   5.209411118899397E1   3.286810086068441E-4  -5.182253284936768E1   3.177737687572036E-4  -4.747665509227188E1   9.772247696676896E-1   3.511708351052654E1  
 3.750000000000000E9     1.000237319082545   4.585949317257542E1   2.970609622522422E-4  -6.743462232682612E1   2.646597205802011E-4  -5.185465155229537E1   9.740436034966408E-1   2.841215487105997E1  
 3.800000000000000E9     1.001263563538762   3.959182996329118E1   3.244180902707187E-4  -5.862283584407899E1   2.623839134252070E-4  -5.930416023875571E1   9.725991759307106E-1   2.194092455798247E1  
 3.850000000000000E9     9.990017983659651E-1   3.330592303755796E1   3.227295328764711E-4  -5.885755223794319E1   3.543081886084711E-4  -6.324701904429534E1   9.708656313720049E-1   1.553310738010772E1  
 3.900000000000000E9     9.991059919500870E-1   2.698394904554561E1   2.617502400858240E-4  -7.651895339680424E1   3.495960274208217E-4  -7.300943976432110E1   9.695917328758013E-1   9.001791064602037  
 3.950000000000000E9     9.964361822609216E-1   2.071232485384332E1   3.531992262985450E-4  -8.611023098321535E1   3.261715100888475E-4  -8.956314954708955E1   9.685225594281701E-1   2.489519771691023  
 4.000000000000000E9     9.974793493220742E-1   1.438742544912447E1   3.566466174443690E-4  -8.793650169534843E1   3.149930146163126E-4  -7.718870018919674E1   9.666950334280989E-1  -3.952777138803371  
 4.050000000000000E9     9.935235564162885E-1   8.060212766659680   3.364245736817071E-4  -8.743236089206398E1   3.444661815908950E-4  -9.189689620932252E1   9.642127766415578E-1  -1.049892927056351E1  
 4.100000000000000E9     9.921154115385195E-1   1.546966440298621   3.474185703268757E-4  -1.016508914091208E2   3.570844538840981E-4  -1.039947856953323E2   9.634965279639801E-1  -1.700052066907551E1  
 4.150000000000000E9     9.887042158006221E-1  -4.860741049572614   3.602477813400801E-4  -1.093902492938005E2   3.484504869520412E-4  -1.028457567485528E2   9.618804393716269E-1  -2.348617065695285E1  
 4.200000000000000E9     9.870766803719483E-1  -1.139587638314981E1   3.413783719835992E-4  -1.129720756768867E2   3.540180570524451E-4  -1.127040352707440E2   9.629409896002066E-1  -2.996220468250753E1  
 4.250000000000000E9     9.839672812801780E-1  -1.785686789315638E1   3.455426249647994E-4  -1.175960442345343E2   3.613391486052039E-4  -1.205737957152965E2   9.617908415468207E-1  -3.640556026380418E1  
 4.300000000000000E9     9.822425106242747E-1  -2.438230686986487E1   3.687141452177647E-4  -1.284506103729490E2   3.711807132825117E-4  -1.301859953281147E2   9.605073869202194E-1  -4.282122365142092E1  
 4.350000000000000E9     9.811823540211067E-1  -3.090357540432432E1   3.603343601528816E-4  -1.314050654963614E2   3.618100084642822E-4  -1.330867733224918E2   9.584437530343226E-1  -4.933932660938673E1  
 4.400000000000000E9     9.815677679077978E-1  -3.732058363352626E1   3.447462610631786E-4  -1.380327690480604E2   3.554463850736407E-4  -1.416318436427569E2   9.588331772267302E-1  -5.581986342226338E1  
 4.450000000000000E9     9.808019477204637E-1  -4.385599593427431E1   3.656596162329778E-4  -1.439961191375499E2   3.619227558873931E-4  -1.475849636914650E2   9.572002521486156E-1  -6.242939348539993E1  
 4.500000000000000E9     9.821996964836648E-1  -5.029352078042832E1   3.559381741492928E-4  -1.514931987377720E2   3.692679536444900E-4  -1.515260570985954E2   9.567635211600069E-1  -6.891618833816403E1  
 4.550000000000000E9     9.821023392903419E-1  -5.685275330629180E1   3.744019840100183E-4  -1.595113748785445E2   3.994233415639222E-4  -1.602047779889064E2   9.549719094966283E-1  -7.548646868495190E1  
 4.600000000000000E9     9.853324721814388E-1  -6.330524839433425E1   3.805162996890821E-4  -1.627048450443435E2   3.853442891327587E-4  -1.669875752594704E2   9.557144702206274E-1  -8.208136355215655E1  
 4.650000000000000E9     9.856923296941145E-1  -6.993686857050508E1   3.834371847183601E-4  -1.691421221331297E2   3.797349526974010E-4  -1.690934708338876E2   9.541002527758788E-1  -8.860341331258063E1  
 4.700000000000000E9     9.890717423026684E-1  -7.642015021358959E1   4.087837227233730E-4  -1.780977056845013E2   4.009192215104550E-4   1.794654339526769E2   9.532108700288751E-1  -9.535111035853318E1  
 4.750000000000000E9     9.892483266777705E-1  -8.297668067248645E1   4.424494178490910E-4   1.770169119769838E2   4.249110996642522E-4   1.736326181138639E2   9.529194908871892E-1  -1.020840770614666E2  
 4.800000000000000E9     9.928276912241077E-1  -8.948816380368642E1   4.228862623863368E-4   1.743292369524561E2   3.960994151420705E-4   1.692004489682046E2   9.542302530239469E-1  -1.087433424597909E2  
 4.850000000000000E9     9.919158213709916E-1  -9.608421391918624E1   4.533576963439553E-4   1.651935016342980E2   4.189150090773292E-4   1.596144510755668E2   9.546923333748034E-1  -1.153983086038422E2  
