#  HZ   S   MA   R     50.00 
! Rohde & Schwarz ZVA67 4Ports - Version 4.11 - 1305.7002k04 SN: 101051
! Date: 2023-05-31 13:58:42
! Measurements: S11 S21 S12 S22 
! 
 5.000000000000000E7     5.425255995038949E-3   5.730968361790145E1   9.975638842295775E-1  -6.945307201741088   9.944022739355808E-1  -6.217608130300783   9.535559568244992E-3   9.336887975638312  
 1.000000000000000E8     3.212907082871306E-3  -4.483714227713109E1   9.976613858624389E-1  -1.328830028598405E1   9.975704297025876E-1  -1.358993809759178E1   3.572724926910940E-3  -4.093519981441953E1  
 1.500000000000000E8     8.368852495329723E-3  -1.388692547414576E1   9.979301352043754E-1  -2.003374992198385E1   9.989275732378056E-1  -2.038794756894172E1   9.495424015287439E-3  -3.717631440587203E1  
 2.000000000000000E8     6.222603179400058E-3  -2.136750471731392E1   9.988444014049049E-1  -2.666687483706248E1   1.000127831842681  -2.722628451719292E1   7.939172184229792E-3  -3.407243109816832E1  
 2.500000000000000E8     9.913724305445983E-3  -2.275176545621640E1   9.993453424439028E-1  -3.358197212748706E1   9.978537153064048E-1  -3.378299942416071E1   1.193561216713645E-2  -3.557131325282570E1  
 3.000000000000000E8     1.227184023216433E-2  -3.640096737543068E1   9.982310873393396E-1  -4.027790775347200E1   9.968682424609817E-1  -4.051904292312486E1   1.560145193079855E-2  -3.985675364481463E1  
 3.500000000000000E8     1.503103977205864E-2  -4.372617648735098E1   9.964997307916477E-1  -4.699631954013301E1   9.964706738745056E-1  -4.728399269563859E1   1.660501444520137E-2  -4.417883683206133E1  
 4.000000000000000E8     1.771560925595117E-2  -4.861498851731416E1   9.963727342145858E-1  -5.368592915532093E1   9.963048243147831E-1  -5.406628261326073E1   2.045672869581771E-2  -4.702064092676948E1  
 4.500000000000000E8     1.772079229462370E-2  -5.219073203410073E1   9.951178667850654E-1  -6.051535779460728E1   9.956339651064153E-1  -6.082155135598929E1   2.322624561072235E-2  -5.223044391086744E1  
 5.000000000000000E8     1.882305982510344E-2  -6.359899354786645E1   9.957766579741941E-1  -6.723581004227538E1   9.959877400415479E-1  -6.751416161484987E1   2.392166011485792E-2  -6.549796490010431E1  
 5.500000000000000E8     1.607904482298142E-2  -7.483033556126252E1   9.955470015102774E-1  -7.395964879448445E1   9.953180054096690E-1  -7.428993372294828E1   2.529866826606979E-2  -7.277902059625019E1  
 6.000000000000000E8     1.491610196842067E-2  -9.427168583014422E1   9.950557071831777E-1  -8.074499584983843E1   9.946393378563176E-1  -8.107894274437280E1   2.745570858267608E-2  -8.525158568271843E1  
 6.500000000000000E8     1.278934478998145E-2  -9.969407847689323E1   9.944152469979539E-1  -8.738566481225929E1   9.939882292711499E-1  -8.778205158807418E1   3.064831106352980E-2  -9.837375500648571E1  
 7.000000000000000E8     1.174430105870592E-2  -1.355692234995426E2   9.938722314944174E-1  -9.410291483763690E1   9.936521662211660E-1  -9.454978414730690E1   3.110400548314897E-2  -1.140659546481505E2  
 7.500000000000000E8     8.279659674762284E-3  -1.699488557934445E2   9.935862518830874E-1  -1.008921979321868E2   9.931527650130908E-1  -1.013013746839208E2   3.177714853365009E-2  -1.284442390893612E2  
 8.000000000000000E8     1.284744350426303E-2   1.498204886985171E2   9.939147004539928E-1  -1.076001398603070E2   9.925932993539091E-1  -1.079643672212750E2   3.111435076508096E-2  -1.464034392583009E2  
 8.500000000000000E8     1.484348484027028E-2   1.283765172474006E2   9.931097937952161E-1  -1.143832448574087E2   9.925814870494678E-1  -1.148048558686632E2   3.467036644449788E-2  -1.597330470533427E2  
 9.000000000000000E8     2.019546286716410E-2   1.106303366122446E2   9.917403176797847E-1  -1.211192616691620E2   9.914080811712714E-1  -1.215124081283978E2   3.846862412746198E-2  -1.724919120966537E2  
 9.500000000000000E8     2.360535476719654E-2   1.027683597804274E2   9.910827401742133E-1  -1.278029220316491E2   9.907840605763658E-1  -1.282777447790514E2   4.004068692289647E-2   1.771001824715013E2  
 1.000000000000000E9     2.813812224814806E-2   9.647389287812923E1   9.909118294028038E-1  -1.345673410121018E2   9.902097564608272E-1  -1.350314642654192E2   4.271651996487830E-2   1.657634080375021E2  
 1.050000000000000E9     2.993754210653180E-2   8.927900517709905E1   9.905947977599785E-1  -1.412598875634502E2   9.900307177648733E-1  -1.417780284056010E2   4.241876918806292E-2   1.575587082728511E2  
 1.100000000000000E9     3.300763438500310E-2   8.355459015706917E1   9.898107853725269E-1  -1.480125545435739E2   9.894665055130982E-1  -1.484658367600812E2   4.449032529527879E-2   1.466353216235156E2  
 1.150000000000000E9     3.547669364885073E-2   7.704357675425059E1   9.893850768428445E-1  -1.547143145625914E2   9.885883058365136E-1  -1.552017462357612E2   4.360889328059744E-2   1.377898080810725E2  
 1.200000000000000E9     3.757642206076914E-2   7.284410473929653E1   9.891327720539885E-1  -1.614700710705884E2   9.888209710185320E-1  -1.619777262622382E2   4.534520599363519E-2   1.277230964394714E2  
 1.250000000000000E9     3.713484440180789E-2   6.711506135207338E1   9.885823475180344E-1  -1.682174752799488E2   9.880241729793490E-1  -1.687032316550229E2   4.119015394614933E-2   1.214916000333010E2  
 1.300000000000000E9     3.761444096166420E-2   6.177941660930519E1   9.886523099044178E-1  -1.749129109299300E2   9.882882003378145E-1  -1.754391570645978E2   4.098765832396147E-2   1.151735632175617E2  
 1.350000000000000E9     3.791691026056450E-2   5.638835589330751E1   9.883113812828364E-1   1.783577632901375E2   9.880305107687526E-1   1.778081095663922E2   3.690745814562810E-2   1.085951559992045E2  
 1.400000000000000E9     3.617714914838981E-2   5.169713509312956E1   9.885839878261533E-1   1.716709958641968E2   9.883334836177066E-1   1.710636671924821E2   3.555723396896491E-2   1.027243841123941E2  
 1.450000000000000E9     3.465964232517264E-2   4.429064462941992E1   9.883070606415488E-1   1.649817498716495E2   9.879997718953447E-1   1.643472011527317E2   3.094918351573274E-2   9.908406494353284E1  
 1.500000000000000E9     3.317856436792578E-2   4.083162187840195E1   9.880092532183372E-1   1.582425703677399E2   9.886476595697524E-1   1.576312410084507E2   2.870069855641138E-2   9.632951909808061E1  
 1.550000000000000E9     3.082003916341380E-2   3.187364354140636E1   9.883714096889843E-1   1.515702961329213E2   9.886830226462250E-1   1.509123075316414E2   2.361375504622381E-2   9.618880960785992E1  
 1.600000000000000E9     2.959821143645572E-2   2.477906246947314E1   9.888857696467148E-1   1.448219463520597E2   9.885156687225285E-1   1.441916315874951E2   2.186816163876074E-2   9.656025007101125E1  
 1.650000000000000E9     2.659297617665998E-2   1.244780130244569E1   9.895494648320570E-1   1.381092883420263E2   9.891750263688659E-1   1.374918137309352E2   1.954236994048799E-2   1.028138384291972E2  
 1.700000000000000E9     2.519744623818363E-2   2.640674099279956   9.897925516112831E-1   1.314180488666325E2   9.893416961590824E-1   1.307789447905103E2   1.920560578712260E-2   1.083404954322610E2  
 1.750000000000000E9     2.384590858288026E-2  -1.644530680947958E1   9.895818540510256E-1   1.247363904843086E2   9.895985315736381E-1   1.240768744670205E2   1.900739462713295E-2   1.170314026057784E2  
 1.800000000000000E9     2.449112704133045E-2  -2.944321808720056E1   9.887175119435117E-1   1.180756679265692E2   9.894943349245543E-1   1.173694145049202E2   1.871431680293033E-2   1.175888223872841E2  
 1.850000000000000E9     2.684579112036463E-2  -4.741973484589676E1   9.901432431051928E-1   1.113480709481843E2   9.893140271208455E-1   1.106740691913162E2   1.977562875085385E-2   1.153188863078302E2  
 1.900000000000000E9     2.938123738102972E-2  -6.120656987882438E1   9.895760488685166E-1   1.046863465403829E2   9.896773863265740E-1   1.039819105280042E2   2.042790019139735E-2   1.159086814306027E2  
 1.950000000000000E9     3.298456893268610E-2  -7.493614486839341E1   9.889511914287203E-1   9.805134803497141E1   9.901404612179846E-1   9.729227296419533E1   2.193012117693756E-2   1.127241517766974E2  
 2.000000000000000E9     3.719696894093801E-2  -8.641848625220197E1   9.891742797523523E-1   9.138645361692601E1   9.895292690553721E-1   9.056991772695125E1   2.398460578592045E-2   1.048090202204306E2  
 2.050000000000000E9     4.290994519213259E-2  -9.514864752672609E1   9.898965901031266E-1   8.463972645367404E1   9.905638174929949E-1   8.390311638922283E1   2.489741435818104E-2   9.734020321560942E1  
 2.100000000000000E9     4.593498340435714E-2  -1.039725523970942E2   9.896782457011062E-1   7.798406961356908E1   9.897894026755978E-1   7.723671216731185E1   2.517432340588994E-2   9.288535085536371E1  
 2.150000000000000E9     5.114160147374564E-2  -1.113027035144998E2   9.896085962766498E-1   7.129305978105039E1   9.893182017276356E-1   7.050308878193719E1   2.622016386640642E-2   8.722649889423771E1  
 2.200000000000000E9     5.453553235155111E-2  -1.186245535953530E2   9.887877480240769E-1   6.463431875693073E1   9.896717074745262E-1   6.384311734544016E1   2.661558559862937E-2   7.989045652582480E1  
 2.250000000000000E9     5.760168155348557E-2  -1.247227914658850E2   9.892855358073993E-1   5.795249684180941E1   9.897735848503686E-1   5.708409995905877E1   2.723211307876236E-2   7.168689535417755E1  
 2.300000000000000E9     5.741672782645231E-2  -1.318207162306173E2   9.886310412276982E-1   5.127082357775593E1   9.882064449505824E-1   5.043275757470170E1   2.968056588476298E-2   6.873638427661733E1  
 2.350000000000000E9     5.891943078702138E-2  -1.375486159027120E2   9.884912256504426E-1   4.458080769702792E1   9.884030626691719E-1   4.372218710847100E1   3.136912388011799E-2   6.407610192458610E1  
 2.400000000000000E9     5.758367476168958E-2  -1.449457351817974E2   9.881332870192364E-1   3.788936551384918E1   9.874146601669255E-1   3.708964038321018E1   3.417899636425156E-2   6.236369045202762E1  
 2.450000000000000E9     5.806071743003323E-2  -1.505454170573028E2   9.877103337313409E-1   3.120974669153304E1   9.876274364657293E-1   3.035781883190193E1   3.437537376551618E-2   5.821646982627586E1  
 2.500000000000000E9     5.467222193770521E-2  -1.589581455251175E2   9.878701215883280E-1   2.445892440123323E1   9.879110869041238E-1   2.364992179158158E1   3.827849738748652E-2   5.692609663361624E1  
 2.550000000000000E9     5.242507960894425E-2  -1.653998647333279E2   9.880113342313457E-1   1.780238078781290E1   9.873026794632347E-1   1.697589541973734E1   3.833360189581021E-2   5.287914619797164E1  
 2.600000000000000E9     4.949059672433077E-2  -1.767018824334509E2   9.883523022614166E-1   1.109487929872907E1   9.872386418091264E-1   1.023597735263669E1   4.201579102603368E-2   5.060087028467947E1  
 2.650000000000000E9     4.733308067653226E-2   1.754423698555615E2   9.877220776546621E-1   4.352109415363180   9.872565822290180E-1   3.577608109520754   4.193750250487486E-2   4.673205778026308E1  
 2.700000000000000E9     4.456099298525832E-2   1.638172214328220E2   9.870556350204519E-1  -2.349449734380928   9.870896545013351E-1  -3.153075283888573   4.486654663523572E-2   4.240706654463968E1  
 2.750000000000000E9     4.294497857374213E-2   1.524238907532682E2   9.871495352411516E-1  -9.092323712286728   9.865569809159808E-1  -9.854836046167700   4.594844157803717E-2   3.784507834826156E1  
 2.800000000000000E9     4.177079442880079E-2   1.384504660063712E2   9.874327682499776E-1  -1.584703197347098E1   9.855367359988457E-1  -1.665475738022422E1   4.808123369470795E-2   3.217423244454447E1  
 2.850000000000000E9     4.189521553647876E-2   1.252765939254346E2   9.870940722437832E-1  -2.262043341089119E1   9.857557119517781E-1  -2.336834079463190E1   4.874516644594181E-2   2.603900927358135E1  
 2.900000000000000E9     4.509043566268212E-2   1.112913590796839E2   9.864982574094289E-1  -2.937926409172517E1   9.862994928533624E-1  -3.010234522430604E1   5.002306060914103E-2   1.980689205019513E1  
 2.950000000000000E9     4.398013940192720E-2   9.994882859936884E1   9.847911169979436E-1  -3.612398863877630E1   9.856049666035461E-1  -3.687236886457902E1   5.070719580314734E-2   1.202946059695517E1  
 3.000000000000000E9     4.652140456895666E-2   8.808789569444400E1   9.853745345467165E-1  -4.281180099523145E1   9.845438069374884E-1  -4.370320306315350E1   5.107424993623785E-2   6.797659738963646  
 3.050000000000000E9     4.626353017133556E-2   7.905908183758878E1   9.851328846383438E-1  -4.955262189310444E1   9.849043212941983E-1  -5.049040676770493E1   5.003350774375102E-2  -2.120422947426344  
 3.100000000000000E9     5.025141978351532E-2   6.795228351376680E1   9.841872626171618E-1  -5.625196356874286E1   9.838055876217773E-1  -5.728494127603759E1   5.067325986981574E-2  -8.233327931079330  
 3.150000000000000E9     4.965189086208188E-2   6.104802173597498E1   9.835438701683285E-1  -6.300511204546276E1   9.832350265738872E-1  -6.408123293491366E1   4.899981276075404E-2  -1.593020695725731E1  
 3.200000000000000E9     5.170572927259912E-2   5.349567183188746E1   9.826223716240031E-1  -6.967755839249634E1   9.829763764530747E-1  -7.078651451053503E1   4.812416803033984E-2  -2.291018427181419E1  
 3.250000000000000E9     5.130114463753831E-2   4.755880788047169E1   9.836258980656738E-1  -7.639831020541216E1   9.833297438869775E-1  -7.750812110086554E1   4.368827360760522E-2  -3.134095185472633E1  
 3.300000000000000E9     5.031649515807119E-2   4.159722627973834E1   9.826220258424334E-1  -8.308892998442191E1   9.841887421374632E-1  -8.412956697148803E1   4.229882664674005E-2  -4.109548754539026E1  
 3.350000000000000E9     4.805404817478927E-2   3.595782852225866E1   9.830299803743900E-1  -8.975783106672849E1   9.840559931078151E-1  -9.080511667125553E1   3.845026997962140E-2  -4.989354285964573E1  
 3.400000000000000E9     4.597979507018334E-2   3.180160078747991E1   9.835666733963721E-1  -9.643726407471215E1   9.836504440721854E-1  -9.758401660458627E1   3.549295130585128E-2  -5.907594381090886E1  
 3.450000000000000E9     4.165464889072945E-2   2.705144403445112E1   9.833199952733233E-1  -1.030460267714690E2   9.847622329366296E-1  -1.043601926235181E2   3.162828675104103E-2  -7.057089213560032E1  
 3.500000000000000E9     4.023826128724573E-2   2.267293065484567E1   9.864475669154208E-1  -1.096795065548015E2   9.861442171055704E-1  -1.111464648546564E2   2.692675192725259E-2  -8.376442749462788E1  
 3.550000000000000E9     3.309421681228081E-2   2.026187497356958E1   9.878506138504760E-1  -1.163677240043179E2   9.868652101880617E-1  -1.179000641511823E2   2.333583506425232E-2  -9.786991239256480E1  
 3.600000000000000E9     3.061557101525279E-2   1.964924340210365E1   9.888272933759635E-1  -1.232668095502245E2   9.862062151980047E-1  -1.246512979823030E2   1.894579407471755E-2  -1.138446791398568E2  
 3.650000000000000E9     2.638931203236168E-2   1.856266086009416E1   9.893886167855478E-1  -1.300440755039001E2   9.863480782917735E-1  -1.313642128529214E2   1.922300931703239E-2  -1.436231055182077E2  
 3.700000000000000E9     2.316134234402315E-2   1.814824920991325E1   9.885053194126151E-1  -1.368024909866660E2   9.864514610508181E-1  -1.380788200462317E2   1.893388651494186E-2  -1.584571198188382E2  
 3.750000000000000E9     1.610180461713146E-2   2.301777976126947E1   9.884164862236231E-1  -1.435862337493242E2   9.864921525319202E-1  -1.448489893041952E2   2.035266628239533E-2  -1.774104036130374E2  
 3.800000000000000E9     1.415330042357297E-2   4.137494818659462E1   9.875350985381465E-1  -1.503476522516736E2   9.864817902367796E-1  -1.515680149896448E2   1.939476254553599E-2   1.624390510078983E2  
 3.850000000000000E9     1.381684800804627E-2   7.129195942075816E1   9.870614345676114E-1  -1.569972028570953E2   9.867100546204328E-1  -1.582773419577268E2   2.242845055345750E-2   1.443118488140707E2  
 3.900000000000000E9     1.687693158456540E-2   8.589926886712443E1   9.873924930975347E-1  -1.637553883573848E2   9.850126507111582E-1  -1.650748359154456E2   2.500236040469716E-2   1.319385371743230E2  
 3.950000000000000E9     2.242528819846947E-2   9.933161924986281E1   9.859911149393107E-1  -1.704499795973658E2   9.854676513716912E-1  -1.717321512545589E2   2.764126718776279E-2   1.190377168738216E2  
 4.000000000000000E9     2.775676051550497E-2   1.001488383090848E2   9.872173111861814E-1  -1.771512491415247E2   9.856383528235299E-1  -1.784411950296399E2   3.121486093837758E-2   1.064168859892178E2  
 4.050000000000000E9     3.255303256135226E-2   1.012314819227001E2   9.859301341664523E-1   1.762109103114152E2   9.857300864036378E-1   1.748376911991215E2   3.369084175690543E-2   9.895196651840043E1  
 4.100000000000000E9     3.690209453159843E-2   9.870286611450484E1   9.851145253840363E-1   1.694502376276818E2   9.847307753709491E-1   1.681011103475366E2   3.586410227282906E-2   8.804536053775263E1  
 4.150000000000000E9     4.301327951571801E-2   9.587268573872429E1   9.848333843629294E-1   1.627150390901996E2   9.839776308658875E-1   1.613840002176108E2   3.933188514980296E-2   7.958300108876048E1  
 4.200000000000000E9     4.602804324272190E-2   9.093660274983535E1   9.844520575006275E-1   1.560002383913003E2   9.834907515921670E-1   1.546607901100386E2   4.268027248883523E-2   7.006102035070067E1  
 4.250000000000000E9     4.944311812050375E-2   8.581565324289225E1   9.840812063731513E-1   1.493085662184060E2   9.830300429675130E-1   1.479737636175160E2   4.706005299339947E-2   6.270644522143817E1  
 4.300000000000000E9     5.206795207397459E-2   7.887402762398622E1   9.836220998383630E-1   1.425695999631758E2   9.827317270967181E-1   1.413071189296451E2   5.172672292983686E-2   5.763487801327928E1  
 4.350000000000000E9     5.530645810441527E-2   7.372109195887393E1   9.836523363323754E-1   1.358981603914980E2   9.825841429703442E-1   1.345462980029407E2   5.519638862374348E-2   5.035053033958592E1  
 4.400000000000000E9     5.922992114589902E-2   6.494667539543386E1   9.838661898331315E-1   1.291552890831361E2   9.825489613232258E-1   1.278319546900925E2   5.913265949042933E-2   4.395053723186041E1  
 4.450000000000000E9     6.018829816354340E-2   5.956575178673177E1   9.840927862098338E-1   1.224798701603251E2   9.825997106711404E-1   1.211214116031140E2   6.145916360341867E-2   3.700983674622789E1  
 4.500000000000000E9     6.321780596199045E-2   5.099120383426109E1   9.833957794174328E-1   1.157932916281244E2   9.824000526830419E-1   1.144329619560612E2   6.540360170569301E-2   2.980121199615851E1  
 4.550000000000000E9     6.545807198109295E-2   4.450146247266473E1   9.833900662864458E-1   1.090712556551452E2   9.825522837200771E-1   1.077060290609571E2   6.733783085042039E-2   2.414385273888007E1  
 4.600000000000000E9     6.753001778000450E-2   3.590626972816911E1   9.833225534908893E-1   1.024273645027309E2   9.828724987864554E-1   1.010030399486475E2   6.894280827192915E-2   1.554710530421789E1  
 4.650000000000000E9     6.972338752276464E-2   2.806530425239328E1   9.836018089057578E-1   9.573208984475912E1   9.831398302178674E-1   9.431719524871562E1   7.049457663871432E-2   1.088401077674581E1  
 4.700000000000000E9     7.174232495307661E-2   1.924671314479241E1   9.845647431529679E-1   8.905464794291358E1   9.832582339231610E-1   8.760775222131737E1   7.010067351600069E-2   4.565121275799037  
 4.750000000000000E9     7.427097873174554E-2   1.234466061471863E1   9.846990264922011E-1   8.236649426343499E1   9.836001806110379E-1   8.090958940474003E1   6.857906049778105E-2  -1.371439627216610  
 4.800000000000000E9     7.728010959860412E-2   4.108999215550713   9.849228826301715E-1   7.571115446422311E1   9.838372359734815E-1   7.424742878874083E1   6.678460213218380E-2  -8.690253029907765  
