!Agilent Technologies,E5071C,MY46105125,A.11.34
!Date: Wed Dec 13 12:10:30 2023
!Data & Calibration Information:
!Freq	S11:SOLT1(ON)
!PortZ  Port1:50+j0
!Above PortZ is port z conversion or system Z0 setting when saving the data.
!When reading, reference impedance value at option line is always used.
# Hz S dB R 50
500000000	-1.876877e-001	6.024253e+001
501562500	-1.925912e-001	5.991359e+001
503125000	-1.907318e-001	5.958039e+001
504687500	-1.918646e-001	5.922814e+001
506250000	-2.016632e-001	5.890147e+001
507812500	-1.966627e-001	5.855085e+001
509375000	-1.995562e-001	5.824332e+001
510937500	-1.977843e-001	5.788105e+001
512500000	-1.962009e-001	5.754564e+001
514062500	-2.013160e-001	5.715369e+001
515625000	-2.049173e-001	5.684293e+001
517187500	-2.022004e-001	5.646281e+001
518750000	-2.033305e-001	5.617963e+001
520312500	-2.029659e-001	5.583687e+001
521875000	-2.005163e-001	5.549578e+001
523437500	-2.084600e-001	5.511063e+001
525000000	-2.114496e-001	5.475103e+001
526562500	-2.021220e-001	5.444323e+001
528125000	-2.094678e-001	5.410329e+001
529687500	-2.056678e-001	5.373825e+001
531250000	-2.086093e-001	5.339550e+001
532812500	-2.117372e-001	5.298357e+001
534375000	-2.115069e-001	5.265678e+001
535937500	-2.115156e-001	5.231586e+001
537500000	-2.167644e-001	5.197463e+001
539062500	-2.203003e-001	5.160946e+001
540625000	-2.233458e-001	5.120370e+001
542187500	-2.270690e-001	5.088707e+001
543750000	-2.307244e-001	5.050507e+001
545312500	-2.315196e-001	5.015395e+001
546875000	-2.283844e-001	4.980144e+001
548437500	-2.356212e-001	4.939611e+001
550000000	-2.313290e-001	4.910566e+001
551562500	-2.392874e-001	4.868001e+001
553125000	-2.391076e-001	4.835638e+001
554687500	-2.482595e-001	4.802275e+001
556250000	-2.447627e-001	4.765920e+001
557812500	-2.416855e-001	4.727545e+001
559375000	-2.536208e-001	4.689743e+001
560937500	-2.572067e-001	4.653069e+001
562500000	-2.535875e-001	4.617524e+001
564062500	-2.622137e-001	4.579196e+001
565625000	-2.684210e-001	4.541973e+001
567187500	-2.677606e-001	4.504212e+001
568750000	-2.768962e-001	4.469976e+001
570312500	-2.771330e-001	4.431107e+001
571875000	-2.792976e-001	4.393295e+001
573437500	-2.850966e-001	4.358655e+001
575000000	-2.873107e-001	4.318566e+001
576562500	-2.921491e-001	4.286201e+001
578125000	-2.971897e-001	4.245291e+001
579687500	-2.918757e-001	4.209304e+001
581250000	-2.975345e-001	4.168003e+001
582812500	-2.981824e-001	4.133286e+001
584375000	-3.057129e-001	4.094450e+001
585937500	-3.097171e-001	4.054239e+001
587500000	-3.134832e-001	4.020808e+001
589062500	-3.180970e-001	3.982161e+001
590625000	-3.149887e-001	3.944134e+001
592187500	-3.169194e-001	3.904722e+001
593750000	-3.197858e-001	3.869519e+001
595312500	-3.280848e-001	3.827246e+001
596875000	-3.290032e-001	3.788714e+001
598437500	-3.364961e-001	3.745572e+001
600000000	-3.397236e-001	3.707550e+001
601562500	-3.457062e-001	3.670506e+001
603125000	-3.489291e-001	3.630620e+001
604687500	-3.587751e-001	3.593257e+001
606250000	-3.610353e-001	3.553433e+001
607812500	-3.636583e-001	3.514964e+001
609375000	-3.689784e-001	3.474000e+001
610937500	-3.709838e-001	3.435269e+001
612500000	-3.764218e-001	3.390852e+001
614062500	-3.799119e-001	3.354871e+001
615625000	-3.880137e-001	3.310938e+001
617187500	-3.927425e-001	3.270068e+001
618750000	-3.982665e-001	3.231916e+001
620312500	-4.052826e-001	3.188053e+001
621875000	-4.143437e-001	3.148217e+001
623437500	-4.192518e-001	3.112792e+001
625000000	-4.284595e-001	3.067858e+001
626562500	-4.297579e-001	3.025244e+001
628125000	-4.396809e-001	2.984909e+001
629687500	-4.542119e-001	2.942681e+001
631250000	-4.617215e-001	2.896335e+001
632812500	-4.662079e-001	2.856061e+001
634375000	-4.768861e-001	2.815800e+001
635937500	-4.872455e-001	2.773214e+001
637500000	-5.004871e-001	2.733563e+001
639062500	-5.097292e-001	2.687485e+001
640625000	-5.137610e-001	2.645086e+001
642187500	-5.158204e-001	2.603016e+001
643750000	-5.208917e-001	2.557297e+001
645312500	-5.371331e-001	2.512300e+001
646875000	-5.497641e-001	2.467306e+001
648437500	-5.599446e-001	2.420031e+001
650000000	-5.722966e-001	2.375760e+001
651562500	-5.841119e-001	2.332856e+001
653125000	-5.980163e-001	2.284152e+001
654687500	-6.136963e-001	2.240792e+001
656250000	-6.222116e-001	2.199856e+001
657812500	-6.391273e-001	2.152443e+001
659375000	-6.540631e-001	2.107093e+001
660937500	-6.668798e-001	2.061703e+001
662500000	-6.886009e-001	2.017893e+001
664062500	-6.910027e-001	1.974139e+001
665625000	-7.095156e-001	1.930082e+001
667187500	-7.111828e-001	1.882016e+001
668750000	-7.195475e-001	1.836331e+001
670312500	-7.405170e-001	1.781377e+001
671875000	-7.539247e-001	1.735314e+001
673437500	-7.721631e-001	1.685736e+001
675000000	-7.886068e-001	1.635597e+001
676562500	-8.120770e-001	1.587030e+001
678125000	-8.322481e-001	1.538763e+001
679687500	-8.500841e-001	1.491797e+001
681250000	-8.699887e-001	1.443721e+001
682812500	-8.843319e-001	1.396858e+001
684375000	-9.032586e-001	1.350892e+001
685937500	-9.217729e-001	1.304429e+001
687500000	-9.341044e-001	1.254195e+001
689062500	-9.415017e-001	1.205808e+001
690625000	-9.571396e-001	1.148780e+001
692187500	-9.671823e-001	1.092933e+001
693750000	-9.989089e-001	1.036288e+001
695312500	-1.023326e+000	9.795645e+000
696875000	-1.046703e+000	9.278662e+000
698437500	-1.076131e+000	8.722040e+000
700000000	-1.103272e+000	8.219624e+000
701562500	-1.124236e+000	7.688508e+000
703125000	-1.145583e+000	7.187174e+000
704687500	-1.170787e+000	6.590929e+000
706250000	-1.205174e+000	6.015084e+000
707812500	-1.239953e+000	5.443701e+000
709375000	-1.279000e+000	4.942005e+000
710937500	-1.318760e+000	4.442547e+000
712500000	-1.347994e+000	4.008720e+000
714062500	-1.370804e+000	3.517751e+000
715625000	-1.392872e+000	3.018745e+000
717187500	-1.411506e+000	2.452136e+000
718750000	-1.433236e+000	1.873395e+000
720312500	-1.458547e+000	1.257915e+000
721875000	-1.492158e+000	6.482269e-001
723437500	-1.530934e+000	6.821595e-002
725000000	-1.571738e+000	-4.698128e-001
726562500	-1.607142e+000	-1.010621e+000
728125000	-1.635420e+000	-1.574870e+000
729687500	-1.665772e+000	-2.176278e+000
731250000	-1.701808e+000	-2.781217e+000
732812500	-1.747014e+000	-3.406837e+000
734375000	-1.794020e+000	-3.972002e+000
735937500	-1.831650e+000	-4.524686e+000
737500000	-1.871714e+000	-5.164601e+000
739062500	-1.908945e+000	-5.749345e+000
740625000	-1.948737e+000	-6.359152e+000
742187500	-1.992099e+000	-6.961708e+000
743750000	-2.036405e+000	-7.606303e+000
745312500	-2.079271e+000	-8.271383e+000
746875000	-2.128539e+000	-8.890615e+000
748437500	-2.170900e+000	-9.483025e+000
750000000	-2.219268e+000	-1.013588e+001
751562500	-2.260206e+000	-1.083908e+001
753125000	-2.307365e+000	-1.148756e+001
754687500	-2.358977e+000	-1.220117e+001
756250000	-2.415246e+000	-1.288450e+001
757812500	-2.464013e+000	-1.360734e+001
759375000	-2.528017e+000	-1.431921e+001
760937500	-2.594491e+000	-1.500281e+001
762500000	-2.668675e+000	-1.565123e+001
764062500	-2.738583e+000	-1.619996e+001
765625000	-2.784338e+000	-1.681217e+001
767187500	-2.832764e+000	-1.740311e+001
768750000	-2.868027e+000	-1.808915e+001
770312500	-2.924267e+000	-1.887696e+001
771875000	-2.976520e+000	-1.967064e+001
773437500	-3.031523e+000	-2.042154e+001
775000000	-3.087607e+000	-2.125239e+001
776562500	-3.154640e+000	-2.212733e+001
778125000	-3.224850e+000	-2.304235e+001
779687500	-3.311201e+000	-2.385986e+001
781250000	-3.389526e+000	-2.462932e+001
782812500	-3.468530e+000	-2.540842e+001
784375000	-3.540773e+000	-2.623701e+001
785937500	-3.609575e+000	-2.711922e+001
787500000	-3.682695e+000	-2.809759e+001
789062500	-3.770595e+000	-2.906411e+001
790625000	-3.874136e+000	-2.996790e+001
792187500	-3.971647e+000	-3.088129e+001
793750000	-4.081109e+000	-3.178359e+001
795312500	-4.186483e+000	-3.268819e+001
796875000	-4.287974e+000	-3.352841e+001
798437500	-4.416747e+000	-3.440102e+001
800000000	-4.509568e+000	-3.513970e+001
801562500	-4.607395e+000	-3.600044e+001
803125000	-4.676392e+000	-3.684965e+001
804687500	-4.753978e+000	-3.798139e+001
806250000	-4.847224e+000	-3.919222e+001
807812500	-4.983676e+000	-4.045124e+001
809375000	-5.129059e+000	-4.155520e+001
810937500	-5.277142e+000	-4.260317e+001
812500000	-5.404489e+000	-4.362936e+001
814062500	-5.535717e+000	-4.468351e+001
815625000	-5.665459e+000	-4.599283e+001
817187500	-5.831023e+000	-4.721422e+001
818750000	-5.981526e+000	-4.836470e+001
820312500	-6.133455e+000	-4.955340e+001
821875000	-6.294725e+000	-5.087129e+001
823437500	-6.474782e+000	-5.222972e+001
825000000	-6.679982e+000	-5.348435e+001
826562500	-6.871242e+000	-5.472819e+001
828125000	-7.074024e+000	-5.603849e+001
829687500	-7.273623e+000	-5.739499e+001
831250000	-7.487970e+000	-5.884868e+001
832812500	-7.710124e+000	-6.031726e+001
834375000	-7.958925e+000	-6.184112e+001
835937500	-8.223220e+000	-6.329313e+001
837500000	-8.506528e+000	-6.465055e+001
839062500	-8.782187e+000	-6.587126e+001
840625000	-9.047803e+000	-6.717877e+001
842187500	-9.323593e+000	-6.852405e+001
843750000	-9.587061e+000	-6.993964e+001
845312500	-9.876744e+000	-7.128859e+001
846875000	-1.012873e+001	-7.262787e+001
848437500	-1.039369e+001	-7.420393e+001
850000000	-1.063243e+001	-7.592927e+001
851562500	-1.091082e+001	-7.812155e+001
853125000	-1.120409e+001	-8.038734e+001
854687500	-1.153931e+001	-8.295411e+001
856250000	-1.195020e+001	-8.543582e+001
857812500	-1.239862e+001	-8.786729e+001
859375000	-1.286756e+001	-9.018144e+001
860937500	-1.333659e+001	-9.229139e+001
862500000	-1.379622e+001	-9.445745e+001
864062500	-1.425741e+001	-9.657494e+001
865625000	-1.469286e+001	-9.892993e+001
867187500	-1.511173e+001	-1.013844e+002
868750000	-1.556156e+001	-1.042440e+002
870312500	-1.600543e+001	-1.066817e+002
871875000	-1.636123e+001	-1.094380e+002
873437500	-1.668843e+001	-1.124549e+002
875000000	-1.687951e+001	-1.162112e+002
876562500	-1.707269e+001	-1.205660e+002
878125000	-1.724104e+001	-1.258367e+002
879687500	-1.737995e+001	-1.316966e+002
881250000	-1.756637e+001	-1.380645e+002
882812500	-1.771460e+001	-1.445637e+002
884375000	-1.783730e+001	-1.512881e+002
885937500	-1.787920e+001	-1.579252e+002
887500000	-1.782879e+001	-1.648844e+002
889062500	-1.781581e+001	-1.721321e+002
890625000	-1.780189e+001	-1.787509e+002
892187500	-1.780240e+001	1.749720e+002
893750000	-1.780005e+001	1.697507e+002
895312500	-1.771559e+001	1.657024e+002
896875000	-1.751406e+001	1.621096e+002
898437500	-1.715002e+001	1.590706e+002
900000000	-1.671533e+001	1.560360e+002
901562500	-1.625542e+001	1.529022e+002
903125000	-1.573777e+001	1.497303e+002
904687500	-1.528492e+001	1.463321e+002
906250000	-1.485730e+001	1.432021e+002
907812500	-1.448886e+001	1.402840e+002
909375000	-1.409751e+001	1.377173e+002
910937500	-1.369506e+001	1.352184e+002
912500000	-1.330551e+001	1.326602e+002
914062500	-1.292863e+001	1.301094e+002
915625000	-1.263038e+001	1.277854e+002
917187500	-1.233997e+001	1.257341e+002
918750000	-1.201972e+001	1.239540e+002
920312500	-1.169149e+001	1.220082e+002
921875000	-1.143006e+001	1.201923e+002
923437500	-1.118001e+001	1.185608e+002
925000000	-1.092140e+001	1.169082e+002
926562500	-1.064563e+001	1.154897e+002
928125000	-1.037935e+001	1.140785e+002
929687500	-1.014383e+001	1.125144e+002
931250000	-9.928321e+000	1.111927e+002
932812500	-9.728893e+000	1.100128e+002
934375000	-9.519496e+000	1.088922e+002
935937500	-9.282150e+000	1.080382e+002
937500000	-9.019929e+000	1.071066e+002
939062500	-8.757145e+000	1.058971e+002
940625000	-8.511212e+000	1.046800e+002
942187500	-8.289270e+000	1.033507e+002
943750000	-8.084023e+000	1.020012e+002
945312500	-7.922278e+000	1.006448e+002
946875000	-7.740655e+000	9.962389e+001
948437500	-7.576289e+000	9.867138e+001
950000000	-7.412242e+000	9.772661e+001
951562500	-7.214247e+000	9.676404e+001
953125000	-7.028317e+000	9.583157e+001
954687500	-6.840218e+000	9.475433e+001
956250000	-6.661634e+000	9.367972e+001
957812500	-6.495602e+000	9.243960e+001
959375000	-6.341291e+000	9.120685e+001
960937500	-6.218433e+000	9.005968e+001
962500000	-6.105917e+000	8.896390e+001
964062500	-5.988184e+000	8.801144e+001
965625000	-5.890375e+000	8.704716e+001
967187500	-5.795858e+000	8.618866e+001
968750000	-5.689211e+000	8.535655e+001
970312500	-5.576792e+000	8.459496e+001
971875000	-5.459414e+000	8.385804e+001
973437500	-5.332188e+000	8.312828e+001
975000000	-5.204441e+000	8.223524e+001
976562500	-5.084160e+000	8.136637e+001
978125000	-4.969357e+000	8.039427e+001
979687500	-4.879401e+000	7.936985e+001
981250000	-4.793910e+000	7.841586e+001
982812500	-4.731622e+000	7.749240e+001
984375000	-4.661454e+000	7.675030e+001
985937500	-4.597693e+000	7.596480e+001
987500000	-4.516975e+000	7.519966e+001
989062500	-4.453533e+000	7.440351e+001
990625000	-4.391725e+000	7.363921e+001
992187500	-4.327483e+000	7.293391e+001
993750000	-4.281226e+000	7.219831e+001
995312500	-4.234132e+000	7.152719e+001
996875000	-4.184459e+000	7.101179e+001
998437500	-4.130496e+000	7.052699e+001
1000000000	-4.061566e+000	7.006418e+001
1001562500	-3.990437e+000	6.953408e+001
1003125000	-3.894483e+000	6.898564e+001
1004687500	-3.808062e+000	6.824023e+001
1006250000	-3.742302e+000	6.759331e+001
1007812500	-3.678431e+000	6.678936e+001
1009375000	-3.620852e+000	6.605152e+001
1010937500	-3.576568e+000	6.544894e+001
1012500000	-3.535429e+000	6.482009e+001
1014062500	-3.480909e+000	6.422788e+001
1015625000	-3.449681e+000	6.363325e+001
1017187500	-3.402732e+000	6.313306e+001
1018750000	-3.357893e+000	6.258904e+001
1020312500	-3.312151e+000	6.200544e+001
1021875000	-3.272236e+000	6.149258e+001
1023437500	-3.231712e+000	6.096781e+001
1025000000	-3.183024e+000	6.051314e+001
1026562500	-3.125143e+000	6.005713e+001
1028125000	-3.070873e+000	5.952054e+001
1029687500	-3.023518e+000	5.894974e+001
1031250000	-2.972892e+000	5.842497e+001
1032812500	-2.932716e+000	5.793805e+001
1034375000	-2.880995e+000	5.740018e+001
1035937500	-2.841523e+000	5.686759e+001
1037500000	-2.793299e+000	5.634354e+001
1039062500	-2.742825e+000	5.583297e+001
1040625000	-2.704341e+000	5.521741e+001
1042187500	-2.661484e+000	5.472228e+001
1043750000	-2.631182e+000	5.409259e+001
1045312500	-2.604280e+000	5.355025e+001
1046875000	-2.579277e+000	5.305138e+001
1048437500	-2.543524e+000	5.256054e+001
1050000000	-2.512100e+000	5.210675e+001
1051562500	-2.491721e+000	5.165063e+001
1053125000	-2.462450e+000	5.120549e+001
1054687500	-2.426754e+000	5.077910e+001
1056250000	-2.396071e+000	5.034214e+001
1057812500	-2.356756e+000	4.985748e+001
1059375000	-2.333287e+000	4.944228e+001
1060937500	-2.302487e+000	4.899875e+001
1062500000	-2.269252e+000	4.862048e+001
1064062500	-2.239373e+000	4.812539e+001
1065625000	-2.208321e+000	4.763084e+001
1067187500	-2.182527e+000	4.718060e+001
1068750000	-2.161843e+000	4.680723e+001
1070312500	-2.131185e+000	4.636807e+001
1071875000	-2.109328e+000	4.597489e+001
1073437500	-2.081784e+000	4.553088e+001
1075000000	-2.052666e+000	4.514001e+001
1076562500	-2.033825e+000	4.463372e+001
1078125000	-2.011999e+000	4.425561e+001
1079687500	-1.997500e+000	4.387422e+001
1081250000	-1.969330e+000	4.348053e+001
1082812500	-1.943862e+000	4.307212e+001
1084375000	-1.929665e+000	4.266071e+001
1085937500	-1.908017e+000	4.223741e+001
1087500000	-1.891783e+000	4.191140e+001
1089062500	-1.876746e+000	4.157640e+001
1090625000	-1.853093e+000	4.121896e+001
1092187500	-1.825769e+000	4.088915e+001
1093750000	-1.799540e+000	4.048932e+001
1095312500	-1.780147e+000	4.009831e+001
1096875000	-1.764825e+000	3.971718e+001
1098437500	-1.735688e+000	3.935147e+001
1100000000	-1.714034e+000	3.893774e+001
1101562500	-1.695263e+000	3.860478e+001
1103125000	-1.680392e+000	3.824006e+001
1104687500	-1.652881e+000	3.795323e+001
1106250000	-1.632919e+000	3.756787e+001
1107812500	-1.615527e+000	3.720430e+001
1109375000	-1.593087e+000	3.691269e+001
1110937500	-1.572160e+000	3.644086e+001
1112500000	-1.553130e+000	3.608929e+001
1114062500	-1.534402e+000	3.574780e+001
1115625000	-1.519698e+000	3.538368e+001
1117187500	-1.490993e+000	3.501493e+001
1118750000	-1.466627e+000	3.469825e+001
1120312500	-1.447276e+000	3.429558e+001
1121875000	-1.434180e+000	3.400290e+001
1123437500	-1.406630e+000	3.355511e+001
1125000000	-1.391798e+000	3.320913e+001
1126562500	-1.378359e+000	3.282144e+001
1128125000	-1.356915e+000	3.249187e+001
1129687500	-1.347027e+000	3.209943e+001
1131250000	-1.328217e+000	3.171239e+001
1132812500	-1.311173e+000	3.139708e+001
1134375000	-1.293314e+000	3.104226e+001
1135937500	-1.278697e+000	3.074984e+001
1137500000	-1.261925e+000	3.038259e+001
1139062500	-1.232305e+000	3.004909e+001
1140625000	-1.222192e+000	2.966270e+001
1142187500	-1.200519e+000	2.930791e+001
1143750000	-1.184463e+000	2.893244e+001
1145312500	-1.169474e+000	2.859295e+001
1146875000	-1.154819e+000	2.825111e+001
1148437500	-1.140528e+000	2.789856e+001
1150000000	-1.127734e+000	2.751593e+001
1151562500	-1.109125e+000	2.720168e+001
1153125000	-1.097443e+000	2.684006e+001
1154687500	-1.079939e+000	2.650278e+001
1156250000	-1.068750e+000	2.617828e+001
1157812500	-1.050795e+000	2.579519e+001
1159375000	-1.036578e+000	2.544648e+001
1160937500	-1.029428e+000	2.509485e+001
1162500000	-1.012451e+000	2.472893e+001
1164062500	-1.003397e+000	2.436817e+001
1165625000	-9.932792e-001	2.402434e+001
1167187500	-9.793165e-001	2.368041e+001
1168750000	-9.739091e-001	2.336062e+001
1170312500	-9.594430e-001	2.305989e+001
1171875000	-9.480959e-001	2.274696e+001
1173437500	-9.352353e-001	2.243830e+001
1175000000	-9.195203e-001	2.210564e+001
1176562500	-9.039913e-001	2.175229e+001
1178125000	-8.980952e-001	2.138699e+001
1179687500	-8.912125e-001	2.107664e+001
1181250000	-8.852097e-001	2.071262e+001
1182812500	-8.768349e-001	2.039873e+001
1184375000	-8.769403e-001	2.002478e+001
1185937500	-8.717530e-001	1.978243e+001
1187500000	-8.636568e-001	1.948551e+001
1189062500	-8.526374e-001	1.916125e+001
1190625000	-8.438270e-001	1.883724e+001
1192187500	-8.315431e-001	1.855942e+001
1193750000	-8.303825e-001	1.824164e+001
1195312500	-8.221164e-001	1.791699e+001
1196875000	-8.127037e-001	1.760474e+001
1198437500	-8.048931e-001	1.728853e+001
1200000000	-7.948091e-001	1.700639e+001
1201562500	-7.876676e-001	1.667231e+001
1203125000	-7.761479e-001	1.636444e+001
1204687500	-7.618160e-001	1.605979e+001
1206250000	-7.509663e-001	1.571339e+001
1207812500	-7.500433e-001	1.538035e+001
1209375000	-7.433314e-001	1.509046e+001
1210937500	-7.396443e-001	1.474698e+001
1212500000	-7.375948e-001	1.446416e+001
1214062500	-7.329500e-001	1.413953e+001
1215625000	-7.275594e-001	1.381342e+001
1217187500	-7.282973e-001	1.350419e+001
1218750000	-7.206436e-001	1.321114e+001
1220312500	-7.140142e-001	1.292519e+001
1221875000	-7.090870e-001	1.263560e+001
1223437500	-6.988144e-001	1.235018e+001
1225000000	-6.985349e-001	1.203595e+001
1226562500	-6.985753e-001	1.172543e+001
1228125000	-6.880733e-001	1.144391e+001
1229687500	-6.801795e-001	1.109816e+001
1231250000	-6.732332e-001	1.080529e+001
1232812500	-6.696273e-001	1.050251e+001
1234375000	-6.652556e-001	1.015738e+001
1235937500	-6.652523e-001	9.852071e+000
1237500000	-6.575352e-001	9.571512e+000
1239062500	-6.436801e-001	9.277526e+000
1240625000	-6.492640e-001	8.987759e+000
1242187500	-6.350544e-001	8.671307e+000
1243750000	-6.314968e-001	8.371703e+000
1245312500	-6.323734e-001	8.068578e+000
1246875000	-6.234989e-001	7.716941e+000
1248437500	-6.196182e-001	7.444102e+000
1250000000	-6.112321e-001	7.147532e+000
1251562500	-6.126664e-001	6.818929e+000
1253125000	-6.057666e-001	6.488507e+000
1254687500	-6.026781e-001	6.221242e+000
1256250000	-5.956464e-001	5.935055e+000
1257812500	-5.890689e-001	5.629173e+000
1259375000	-5.862114e-001	5.335705e+000
1260937500	-5.793164e-001	5.032913e+000
1262500000	-5.788293e-001	4.712121e+000
1264062500	-5.704034e-001	4.417812e+000
1265625000	-5.702422e-001	4.134127e+000
1267187500	-5.679894e-001	3.816974e+000
1268750000	-5.620217e-001	3.502955e+000
1270312500	-5.578059e-001	3.171577e+000
1271875000	-5.605661e-001	2.887524e+000
1273437500	-5.532069e-001	2.569952e+000
1275000000	-5.531100e-001	2.277952e+000
